! MS46122B
! 2250307/22442219
! 2/19/2026 8:53:08 AM
! C:\USERS\SPARKY\DOCUMENTS\VNA_DATA\FEB19_2026\WARM2\LOAD.S2P
! CHANNEL.1
! TR.MEASUREMENT
! RAW.DATA
# GHZ S RI R 50.0
! FREQ.GHZ         S11RE         S11IM         S21RE         S21IM         S12RE         S12IM         S22RE         S22IM         
!; PortSelection: Port_12
   0.001000000     1.0461060   -0.0668001    -0.0000033    0.0000053    -0.0000004   -0.0000003     0.8022397   -0.5604402 
   0.002999900     0.9554755   -0.1904318    -0.0000017    0.0000011    -0.0000046   -0.0000021     0.0482275   -0.8080037 
   0.004999800     0.8752460   -0.2822426    -0.0000008   -0.0000004     0.0000014    0.0000000    -0.4395901   -0.4446539 
   0.006999700     0.7885846   -0.3481127    -0.0000011    0.0000020    -0.0000011   -0.0000001    -0.4773273   -0.0921549 
   0.008999600     0.7059060   -0.3927226    -0.0000026   -0.0000028     0.0000000   -0.0000008    -0.3821939    0.0819519 
   0.010999500     0.6310754   -0.4206726    -0.0000009    0.0000002    -0.0000031   -0.0000013    -0.2865554    0.1508931 
   0.012999400     0.5651750   -0.4368196     0.0000007    0.0000022    -0.0000034   -0.0000017    -0.2123513    0.1721245 
   0.014999300     0.5090564   -0.4444978    -0.0000007   -0.0000011     0.0000007   -0.0000005    -0.1575893    0.1723439 
   0.016999200     0.4615801   -0.4465084     0.0000001    0.0000004    -0.0000041   -0.0000025    -0.1168115    0.1634137 
   0.018999100     0.4210832   -0.4446445    -0.0000010   -0.0000013     0.0000002    0.0000020    -0.0858724    0.1507825 
   0.020999000     0.3872818   -0.4402021     0.0000008   -0.0000016    -0.0000036   -0.0000038    -0.0619790    0.1370530 
   0.022998900     0.3583204   -0.4342031    -0.0000006   -0.0000022    -0.0000008    0.0000015    -0.0431997    0.1235061 
   0.024998800     0.3283110   -0.4061830     0.0000005   -0.0000028    -0.0000029   -0.0000019    -0.0286983    0.1210573 
   0.026998700     0.3111122   -0.4200627     0.0000006   -0.0000006    -0.0000010   -0.0000043    -0.0169534    0.0988457 
   0.028998600     0.2913924   -0.4122450     0.0000008   -0.0000031    -0.0000033   -0.0000018    -0.0079297    0.0882180 
   0.030998500     0.2733640   -0.4043065    -0.0000013   -0.0000003     0.0000022    0.0000006    -0.0010386    0.0786932 
   0.032998400     0.2531201   -0.3785293    -0.0000012    0.0000011    -0.0000019   -0.0000023     0.0065335    0.0787183 
   0.034998300     0.2402379   -0.3888344    -0.0000006    0.0000019    -0.0000001    0.0000003     0.0076738    0.0627981 
   0.036998200     0.2245564   -0.3809532    -0.0000009   -0.0000012    -0.0000009   -0.0000014     0.0100204    0.0562260 
   0.038998100     0.2097865   -0.3724202    -0.0000007    0.0000001    -0.0000012   -0.0000005     0.0112889    0.0505711 
   0.040998000     0.1967507   -0.3641732    -0.0000007    0.0000023    -0.0000003   -0.0000006     0.0116769    0.0456719 
   0.042997900     0.1843783   -0.3565188     0.0000002   -0.0000011    -0.0000021    0.0000022     0.0114191    0.0414332 
   0.044997800     0.1712952   -0.3347697    -0.0000013    0.0000019    -0.0000020    0.0000012     0.0137950    0.0443971 
   0.046997700     0.1599337   -0.3424586    -0.0000005    0.0000019     0.0000001    0.0000003     0.0095213    0.0347068 
   0.048997600     0.1489602   -0.3355706    -0.0000005   -0.0000013     0.0000022   -0.0000033     0.0078357    0.0321956 
   0.050997500     0.1388116   -0.3287067    -0.0000055    0.0000012     0.0000001   -0.0000026     0.0059331    0.0301234 
   0.052997400     0.1286152   -0.3224097    -0.0000009    0.0000021     0.0000024   -0.0000046     0.0039604    0.0283695 
   0.054997300     0.1193648   -0.3161110     0.0000031    0.0000075    -0.0000033   -0.0000129     0.0018122    0.0270722 
   0.056997200     0.1104304   -0.3102500     0.0000030   -0.0000009     0.0000014    0.0000007    -0.0002999    0.0260275 
   0.058997100     0.1020955   -0.3045364     0.0000001   -0.0000005    -0.0000009   -0.0000008    -0.0022844    0.0251613 
   0.060997000     0.0940568   -0.2990758     0.0000001    0.0000000    -0.0000020    0.0000031    -0.0041747    0.0244847 
   0.062996900     0.0863800   -0.2938080     0.0000021    0.0000003     0.0000021    0.0000018    -0.0059394    0.0240836 
   0.064996800     0.0792052   -0.2886896     0.0000001   -0.0000014     0.0000019    0.0000004    -0.0076116    0.0239065 
   0.066996700     0.0723611   -0.2836155     0.0000036   -0.0000002     0.0000017   -0.0000020    -0.0091082    0.0239768 
   0.068996600     0.0657682   -0.2785262     0.0000029   -0.0000003     0.0000021   -0.0000006    -0.0104626    0.0242842 
   0.070996500     0.0595109   -0.2737781     0.0000016    0.0000006     0.0000012   -0.0000010    -0.0116177    0.0247791 
   0.072996400     0.0534518   -0.2685723     0.0000010   -0.0000013     0.0000006   -0.0000020    -0.0125524    0.0255111 
   0.074996300     0.0476381   -0.2633193     0.0000000   -0.0000028    -0.0000007   -0.0000020    -0.0133294    0.0265482 
   0.076996200     0.0420806   -0.2578417    -0.0000017   -0.0000047     0.0000001   -0.0000023    -0.0138564    0.0277434 
   0.078996100     0.0367929   -0.2521758    -0.0000008   -0.0000033    -0.0000002   -0.0000021    -0.0141074    0.0291286 
   0.080996000     0.0317132   -0.2463934    -0.0000023   -0.0000013    -0.0000026   -0.0000033    -0.0140909    0.0307180 
   0.082995900     0.0268836   -0.2403872     0.0000009   -0.0000045     0.0000016   -0.0000036    -0.0137454    0.0324160 
   0.084995800     0.0224276   -0.2338673    -0.0000007   -0.0000037    -0.0000015   -0.0000029    -0.0132163    0.0343193 
   0.086995700     0.0183825   -0.2274645    -0.0000037   -0.0000022    -0.0000023   -0.0000016    -0.0124146    0.0361800 
   0.088995600     0.0149451   -0.2209891    -0.0000024    0.0000015    -0.0000060   -0.0000015    -0.0113079    0.0380450 
   0.090995500     0.0119376   -0.2144710    -0.0000017    0.0000016    -0.0000029    0.0000019    -0.0099384    0.0398586 
   0.092995400     0.0095400   -0.2081230    -0.0000028    0.0000017    -0.0000046    0.0000037    -0.0082311    0.0415722 
   0.094995300     0.0076389   -0.2016318     0.0000012    0.0000064     0.0000015    0.0000022    -0.0062570    0.0431393 
   0.096995200     0.0061972   -0.1951411    -0.0000029    0.0000025    -0.0000010    0.0000043    -0.0039354    0.0444874 
   0.098995100     0.0052786   -0.1889155     0.0000006    0.0000014     0.0000039    0.0000031    -0.0013712    0.0455735 
   0.100995000     0.0036213   -0.1843241     0.0000020    0.0000031     0.0000011    0.0000021     0.0024538    0.0460545 
   0.102994900     0.0037132   -0.1789115     0.0000035   -0.0000001     0.0000028   -0.0000001     0.0053855    0.0464769 
   0.104994800     0.0043380   -0.1739462     0.0000035   -0.0000005     0.0000025    0.0000000     0.0084613    0.0464423 
   0.106994700     0.0053393   -0.1694080     0.0000006   -0.0000015     0.0000018   -0.0000018     0.0115278    0.0460160 
   0.108994600     0.0065994   -0.1655155     0.0000029   -0.0000020     0.0000021   -0.0000022     0.0145891    0.0451563 
   0.110994500     0.0080541   -0.1622407     0.0000010   -0.0000013     0.0000009   -0.0000016     0.0175582    0.0438726 
   0.112994400     0.0096332   -0.1595756    -0.0000010   -0.0000008     0.0000005   -0.0000017     0.0204014    0.0421971 
   0.114994300     0.0111727   -0.1575222    -0.0000009   -0.0000019     0.0000013   -0.0000018     0.0229812    0.0401634 
   0.116994200     0.0126124   -0.1560531    -0.0000023   -0.0000010     0.0000001   -0.0000019     0.0253268    0.0377652 
   0.118994100     0.0138469   -0.1551225     0.0000010   -0.0000013    -0.0000008   -0.0000020     0.0272797    0.0350655 
   0.120994000     0.0150535   -0.1545004    -0.0000019   -0.0000028    -0.0000015   -0.0000021     0.0288878    0.0321333 
   0.122993900     0.0156158   -0.1545079    -0.0000022    0.0000000    -0.0000002   -0.0000016     0.0300322    0.0290304 
   0.124993800     0.0157736   -0.1548325    -0.0000012   -0.0000003    -0.0000005   -0.0000023     0.0307150    0.0258436 
   0.126993700     0.0154297   -0.1553964    -0.0000004   -0.0000007    -0.0000004   -0.0000021     0.0308320    0.0226448 
   0.128993600     0.0144533   -0.1558741    -0.0000029   -0.0000006    -0.0000006   -0.0000013     0.0305723    0.0195186 
   0.130993500     0.0130445   -0.1565291    -0.0000010   -0.0000030    -0.0000022   -0.0000004     0.0298782    0.0165059 
   0.132993400     0.0111394   -0.1570733    -0.0000002    0.0000000    -0.0000019   -0.0000027     0.0287132    0.0137194 
   0.134993300     0.0087547   -0.1574274    -0.0000006    0.0000009    -0.0000008   -0.0000009     0.0271680    0.0112210 
   0.136993200     0.0058334   -0.1574243    -0.0000020    0.0000007    -0.0000003    0.0000002     0.0252720    0.0090386 
   0.138993100     0.0025293   -0.1570697    -0.0000024   -0.0000012    -0.0000017   -0.0000020     0.0231105    0.0072743 
   0.140993000    -0.0009653   -0.1563406    -0.0000010    0.0000009    -0.0000003    0.0000001     0.0207532    0.0059566 
   0.142992900    -0.0047034   -0.1550869    -0.0000010    0.0000005    -0.0000015   -0.0000007     0.0182477    0.0051198 
   0.144992800    -0.0085093   -0.1534604    -0.0000014    0.0000000    -0.0000010   -0.0000013     0.0156329    0.0047248 
   0.146992700    -0.0123345   -0.1510614    -0.0000026    0.0000004     0.0000005   -0.0000015     0.0131398    0.0048448 
   0.148992600    -0.0160324   -0.1480090     0.0000000   -0.0000001    -0.0000014   -0.0000015     0.0107422    0.0054392 
   0.150992500    -0.0194470   -0.1444096     0.0000012   -0.0000003     0.0000002   -0.0000007     0.0085050    0.0065063 
   0.152992400    -0.0226157   -0.1404771    -0.0000003    0.0000002    -0.0000013    0.0000002     0.0066112    0.0079358 
   0.154992300    -0.0253158   -0.1361212    -0.0000003    0.0000012    -0.0000002   -0.0000006     0.0050680    0.0096771 
   0.156992200    -0.0275640   -0.1313807    -0.0000001    0.0000001    -0.0000009   -0.0000003     0.0039030    0.0116906 
   0.158992100    -0.0292440   -0.1263731    -0.0000007    0.0000005     0.0000012   -0.0000005     0.0031711    0.0138711 
   0.160992000    -0.0303325   -0.1211847    -0.0000006    0.0000004    -0.0000001   -0.0000004     0.0028991    0.0161739 
   0.162991900    -0.0307794   -0.1159188    -0.0000001   -0.0000001    -0.0000003   -0.0000009     0.0030983    0.0184783 
   0.164991800    -0.0306166   -0.1106737    -0.0000010    0.0000013     0.0000021   -0.0000008     0.0037351    0.0207046 
   0.166991700    -0.0297780   -0.1055879     0.0000001    0.0000009    -0.0000001   -0.0000004     0.0048444    0.0227838 
   0.168991600    -0.0283428   -0.1007596     0.0000006    0.0000003    -0.0000008   -0.0000011     0.0063226    0.0246574 
   0.170991500    -0.0263499   -0.0962775     0.0000005   -0.0000004    -0.0000007   -0.0000022     0.0081682    0.0262055 
   0.172991400    -0.0238643   -0.0922224    -0.0000004    0.0000007     0.0000005   -0.0000004     0.0102759    0.0274028 
   0.174991300    -0.0209771   -0.0886758     0.0000000   -0.0000013     0.0000004   -0.0000018     0.0126060    0.0281876 
   0.176991200    -0.0177879   -0.0856917     0.0000001    0.0000007    -0.0000009   -0.0000027     0.0150500    0.0285510 
   0.178991100    -0.0143625   -0.0833050    -0.0000027   -0.0000013    -0.0000003   -0.0000014     0.0175343    0.0284716 
   0.180991000    -0.0108680   -0.0815254    -0.0000032   -0.0000009    -0.0000014   -0.0000008     0.0199989    0.0279042 
   0.182990900    -0.0073618   -0.0803322    -0.0000013   -0.0000015    -0.0000006   -0.0000019     0.0223077    0.0269530 
   0.184990800    -0.0039412   -0.0797544    -0.0000026    0.0000000    -0.0000023   -0.0000006     0.0245312    0.0256009 
   0.186990700    -0.0007145   -0.0797015    -0.0000031    0.0000011    -0.0000012   -0.0000006     0.0263958    0.0238947 
   0.188990600     0.0038812   -0.0799116    -0.0000022    0.0000004     0.0000010   -0.0000011     0.0268133    0.0227382 
   0.190990500     0.0049968   -0.0809098    -0.0000010   -0.0000003     0.0000008   -0.0000021     0.0289452    0.0198610 
   0.192990400     0.0069175   -0.0820997    -0.0000007    0.0000010     0.0000000   -0.0000024     0.0297974    0.0174513 
   0.194990300     0.0086328   -0.0834762    -0.0000011   -0.0000004    -0.0000014   -0.0000009     0.0300262    0.0151212 
   0.196990200     0.0098919   -0.0849797    -0.0000018   -0.0000001    -0.0000023   -0.0000016     0.0298197    0.0128254 
   0.198990100     0.0107076   -0.0865443    -0.0000011   -0.0000008    -0.0000025   -0.0000014     0.0291783    0.0106717 
   0.200990000     0.0110710   -0.0880377    -0.0000022   -0.0000013    -0.0000019   -0.0000005     0.0281340    0.0087533 
   0.202989900     0.0110679   -0.0894337    -0.0000023    0.0000014    -0.0000016   -0.0000016     0.0267518    0.0070959 
   0.204989800     0.0107054   -0.0906204    -0.0000011    0.0000027    -0.0000014   -0.0000003     0.0251087    0.0058187 
   0.206989700     0.0101458   -0.0916138    -0.0000006    0.0000013    -0.0000010    0.0000009     0.0232412    0.0049541 
   0.208989600     0.0094062   -0.0922466     0.0000008    0.0000050    -0.0000011   -0.0000010     0.0212733    0.0045145 
   0.210989500     0.0085884   -0.0926054     0.0000008    0.0000004     0.0000009   -0.0000008     0.0193058    0.0045563 
   0.212989400     0.0077176   -0.0926418     0.0000017    0.0000002     0.0000018   -0.0000004     0.0173946    0.0050692 
   0.214989300     0.0069065   -0.0923724     0.0000013    0.0000007     0.0000015   -0.0000026     0.0156304    0.0060282 
   0.216989200     0.0062761   -0.0918476     0.0000013   -0.0000004     0.0000021   -0.0000036     0.0141595    0.0074254 
   0.218989100     0.0058635   -0.0911253     0.0000001   -0.0000014     0.0000005   -0.0000046     0.0130272    0.0091571 
   0.220989000     0.0057019   -0.0902478     0.0000011   -0.0000023     0.0000001   -0.0000033     0.0123055    0.0111779 
   0.222988900     0.0058480   -0.0892916     0.0000005    0.0000005     0.0000003   -0.0000040     0.0120829    0.0134142 
   0.224988800     0.0063117   -0.0883653     0.0000015   -0.0000022    -0.0000006   -0.0000033     0.0123794    0.0157441 
   0.226988700     0.0071170   -0.0875376    -0.0000006   -0.0000023     0.0000007   -0.0000045     0.0132058    0.0180984 
   0.228988600     0.0082412   -0.0869238    -0.0000011   -0.0000015    -0.0000015   -0.0000033     0.0144784    0.0203420 
   0.230988500     0.0096548   -0.0865842    -0.0000004   -0.0000025     0.0000000   -0.0000029     0.0163925    0.0223821 
   0.232988400     0.0113098   -0.0865051    -0.0000013   -0.0000012    -0.0000009   -0.0000043     0.0187991    0.0241281 
   0.234988300     0.0130792   -0.0869272    -0.0000012   -0.0000009    -0.0000004   -0.0000038     0.0216261    0.0254766 
   0.236988200     0.0149286   -0.0878105    -0.0000012   -0.0000015    -0.0000018   -0.0000032     0.0248094    0.0263434 
   0.238988100     0.0167178   -0.0892071    -0.0000013   -0.0000001    -0.0000017   -0.0000037     0.0282485    0.0266412 
   0.240988000     0.0183839   -0.0910694    -0.0000018    0.0000001    -0.0000003   -0.0000030     0.0318485    0.0263120 
   0.242987900     0.0198529   -0.0934590    -0.0000011   -0.0000004    -0.0000004   -0.0000033     0.0354781    0.0253456 
   0.244987800     0.0209459   -0.0962880    -0.0000022   -0.0000004    -0.0000019   -0.0000016     0.0390419    0.0237129 
   0.246987700     0.0215866   -0.0995206    -0.0000008   -0.0000005    -0.0000018   -0.0000040     0.0424070    0.0214593 
   0.248987600     0.0216673   -0.1030673    -0.0000005    0.0000005    -0.0000005   -0.0000037     0.0454749    0.0185561 
   0.250987500     0.0211002   -0.1068284    -0.0000011   -0.0000002    -0.0000015   -0.0000020     0.0481552    0.0151020 
   0.252987400     0.0199059   -0.1107164    -0.0000012    0.0000017    -0.0000006   -0.0000032     0.0502678    0.0111746 
   0.254987300     0.0180947   -0.1146162     0.0000006    0.0000008    -0.0000013   -0.0000036     0.0517749    0.0068341 
   0.256987200     0.0156110   -0.1183862    -0.0000020    0.0000007    -0.0000004   -0.0000042     0.0525930    0.0022345 
   0.258987100     0.0124645   -0.1220479    -0.0000012    0.0000012    -0.0000011   -0.0000041     0.0526562   -0.0025386 
   0.260987000     0.0086683   -0.1251949    -0.0000020    0.0000020    -0.0000005   -0.0000040     0.0519470   -0.0073311 
   0.262986900     0.0042322   -0.1279158    -0.0000004   -0.0000002    -0.0000009   -0.0000044     0.0504705   -0.0120214 
   0.264986800    -0.0006827   -0.1301202     0.0000002    0.0000017    -0.0000010   -0.0000037     0.0482405   -0.0164668 
   0.266986700    -0.0060535   -0.1315754     0.0000010    0.0000003     0.0000004   -0.0000045     0.0453139   -0.0205672 
   0.268986600    -0.0115765   -0.1322126     0.0000011    0.0000015     0.0000004   -0.0000058     0.0417041   -0.0241949 
   0.270986500    -0.0171718   -0.1320669    -0.0000006    0.0000016    -0.0000011   -0.0000051     0.0375516   -0.0272649 
   0.272986400    -0.0227611   -0.1310954     0.0000004   -0.0000008    -0.0000014   -0.0000068     0.0329926   -0.0295633 
   0.274986300    -0.0281570   -0.1294189     0.0000001    0.0000020     0.0000000   -0.0000053     0.0281340   -0.0311297 
   0.276986200    -0.0333166   -0.1269502    -0.0000003   -0.0000015    -0.0000005   -0.0000053     0.0231154   -0.0319028 
   0.278986100    -0.0382183   -0.1239413    -0.0000005    0.0000002    -0.0000014   -0.0000067     0.0181024   -0.0318058 
   0.280986000    -0.0424014   -0.1201952     0.0000015   -0.0000033    -0.0000022   -0.0000064     0.0132281   -0.0308664 
   0.282985900    -0.0459579   -0.1159497     0.0000006   -0.0000010    -0.0000015   -0.0000064     0.0086385   -0.0291262 
   0.284985800    -0.0487720   -0.1113298    -0.0000016   -0.0000004    -0.0000025   -0.0000062     0.0044661   -0.0266661 
   0.286985700    -0.0507601   -0.1065551    -0.0000004   -0.0000022    -0.0000036   -0.0000072     0.0008038   -0.0235833 
   0.288985600    -0.0519158   -0.1017780    -0.0000003   -0.0000021    -0.0000017   -0.0000062    -0.0022115   -0.0199170 
   0.290985500    -0.0521697   -0.0972244    -0.0000023   -0.0000012    -0.0000025   -0.0000056    -0.0044689   -0.0158597 
   0.292985400    -0.0516491   -0.0929918    -0.0000013   -0.0000012    -0.0000046   -0.0000065    -0.0059522   -0.0115213 
   0.294985300    -0.0504160   -0.0891593    -0.0000044   -0.0000022    -0.0000045   -0.0000074    -0.0065984   -0.0070668 
   0.296985200    -0.0486280   -0.0857910    -0.0000030   -0.0000023    -0.0000041   -0.0000042    -0.0064021   -0.0026074 
   0.298985100    -0.0464533   -0.0831366    -0.0000019   -0.0000008    -0.0000063   -0.0000059    -0.0053953    0.0016131 
   0.300985000    -0.0439896   -0.0813468    -0.0000034   -0.0000015    -0.0000068   -0.0000044    -0.0035766    0.0055444 
   0.302984900    -0.0414325   -0.0804662    -0.0000021    0.0000020    -0.0000061   -0.0000033    -0.0011329    0.0089364 
   0.304984800    -0.0389473   -0.0805292    -0.0000035    0.0000005    -0.0000064   -0.0000019     0.0019440    0.0117883 
   0.306984700    -0.0367872   -0.0815489    -0.0000016    0.0000024    -0.0000064   -0.0000007     0.0054767    0.0139111 
   0.308984600    -0.0351433   -0.0834779    -0.0000010    0.0000029    -0.0000038    0.0000006     0.0093310    0.0152705 
   0.310984500    -0.0342431   -0.0862102    -0.0000004    0.0000023    -0.0000039    0.0000014     0.0133621    0.0158099 
   0.312984400    -0.0343306   -0.0895229     0.0000007    0.0000032    -0.0000025    0.0000004     0.0174374    0.0154807 
   0.314984300    -0.0356404   -0.0932978     0.0000022    0.0000025    -0.0000028    0.0000004     0.0213430    0.0143285 
