! MS46122B
! 2250307/22442219
! 2/19/2026 8:49:12 AM
! C:\USERS\SPARKY\DOCUMENTS\VNA_DATA\FEB19_2026\WARM2\OPEN.S2P
! CHANNEL.1
! TR.MEASUREMENT
! RAW.DATA
# GHZ S RI R 50.0
! FREQ.GHZ         S11RE         S11IM         S21RE         S21IM         S12RE         S12IM         S22RE         S22IM         
!; PortSelection: Port_12
   0.001000000     1.0468370   -0.0668432    -0.0000046    0.0000080     0.0000059   -0.0000030     0.8026517   -0.5612612 
   0.002999900     0.9570139   -0.2068208    -0.0000019    0.0000012     0.0000014    0.0000023     0.0103591   -0.8635699 
   0.004999800     0.7578099   -0.4471692    -0.0000017   -0.0000030     0.0000034   -0.0000006    -0.7531313   -0.4004472 
   0.006999700     0.9546059    0.1210953     0.0000009   -0.0000005    -0.0000004   -0.0000040    -0.7780949    0.5163869 
   0.008999600     0.9397537   -0.1933912     0.0000022    0.0000004    -0.0000031   -0.0000023    -0.0418267    0.9845533 
   0.010999500     0.8944481   -0.3109667     0.0000001    0.0000012    -0.0000015   -0.0000013     0.6465349    0.7328266 
   0.012999400     0.8501371   -0.3985192     0.0000018   -0.0000010    -0.0000025   -0.0000024     0.9233073    0.2227867 
   0.014999300     0.8049514   -0.4744962    -0.0000015   -0.0000002    -0.0000013    0.0000010     0.8973067   -0.2405062 
   0.016999200     0.7562487   -0.5442248     0.0000007    0.0000000     0.0000021    0.0000013     0.7148951   -0.5777956 
   0.018999100     0.7030529   -0.6095433     0.0000025   -0.0000014    -0.0000009   -0.0000023     0.4641525   -0.7906231 
   0.020999000     0.6433969   -0.6694552     0.0000047    0.0000006    -0.0000002   -0.0000015     0.1949516   -0.8971658 
   0.022998900     0.5768818   -0.7244903     0.0000018   -0.0000004     0.0000008   -0.0000026    -0.0655975   -0.9174597 
   0.024998800     0.4981686   -0.7381995    -0.0000001    0.0000000    -0.0000003   -0.0000046    -0.3046436   -0.9395393 
   0.026998700     0.4174158   -0.8157622     0.0000009    0.0000006     0.0000002   -0.0000051    -0.4997849   -0.7707897 
   0.028998600     0.3227359   -0.8484584    -0.0000021   -0.0000008     0.0000027    0.0000000    -0.6593988   -0.6345450 
   0.030998500     0.2168938   -0.8694071    -0.0000021    0.0000033    -0.0000015   -0.0000031    -0.7772311   -0.4743001 
   0.032998400     0.1115287   -0.8448519     0.0000001   -0.0000010    -0.0000004   -0.0000017    -0.9104359   -0.3359699 
   0.034998300    -0.0263192   -0.8627549     0.0000007    0.0000014    -0.0000034   -0.0000060    -0.8905936   -0.1219836 
   0.036998200    -0.1612910   -0.8248807    -0.0000074    0.0000080    -0.0000015   -0.0000015    -0.8924996    0.0535658 
   0.038998100    -0.3005524   -0.7568868    -0.0000003   -0.0000034     0.0000004   -0.0000019    -0.8619743    0.2210234 
   0.040998000    -0.4371947   -0.6517203    -0.0000019   -0.0000011    -0.0000023    0.0000015    -0.8029052    0.3761469 
   0.042997900    -0.5591015   -0.5038783    -0.0000020    0.0000014    -0.0000036   -0.0000007    -0.7194824    0.5157954 
   0.044997800    -0.6249065   -0.3118236    -0.0000024    0.0000012    -0.0000030    0.0000030    -0.6711531    0.6783908 
   0.046997700    -0.6869996   -0.0741558    -0.0000046    0.0000050    -0.0000061    0.0000027    -0.4912028    0.7358617 
   0.048997600    -0.6461073    0.1835196     0.0000038    0.0000033     0.0000022    0.0000020    -0.3526020    0.8116938 
   0.050997500    -0.5124031    0.4280281     0.0000061   -0.0000093    -0.0000015    0.0000049    -0.2046388    0.8618078 
   0.052997400    -0.2899559    0.6171626     0.0000002    0.0000003    -0.0000017   -0.0000004    -0.0478744    0.8848762 
   0.054997300    -0.0144472    0.7115582     0.0000042   -0.0000137     0.0000036    0.0000066     0.1085732    0.8798823 
   0.056997200     0.2665441    0.6998663    -0.0000012   -0.0000009    -0.0000034    0.0000024     0.2634262    0.8462763 
   0.058997100     0.5095114    0.5991483    -0.0000006    0.0000002     0.0000007    0.0000001     0.4102027    0.7850656 
   0.060997000     0.6904101    0.4412864     0.0000031    0.0000021     0.0000010    0.0000023     0.5445467    0.6973443 
   0.062996900     0.8059521    0.2572321     0.0000030    0.0000028     0.0000020    0.0000005     0.6616670    0.5857406 
   0.064996800     0.8630804    0.0700039     0.0000026    0.0000011     0.0000007    0.0000018     0.7574645    0.4525419 
   0.066996700     0.8737517   -0.1063579     0.0000021   -0.0000026     0.0000020   -0.0000012     0.8276085    0.3031415 
   0.068996600     0.8494297   -0.2658464     0.0000020   -0.0000013     0.0000023   -0.0000014     0.8689677    0.1414129 
   0.070996500     0.8002335   -0.4055880     0.0000013   -0.0000026     0.0000013   -0.0000010     0.8791592   -0.0266884 
   0.072996400     0.7314237   -0.5253612     0.0000013   -0.0000018     0.0000019   -0.0000034     0.8567283   -0.1960280 
   0.074996300     0.6490477   -0.6256082     0.0000025   -0.0000056     0.0000024   -0.0000053     0.8020614   -0.3588917 
   0.076996200     0.5568596   -0.7077379    -0.0000016   -0.0000019     0.0000010   -0.0000060     0.7158821   -0.5090079 
   0.078996100     0.4575796   -0.7731591    -0.0000005   -0.0000030    -0.0000020   -0.0000015     0.6010118   -0.6400914 
   0.080996000     0.3529406   -0.8218564     0.0000002   -0.0000039    -0.0000013   -0.0000011     0.4618750   -0.7465495 
   0.082995900     0.2440745   -0.8552181    -0.0000024   -0.0000056    -0.0000018   -0.0000050     0.3040879   -0.8232521 
   0.084995800     0.1332877   -0.8722382    -0.0000015   -0.0000034    -0.0000021   -0.0000058     0.1342047   -0.8668045 
   0.086995700     0.0211294   -0.8750944    -0.0000079   -0.0000038    -0.0000050   -0.0000041    -0.0408041   -0.8758650 
   0.088995600    -0.0910279   -0.8625150    -0.0000064    0.0000024    -0.0000066    0.0000003    -0.2133597   -0.8503025 
   0.090995500    -0.2020807   -0.8347225    -0.0000023    0.0000021    -0.0000046    0.0000029    -0.3767386   -0.7911791 
   0.092995400    -0.3114425   -0.7920519    -0.0000038    0.0000014    -0.0000040    0.0000002    -0.5243159   -0.7016750 
   0.094995300    -0.4156969   -0.7312213    -0.0000073    0.0000004    -0.0000024    0.0000009    -0.6510534   -0.5865691 
   0.096995200    -0.5140259   -0.6529055    -0.0000031    0.0000008    -0.0000064    0.0000017    -0.7523425   -0.4498534 
   0.098995100    -0.6025199   -0.5569580    -0.0000035    0.0000053    -0.0000036    0.0000078    -0.8248936   -0.2979746 
   0.100995000    -0.6805190   -0.4405443     0.0000018    0.0000084     0.0000027    0.0000072    -0.8681445   -0.1345515 
   0.102994900    -0.7382529   -0.3081646     0.0000049    0.0000049     0.0000033    0.0000046    -0.8785872    0.0305846 
   0.104994800    -0.7736973   -0.1595408     0.0000027    0.0000022     0.0000031    0.0000030    -0.8585243    0.1933201 
   0.106994700    -0.7801753    0.0019945     0.0000040   -0.0000002     0.0000036    0.0000008    -0.8089064    0.3480647 
   0.108994600    -0.7536555    0.1707678     0.0000028    0.0000001     0.0000045    0.0000011    -0.7327912    0.4898623 
   0.110994500    -0.6885716    0.3392350     0.0000035   -0.0000007     0.0000041   -0.0000004    -0.6327775    0.6145151 
   0.112994400    -0.5823095    0.4968604     0.0000034   -0.0000026     0.0000023   -0.0000030    -0.5126850    0.7182500 
   0.114994300    -0.4353595    0.6307232     0.0000004   -0.0000033     0.0000020   -0.0000011    -0.3770481    0.7984990 
   0.116994200    -0.2540964    0.7284517     0.0000017   -0.0000022     0.0000012   -0.0000016    -0.2299633    0.8526465 
   0.118994100    -0.0491397    0.7789521    -0.0000007   -0.0000029     0.0000025   -0.0000029    -0.0760412    0.8798774 
   0.120994000     0.1643903    0.7761587    -0.0000004   -0.0000020     0.0000003   -0.0000037     0.0794351    0.8792930 
   0.122993900     0.3699469    0.7174177    -0.0000012   -0.0000019    -0.0000002   -0.0000032     0.2322218    0.8512430 
   0.124993800     0.5509365    0.6098856    -0.0000012   -0.0000032     0.0000017   -0.0000027     0.3778352    0.7968371 
   0.126993700     0.6951326    0.4637870    -0.0000018   -0.0000021     0.0000000   -0.0000023     0.5113879    0.7177160 
   0.128993600     0.7944628    0.2926748    -0.0000008   -0.0000037    -0.0000024   -0.0000023     0.6292436    0.6160654 
   0.130993500     0.8498778    0.1121274    -0.0000015   -0.0000006    -0.0000009   -0.0000031     0.7270870    0.4946449 
   0.132993400     0.8627715   -0.0677766    -0.0000014   -0.0000019     0.0000002   -0.0000018     0.8021812    0.3572437 
   0.134993300     0.8382478   -0.2375906    -0.0000024    0.0000020    -0.0000009   -0.0000027     0.8518617    0.2082056 
   0.136993200     0.7831071   -0.3910174    -0.0000026    0.0000004    -0.0000027   -0.0000019     0.8738389    0.0519551 
   0.138993100     0.7031352   -0.5242785    -0.0000008    0.0000018    -0.0000008   -0.0000019     0.8670138   -0.1064479 
   0.140993000     0.6046266   -0.6349828    -0.0000012    0.0000002    -0.0000021   -0.0000040     0.8314162   -0.2618279 
   0.142992900     0.4925616   -0.7237188    -0.0000002   -0.0000007    -0.0000024   -0.0000023     0.7677541   -0.4087300 
   0.144992800     0.3725100   -0.7901549    -0.0000012    0.0000007    -0.0000016   -0.0000007     0.6769775   -0.5414983 
   0.146992700     0.2463266   -0.8337815    -0.0000013    0.0000001    -0.0000024   -0.0000018     0.5632962   -0.6560123 
   0.148992600     0.1176610   -0.8563240    -0.0000004    0.0000014    -0.0000028   -0.0000019     0.4297628   -0.7478448 
   0.150992500    -0.0103995   -0.8575061     0.0000001    0.0000013    -0.0000024   -0.0000028     0.2816289   -0.8136700 
   0.152992400    -0.1356716   -0.8402781    -0.0000012    0.0000000    -0.0000012   -0.0000011     0.1228294   -0.8501703 
   0.154992300    -0.2559114   -0.8042837     0.0000006    0.0000017    -0.0000029   -0.0000009    -0.0403315   -0.8562005 
   0.156992200    -0.3698221   -0.7504852    -0.0000003    0.0000004    -0.0000027    0.0000002    -0.2017526   -0.8312018 
   0.158992100    -0.4747443   -0.6792495    -0.0000003    0.0000021    -0.0000016    0.0000015    -0.3553943   -0.7762896 
   0.160992000    -0.5685921   -0.5920121     0.0000006    0.0000008    -0.0000015    0.0000007    -0.4958748   -0.6933816 
   0.162991900    -0.6489273   -0.4894794     0.0000002    0.0000015    -0.0000024    0.0000004    -0.6179006   -0.5857227 
   0.164991800    -0.7136402   -0.3724118     0.0000001    0.0000010    -0.0000029    0.0000011    -0.7172497   -0.4576439 
   0.166991700    -0.7594837   -0.2433848     0.0000000    0.0000005    -0.0000013    0.0000012    -0.7905287   -0.3138238 
   0.168991600    -0.7837866   -0.1046499     0.0000012   -0.0000003    -0.0000001    0.0000024    -0.8355100   -0.1592298 
   0.170991500    -0.7834451    0.0412236    -0.0000006   -0.0000005     0.0000006    0.0000018    -0.8506717    0.0000682 
   0.172991400    -0.7560264    0.1897379     0.0000014   -0.0000009     0.0000008    0.0000024    -0.8365867    0.1587358 
   0.174991300    -0.6997490    0.3357504     0.0000027   -0.0000003     0.0000010    0.0000024    -0.7935785    0.3111059 
   0.176991200    -0.6133994    0.4730421     0.0000013   -0.0000005     0.0000008    0.0000001    -0.7237763    0.4524632 
   0.178991100    -0.4975320    0.5946189     0.0000012   -0.0000026     0.0000024    0.0000002    -0.6299309    0.5781577 
   0.180991000    -0.3547066    0.6934831     0.0000009   -0.0000025     0.0000030   -0.0000009    -0.5152945    0.6840186 
   0.182990900    -0.1895620    0.7609795    -0.0000006   -0.0000027     0.0000031   -0.0000006    -0.3840529    0.7672508 
   0.184990800    -0.0093794    0.7913514    -0.0000016   -0.0000037     0.0000020   -0.0000042    -0.2404006    0.8253157 
   0.186990700     0.1762938    0.7808068    -0.0000015   -0.0000043     0.0000011   -0.0000015    -0.0893068    0.8570766 
   0.188990600     0.3347065    0.7376371    -0.0000028   -0.0000037     0.0000001   -0.0000048     0.0407814    0.8632008 
   0.190990500     0.5168439    0.6381242    -0.0000036   -0.0000022    -0.0000019   -0.0000045     0.2137150    0.8384383 
   0.192990400     0.6574689    0.5102836    -0.0000060   -0.0000015    -0.0000007   -0.0000037     0.3624622    0.7874559 
   0.194990300     0.7625566    0.3582863    -0.0000058   -0.0000015    -0.0000029   -0.0000035     0.4969607    0.7123492 
   0.196990200     0.8306144    0.1904949    -0.0000038    0.0000002    -0.0000019   -0.0000035     0.6160228    0.6142579 
   0.198990100     0.8597108    0.0163551    -0.0000044    0.0000017    -0.0000019   -0.0000040     0.7157024    0.4962872 
   0.200990000     0.8517402   -0.1554466    -0.0000051    0.0000015    -0.0000037   -0.0000051     0.7930542    0.3618660 
   0.202989900     0.8097647   -0.3175912    -0.0000048    0.0000050    -0.0000044   -0.0000023     0.8451286    0.2151582 
   0.204989800     0.7390487   -0.4632800    -0.0000022    0.0000060    -0.0000040   -0.0000012     0.8702058    0.0608124 
   0.206989700     0.6452426   -0.5887632    -0.0000014    0.0000070    -0.0000022    0.0000003     0.8666823   -0.0961546 
   0.208989600     0.5326640   -0.6909387     0.0000012    0.0000058    -0.0000012    0.0000018     0.8344874   -0.2506633 
   0.210989500     0.4067295   -0.7687382     0.0000039    0.0000050     0.0000014    0.0000003     0.7740976   -0.3975212 
   0.212989400     0.2718707   -0.8217579     0.0000043    0.0000030    -0.0000003   -0.0000011     0.6872360   -0.5314348 
   0.214989300     0.1331410   -0.8498458     0.0000053    0.0000005    -0.0000005   -0.0000029     0.5763404   -0.6474344 
   0.216989200    -0.0055419   -0.8540274     0.0000045   -0.0000002    -0.0000014   -0.0000034     0.4450199   -0.7409398 
   0.218989100    -0.1410876   -0.8351150     0.0000028   -0.0000024    -0.0000008   -0.0000052     0.2979612   -0.8085645 
   0.220989000    -0.2706087   -0.7940240     0.0000020   -0.0000034    -0.0000019   -0.0000039     0.1403141   -0.8471476 
   0.222988900    -0.3908901   -0.7320614     0.0000021   -0.0000034    -0.0000038   -0.0000022    -0.0223004   -0.8550823 
   0.224988800    -0.5001068   -0.6511016     0.0000013   -0.0000037    -0.0000020   -0.0000026    -0.1836724   -0.8316863 
   0.226988700    -0.5943792   -0.5526681     0.0000007   -0.0000027    -0.0000031   -0.0000022    -0.3377559   -0.7781576 
   0.228988600    -0.6713411   -0.4387794    -0.0000010   -0.0000038    -0.0000028   -0.0000026    -0.4784206   -0.6959760 
   0.230988500    -0.7285057   -0.3119663    -0.0000002   -0.0000032    -0.0000019   -0.0000010    -0.6005288   -0.5885345 
   0.232988400    -0.7625844   -0.1736294    -0.0000017   -0.0000027    -0.0000003   -0.0000014    -0.6998866   -0.4604035 
   0.234988300    -0.7729552   -0.0288565    -0.0000022   -0.0000032    -0.0000015   -0.0000023    -0.7724243   -0.3162778 
   0.236988200    -0.7565356    0.1190636    -0.0000026   -0.0000027    -0.0000016   -0.0000009    -0.8161254   -0.1614573 
   0.238988100    -0.7112010    0.2654894    -0.0000044   -0.0000020    -0.0000002    0.0000003    -0.8296885   -0.0021015 
   0.240988000    -0.6366946    0.4034804    -0.0000042   -0.0000033     0.0000009   -0.0000007    -0.8131493    0.1559418 
   0.242987900    -0.5344942    0.5273685    -0.0000029   -0.0000006     0.0000018   -0.0000011    -0.7676374    0.3068900 
   0.244987800    -0.4051931    0.6306434    -0.0000035   -0.0000018     0.0000019   -0.0000007    -0.6953022    0.4458514 
   0.246987700    -0.2536255    0.7067975    -0.0000024    0.0000006     0.0000031   -0.0000026    -0.5991522    0.5683057 
   0.248987600    -0.0855476    0.7499169    -0.0000034   -0.0000007     0.0000031   -0.0000042    -0.4829735    0.6702368 
   0.250987500     0.0912706    0.7553610    -0.0000034    0.0000028     0.0000039   -0.0000053    -0.3512075    0.7487069 
   0.252987400     0.2668816    0.7219009    -0.0000024    0.0000019     0.0000025   -0.0000063    -0.2080348    0.8017828 
   0.254987300     0.4310060    0.6495868    -0.0000011    0.0000045     0.0000013   -0.0000095    -0.0586009    0.8279201 
   0.256987200     0.5746708    0.5426235    -0.0000019    0.0000029    -0.0000003   -0.0000082     0.0924581    0.8270022 
   0.258987100     0.6915205    0.4078855    -0.0000010    0.0000035    -0.0000015   -0.0000108     0.2401139    0.7991292 
   0.260987000     0.7742096    0.2521979    -0.0000010    0.0000020    -0.0000039   -0.0000110     0.3803508    0.7455701 
   0.262986900     0.8203652    0.0845177    -0.0000004    0.0000023    -0.0000053   -0.0000094     0.5083714    0.6681222 
   0.264986800     0.8296503   -0.0853128    -0.0000003    0.0000025    -0.0000085   -0.0000070     0.6207170    0.5695303 
   0.266986700     0.8042800   -0.2496083    -0.0000006    0.0000019    -0.0000099   -0.0000054     0.7137963    0.4525962 
   0.268986600     0.7477921   -0.4005706     0.0000029    0.0000006    -0.0000070   -0.0000019     0.7847891    0.3210260 
   0.270986500     0.6650417   -0.5333131     0.0000018    0.0000010    -0.0000039    0.0000005     0.8315027    0.1785153 
   0.272986400     0.5620849   -0.6446540     0.0000018   -0.0000001    -0.0000013    0.0000013     0.8524666    0.0295498 
   0.274986300     0.4440389   -0.7325804     0.0000034   -0.0000005     0.0000017   -0.0000003     0.8463250   -0.1213666 
   0.276986200     0.3156294   -0.7962885     0.0000010   -0.0000029     0.0000034   -0.0000039     0.8126343   -0.2692817 
   0.278986100     0.1805614   -0.8354582     0.0000004   -0.0000023     0.0000021   -0.0000059     0.7533225   -0.4095818 
   0.280986000     0.0436099   -0.8507573    -0.0000014   -0.0000006     0.0000032   -0.0000098     0.6691908   -0.5375023 
   0.282985900    -0.0913836   -0.8429431     0.0000000   -0.0000032    -0.0000004   -0.0000104     0.5626500   -0.6487768 
   0.284985800    -0.2215831   -0.8135138    -0.0000011   -0.0000027    -0.0000029   -0.0000099     0.4370026   -0.7390363 
   0.286985700    -0.3437341   -0.7633087     0.0000004   -0.0000036    -0.0000080   -0.0000095     0.2962516   -0.8052430 
   0.288985600    -0.4551011   -0.6950234    -0.0000009   -0.0000024    -0.0000063   -0.0000086     0.1448950   -0.8445517 
   0.290985500    -0.5533087   -0.6098366    -0.0000021   -0.0000022    -0.0000061   -0.0000073    -0.0117107   -0.8551314 
   0.292985400    -0.6364680   -0.5102484    -0.0000028   -0.0000028    -0.0000085   -0.0000065    -0.1682615   -0.8361717 
   0.294985300    -0.7031963   -0.3974906    -0.0000047   -0.0000016    -0.0000103   -0.0000027    -0.3191599   -0.7883798 
   0.296985200    -0.7509084   -0.2731486    -0.0000059   -0.0000009    -0.0000097   -0.0000017    -0.4585466   -0.7127121 
   0.298985100    -0.7774530   -0.1398575    -0.0000053   -0.0000002    -0.0000109    0.0000010    -0.5812037   -0.6123888 
   0.300985000    -0.7806492   -0.0008745    -0.0000066    0.0000017    -0.0000088    0.0000027    -0.6827671   -0.4907129 
   0.302984900    -0.7582070    0.1396670    -0.0000056    0.0000046    -0.0000074    0.0000051    -0.7596634   -0.3524819 
   0.304984800    -0.7094236    0.2769319    -0.0000053    0.0000053    -0.0000044    0.0000055    -0.8089579   -0.2023671 
   0.306984700    -0.6329163    0.4058037    -0.0000025    0.0000039    -0.0000016    0.0000059    -0.8290190   -0.0462594 
   0.308984600    -0.5295505    0.5193691     0.0000002    0.0000051     0.0000009    0.0000056    -0.8197318    0.1099717 
   0.310984500    -0.4015493    0.6110744     0.0000009    0.0000043     0.0000030    0.0000043    -0.7816747    0.2612880 
   0.312984400    -0.2532263    0.6742172     0.0000030    0.0000026     0.0000048    0.0000025    -0.7161391    0.4020909 
   0.314984300    -0.0912283    0.7026312     0.0000032    0.0000018     0.0000043    0.0000018    -0.6262542    0.5275853 
