! MS46122B
! 2250307/22442219
! 2/19/2026 8:59:35 AM
! C:\USERS\SPARKY\DOCUMENTS\VNA_DATA\FEB19_2026\WARM2\PORT6.S2P
! CHANNEL.1
! TR.MEASUREMENT
! RAW.DATA
# GHZ S RI R 50.0
! FREQ.GHZ         S11RE         S11IM         S21RE         S21IM         S12RE         S12IM         S22RE         S22IM         
!; PortSelection: Port_12
   0.001000000     1.0460610   -0.0666222    -0.0001950   -0.0009216    -0.0001402   -0.0009232     0.8045387   -0.5590383 
   0.002999900     0.9618051   -0.1928274    -0.0197217   -0.0147987    -0.0206247   -0.0152620     0.0473197   -0.8632159 
   0.004999800     0.8781193   -0.3121058    -0.1198654    0.0015225    -0.1260063    0.0045031    -0.7127022   -0.4281528 
   0.006999700     0.7101962   -0.3844886    -0.2224025    0.2902811    -0.2162693    0.3104467    -0.4120291    0.6487837 
   0.008999600     0.6379249   -0.2942349     0.2353722    0.4844071     0.2474176    0.4858720     0.4887644   -0.0217913 
   0.010999500     0.6681595   -0.3166484     0.4667964    0.2151279     0.4817801    0.2177908    -0.0137818   -0.4850740 
   0.012999400     0.6511752   -0.3804412     0.4930027    0.0040871     0.5106836   -0.0024135    -0.4009130   -0.3550147 
   0.014999300     0.6072925   -0.4389907     0.4681537   -0.1532160     0.4814987   -0.1688624    -0.5505018   -0.0947889 
   0.016999200     0.5501515   -0.4857394     0.4180023   -0.2859399     0.4214307   -0.3055084    -0.5331977    0.1551692 
   0.018999100     0.4844406   -0.5177013     0.3423543   -0.4034934     0.3367290   -0.4211110    -0.4076671    0.3415036 
   0.020999000     0.4137004   -0.5330970     0.2391510   -0.5046482     0.2267308   -0.5158165    -0.2232648    0.4397339 
   0.022998900     0.3443741   -0.5298153     0.1054879   -0.5821359     0.0914848   -0.5843618    -0.0244422    0.4428153 
   0.024998800     0.2804601   -0.4855704    -0.0262481   -0.6508318    -0.0731821   -0.6189457     0.1546576    0.3923171 
   0.026998700     0.2340504   -0.4717357    -0.2323224   -0.6160136    -0.2352346   -0.6077920     0.2526353    0.2137850 
   0.028998600     0.2038312   -0.4277391    -0.4072150   -0.5510455    -0.4043095   -0.5452722     0.2753360    0.0443614 
   0.030998500     0.1931518   -0.3849912    -0.5575017   -0.4314079    -0.5525736   -0.4304713     0.2148214   -0.1045118 
   0.032998400     0.1954903   -0.3370665    -0.6762986   -0.3139382    -0.6657565   -0.2650157     0.1089891   -0.2069080 
   0.034998300     0.2079729   -0.3333127    -0.7159640   -0.0874728    -0.7166957   -0.0896509    -0.0460204   -0.2121536 
   0.036998200     0.2174110   -0.3275625    -0.7147547    0.0967071    -0.7170148    0.0973324    -0.1678057   -0.1576162 
   0.038998100     0.2207229   -0.3298479    -0.6685228    0.2675669    -0.6693422    0.2716087    -0.2429283   -0.0580297 
   0.040998000     0.2170672   -0.3366896    -0.5847042    0.4183800    -0.5815191    0.4237304    -0.2640240    0.0600268 
   0.042997900     0.2054652   -0.3439839    -0.4704407    0.5424106    -0.4634322    0.5462183    -0.2309709    0.1722292 
   0.044997800     0.1861025   -0.3330702    -0.3792979    0.6443627    -0.3173020    0.6411733    -0.1682269    0.2775710 
   0.046997700     0.1658302   -0.3463053    -0.1812395    0.6974938    -0.1724753    0.6929809    -0.0510832    0.3007440 
   0.048997600     0.1450853   -0.3384005    -0.0189410    0.7241141    -0.0127774    0.7155005     0.0588129    0.2982259 
   0.050997500     0.1278528   -0.3249936     0.1468062    0.7141016     0.1469558    0.7043067     0.1570290    0.2516614 
   0.052997400     0.1158908   -0.3086806     0.3085524    0.6657370     0.3020809    0.6584422     0.2273308    0.1699841 
   0.054997300     0.1106987   -0.2920256     0.4554266    0.5804299     0.4444559    0.5784833     0.2581320    0.0686462 
   0.056997200     0.1113033   -0.2785832     0.5766421    0.4652389     0.5695435    0.4634629     0.2460577   -0.0346412 
   0.058997100     0.1163190   -0.2703175     0.6689315    0.3219861     0.6633676    0.3231873     0.1947522   -0.1232416 
   0.060997000     0.1226415   -0.2687156     0.7243768    0.1609941     0.7213883    0.1636228     0.1146804   -0.1818093 
   0.062996900     0.1270443   -0.2734772     0.7401995   -0.0066970     0.7390639   -0.0047716     0.0208782   -0.2029027 
   0.064996800     0.1270530   -0.2829120     0.7172610   -0.1715645     0.7168140   -0.1708517    -0.0693966   -0.1850974 
   0.066996700     0.1210326   -0.2945302     0.6584493   -0.3246062     0.6572400   -0.3249578    -0.1414543   -0.1348535 
   0.068996600     0.1085018   -0.3055930     0.5692095   -0.4588717     0.5661129   -0.4587410    -0.1848458   -0.0634665 
   0.070996500     0.0910096   -0.3137579     0.4549507   -0.5700217     0.4504882   -0.5676098    -0.1950248    0.0152913 
   0.072996400     0.0697044   -0.3164867     0.3209079   -0.6532665     0.3166406   -0.6480822    -0.1738078    0.0874305 
   0.074996300     0.0469024   -0.3131816     0.1733926   -0.7064497     0.1713364   -0.6984158    -0.1275392    0.1421862 
   0.076996200     0.0252753   -0.3033760     0.0180876   -0.7278975     0.0195169   -0.7184126    -0.0659431    0.1720265 
   0.078996100     0.0069837   -0.2880891    -0.1385793   -0.7162066    -0.1329915   -0.7071828    -0.0001870    0.1741438 
   0.080996000    -0.0064729   -0.2689399    -0.2904218   -0.6717452    -0.2811084   -0.6651406     0.0580322    0.1499923 
   0.082995900    -0.0140414   -0.2479374    -0.4302361   -0.5949249    -0.4191076   -0.5925741     0.0996000    0.1050659 
   0.084995800    -0.0149083   -0.2272942    -0.5500748   -0.4889902    -0.5388519   -0.4907205     0.1175498    0.0489020 
   0.086995700    -0.0108004   -0.2101336    -0.6449937   -0.3584558    -0.6354433   -0.3637516     0.1097054   -0.0080339 
   0.088995600    -0.0034684   -0.1971215    -0.7089084   -0.2097335    -0.7015843   -0.2170804     0.0784022   -0.0550890 
   0.090995500     0.0051109   -0.1893929    -0.7380047   -0.0503238    -0.7335527   -0.0584920     0.0302702   -0.0834674 
   0.092995400     0.0128191   -0.1866731    -0.7317300    0.1115215    -0.7287158    0.1036850    -0.0254739   -0.0880031 
   0.094995300     0.0177431   -0.1872029    -0.6893864    0.2667846    -0.6875392    0.2597795    -0.0780147   -0.0676449 
   0.096995200     0.0190210   -0.1894675    -0.6146067    0.4085984    -0.6130904    0.4020651    -0.1166992   -0.0266652 
   0.098995100     0.0165487   -0.1915661    -0.5116363    0.5302457    -0.5102106    0.5233701    -0.1347866    0.0269767 
   0.100995000     0.0097393   -0.1929329    -0.3836230    0.6285397    -0.3842502    0.6200635    -0.1281960    0.0849963 
   0.102994900     0.0027042   -0.1901973    -0.2403035    0.6951391    -0.2429577    0.6857968    -0.0993516    0.1350525 
   0.104994800    -0.0041073   -0.1842472    -0.0866985    0.7297793    -0.0922975    0.7207257    -0.0527372    0.1697046 
   0.106994700    -0.0092409   -0.1753623     0.0707472    0.7311999     0.0621816    0.7240871     0.0038940    0.1835166 
   0.108994600    -0.0115057   -0.1647249     0.2250467    0.6993300     0.2141162    0.6952925     0.0613312    0.1740788 
   0.110994500    -0.0102908   -0.1536759     0.3696240    0.6355116     0.3577921    0.6354932     0.1107886    0.1434714 
   0.112994400    -0.0055751   -0.1435094     0.4976328    0.5421571     0.4864721    0.5457000     0.1442704    0.0968212 
   0.114994300     0.0018893   -0.1360276     0.6027329    0.4230271     0.5935278    0.4297111     0.1568582    0.0415775 
   0.116994200     0.0109780   -0.1320299     0.6796827    0.2836432     0.6733095    0.2921233     0.1472449   -0.0133853 
   0.118994100     0.0201635   -0.1318013     0.7244193    0.1307179     0.7211174    0.1396020     0.1175991   -0.0588524 
   0.120994000     0.0281052   -0.1348697     0.7351065   -0.0275369     0.7339259   -0.0196124     0.0734013   -0.0881033 
   0.122993900     0.0333828   -0.1405916     0.7108050   -0.1846194     0.7111685   -0.1773226     0.0226628   -0.0966484 
   0.124993800     0.0354888   -0.1474494     0.6534320   -0.3318796     0.6543688   -0.3254937    -0.0258067   -0.0839297 
   0.126993700     0.0343860   -0.1543473     0.5661195   -0.4628983     0.5674781   -0.4562932    -0.0635731   -0.0529163 
   0.128993600     0.0305711   -0.1597830     0.4531423   -0.5711852     0.4557213   -0.5641614    -0.0842098   -0.0103933 
   0.130993500     0.0251631   -0.1632502     0.3206356   -0.6529263     0.3246557   -0.6456633    -0.0850394    0.0357390 
   0.132993400     0.0191142   -0.1644465     0.1744615   -0.7048156     0.1806739   -0.6978812    -0.0667442    0.0771825 
   0.134993300     0.0134739   -0.1635624     0.0210601   -0.7245656     0.0297564   -0.7189303    -0.0332548    0.1067186 
   0.136993200     0.0090635   -0.1612377    -0.1328474   -0.7116207    -0.1220862   -0.7083988     0.0093567    0.1196109 
   0.138993100     0.0060811   -0.1583182    -0.2803468   -0.6666473    -0.2687443   -0.6665862     0.0533596    0.1137898 
   0.140993000     0.0046106   -0.1557813    -0.4148667   -0.5914750    -0.4034908   -0.5950944     0.0910467    0.0905583 
   0.142992900     0.0041530   -0.1544394    -0.5304057   -0.4893722    -0.5205891   -0.4962139     0.1162978    0.0539429 
   0.144992800     0.0039682   -0.1547992    -0.6215597   -0.3655708    -0.6146045   -0.3744228     0.1247033    0.0102098 
   0.146992700     0.0027866   -0.1565475    -0.6842062   -0.2246907    -0.6798739   -0.2347605     0.1150712   -0.0331754 
   0.148992600    -0.0000436   -0.1593287    -0.7150796   -0.0743008    -0.7132277   -0.0843703     0.0890975   -0.0693967 
   0.150992500    -0.0049552   -0.1620971    -0.7125125    0.0784134    -0.7128462    0.0690492     0.0512195   -0.0922389 
   0.152992400    -0.0123617   -0.1643940    -0.6783012    0.2267601    -0.6801559    0.2183652     0.0075256   -0.0983752 
   0.154992300    -0.0216956   -0.1646587    -0.6138163    0.3638850    -0.6168401    0.3559095    -0.0348629   -0.0869010 
   0.156992200    -0.0323362   -0.1621853    -0.5224040    0.4838888    -0.5265440    0.4762903    -0.0686973   -0.0601475 
   0.158992100    -0.0432453   -0.1562733    -0.4085701    0.5817516    -0.4138735    0.5747973    -0.0888942   -0.0231462 
   0.160992000    -0.0531505   -0.1472699    -0.2770785    0.6536224    -0.2843408    0.6474493    -0.0929830    0.0178494 
   0.162991900    -0.0608655   -0.1354357    -0.1338484    0.6966130    -0.1430065    0.6918769    -0.0811105    0.0560407 
   0.164991800    -0.0655550   -0.1213554     0.0149469    0.7090584     0.0046444    0.7065915    -0.0558659    0.0855720 
   0.166991700    -0.0666160   -0.1065528     0.1633333    0.6904306     0.1523319    0.6908367    -0.0219011    0.1021739 
   0.168991600    -0.0640346   -0.0920514     0.3049459    0.6411409     0.2942279    0.6446925     0.0143667    0.1037998 
   0.170991500    -0.0581605   -0.0788987     0.4334274    0.5630088     0.4244670    0.5691077     0.0469270    0.0910388 
   0.172991400    -0.0496229   -0.0681894     0.5428767    0.4593275     0.5363288    0.4673727     0.0705889    0.0668985 
   0.174991300    -0.0395129   -0.0603838     0.6281469    0.3345366     0.6241340    0.3436269     0.0815533    0.0362510 
   0.176991200    -0.0289036   -0.0555342     0.6851801    0.1941371     0.6834642    0.2030357     0.0784223    0.0049310 
   0.178991100    -0.0186700   -0.0533860     0.7111425    0.0444258     0.7109035    0.0526306     0.0623475   -0.0210764 
   0.180991000    -0.0096076   -0.0533270     0.7046168   -0.1071659     0.7055943   -0.0996235     0.0368982   -0.0370403 
   0.182990900    -0.0019668   -0.0545840     0.6655092   -0.2542461     0.6675373   -0.2467488     0.0070045   -0.0398910 
   0.184990800     0.0043397   -0.0564188     0.5964618   -0.3891692     0.5990222   -0.3821000    -0.0211074   -0.0292771 
   0.186990700     0.0094970   -0.0582898     0.5003053   -0.5061410     0.5039423   -0.4995502    -0.0418280   -0.0071965 
   0.188990600     0.0151908   -0.0592324     0.3993185   -0.5878549     0.4014376   -0.5838717    -0.0521463    0.0210399 
   0.190990500     0.0189164   -0.0608703     0.2482992   -0.6654565     0.2552890   -0.6604038    -0.0468643    0.0537791 
   0.192990400     0.0239530   -0.0622646     0.0988343   -0.7030767     0.1077724   -0.6996127    -0.0290888    0.0816712 
   0.194990300     0.0299317   -0.0641762    -0.0524067   -0.7076159    -0.0422749   -0.7066849    -0.0011352    0.1004622 
   0.196990200     0.0365508   -0.0674198    -0.2009712   -0.6800666    -0.1904951   -0.6819233     0.0329249    0.1069548 
   0.198990100     0.0433033   -0.0725846    -0.3404468   -0.6214085    -0.3305534   -0.6264443     0.0677016    0.0996697 
   0.200990000     0.0494549   -0.0800457    -0.4641831   -0.5344751    -0.4559189   -0.5419371     0.0974969    0.0795263 
   0.202989900     0.0540901   -0.0898276    -0.5662199   -0.4228130    -0.5604927   -0.4320566     0.1178077    0.0494368 
   0.204989800     0.0561670   -0.1015648    -0.6420562   -0.2924936    -0.6386731   -0.3020935     0.1257687    0.0138859 
   0.206989700     0.0551418   -0.1144703    -0.6883765   -0.1494278    -0.6869034   -0.1589106     0.1200905   -0.0217349 
   0.208989600     0.0503157   -0.1273925    -0.7023194   -0.0002322    -0.7029947   -0.0098168     0.1020937   -0.0524063 
   0.210989500     0.0416797   -0.1391676    -0.6845249    0.1476720    -0.6867101    0.1389724     0.0749073   -0.0737953 
   0.212989400     0.0294318   -0.1487265    -0.6360868    0.2877355    -0.6395419    0.2801530     0.0429193   -0.0835114 
   0.214989300     0.0145407   -0.1548351    -0.5594370    0.4138992    -0.5643134    0.4069981     0.0108547   -0.0808873 
   0.216989200    -0.0020559   -0.1567588    -0.4591423    0.5204244    -0.4651674    0.5144457    -0.0162865   -0.0673877 
   0.218989100    -0.0189161   -0.1537905    -0.3391483    0.6035059    -0.3469530    0.5986159    -0.0349757   -0.0463487 
   0.220989000    -0.0347121   -0.1464263    -0.2052847    0.6596522    -0.2142724    0.6567267    -0.0436722   -0.0220647 
   0.222988900    -0.0482191   -0.1349544    -0.0631848    0.6868200    -0.0724352    0.6863310    -0.0424490    0.0013735 
   0.224988800    -0.0584474   -0.1201055     0.0815888    0.6843749     0.0726411    0.6859719    -0.0332083    0.0200968 
   0.226988700    -0.0642601   -0.1028691     0.2225705    0.6521505     0.2147024    0.6559041    -0.0191037    0.0316312 
   0.228988600    -0.0653489   -0.0847395     0.3541083    0.5913318     0.3473310    0.5969535    -0.0039190    0.0351558 
   0.230988500    -0.0617393   -0.0669547     0.4699643    0.5045889     0.4651429    0.5110559     0.0087955    0.0314323 
   0.232988400    -0.0536746   -0.0506619     0.5658674    0.3946831     0.5626940    0.4018767     0.0159809    0.0227552 
   0.234988300    -0.0419775   -0.0369951     0.6369779    0.2669523     0.6353486    0.2741752     0.0160557    0.0125877 
   0.236988200    -0.0272620   -0.0266243     0.6796146    0.1266426     0.6791207    0.1333815     0.0090203    0.0045548 
   0.238988100    -0.0105362   -0.0202696     0.6916474   -0.0198552     0.6918512   -0.0134856    -0.0032731    0.0020897 
   0.240988000     0.0071594   -0.0180533     0.6719213   -0.1663696     0.6731716   -0.1595203    -0.0174979    0.0075680 
   0.242987900     0.0248400   -0.0200117     0.6213438   -0.3052451     0.6239474   -0.2978291    -0.0297493    0.0215896 
   0.244987800     0.0416933   -0.0259863     0.5418562   -0.4302605     0.5467306   -0.4225987    -0.0359420    0.0429986 
   0.246987700     0.0568420   -0.0355574     0.4374114   -0.5351875     0.4445529   -0.5285791    -0.0326355    0.0688305 
   0.248987600     0.0696257   -0.0481781     0.3130788   -0.6151200     0.3220704   -0.6104019    -0.0179676    0.0948738 
   0.250987500     0.0795773   -0.0634140     0.1744744   -0.6664075     0.1846251   -0.6642023     0.0076761    0.1162572 
   0.252987400     0.0862934   -0.0805135     0.0287318   -0.6865416     0.0390627   -0.6874743     0.0422523    0.1284674 
   0.254987300     0.0895315   -0.0989107    -0.1176833   -0.6747413    -0.1076598   -0.6789361     0.0820580    0.1282223 
   0.256987200     0.0892485   -0.1181143    -0.2571329   -0.6324449    -0.2487652   -0.6390774     0.1221596    0.1138723 
   0.258987100     0.0851512   -0.1375366    -0.3838810   -0.5618539    -0.3773795   -0.5700128     0.1570178    0.0858369 
   0.260987000     0.0770529   -0.1558000    -0.4917252   -0.4656886    -0.4881523   -0.4751534     0.1820458    0.0464427 
   0.262986900     0.0651814   -0.1726414    -0.5763113   -0.3501384    -0.5751651   -0.3591329     0.1935588   -0.0001662 
   0.264986800     0.0496263   -0.1873692    -0.6341416   -0.2201784    -0.6349852   -0.2282376     0.1895907   -0.0487770 
   0.266986700     0.0310770   -0.1988995    -0.6632578   -0.0818329    -0.6655142   -0.0887704     0.1703826   -0.0942025 
   0.268986600     0.0101210   -0.2066410    -0.6628215    0.0583767    -0.6658721    0.0523578     0.1380461   -0.1309638 
   0.270986500    -0.0123248   -0.2101034    -0.6335501    0.1941855    -0.6371677    0.1889042     0.0963376   -0.1555036 
   0.272986400    -0.0355753   -0.2091137    -0.5772668    0.3204441    -0.5815889    0.3154585     0.0503786   -0.1653391 
   0.274986300    -0.0581012   -0.2032643    -0.4966796    0.4318159    -0.5023400    0.4273873     0.0053012   -0.1605029 
   0.276986200    -0.0792956   -0.1926449    -0.3955379    0.5239848    -0.4027406    0.5204278    -0.0335691   -0.1426228 
   0.278986100    -0.0978848   -0.1777179    -0.2779613    0.5936225    -0.2861068    0.5914465    -0.0630560   -0.1151651 
   0.280986000    -0.1129854   -0.1589935    -0.1488416    0.6375875    -0.1571713    0.6375840    -0.0806121   -0.0826646 
   0.282985900    -0.1237240   -0.1375171    -0.0137129    0.6545549    -0.0210989    0.6562734    -0.0861248   -0.0497308 
   0.284985800    -0.1295667   -0.1143962     0.1225304    0.6433868     0.1161594    0.6466527    -0.0812389   -0.0206309 
   0.286985700    -0.1299508   -0.0910479     0.2539599    0.6043098     0.2489903    0.6086357    -0.0689353    0.0013388 
   0.288985600    -0.1251163   -0.0687380     0.3750659    0.5386223     0.3713033    0.5439322    -0.0529949    0.0148371 
   0.290985500    -0.1154171   -0.0485088     0.4803358    0.4487126     0.4772223    0.4546024    -0.0375383    0.0199166 
   0.292985400    -0.1017990   -0.0318278     0.5647100    0.3382168     0.5624194    0.3446395    -0.0259545    0.0184219 
   0.294985300    -0.0851570   -0.0191706     0.6241421    0.2115736     0.6227624    0.2189607    -0.0204846    0.0134419 
   0.296985200    -0.0664677   -0.0110537     0.6551877    0.0748535     0.6549375    0.0821924    -0.0217726    0.0086913 
   0.298985100    -0.0468596   -0.0076740     0.6564876   -0.0661835     0.6573606   -0.0588738    -0.0285217    0.0078143 
   0.300985000    -0.0279899   -0.0091130     0.6268808   -0.2043009     0.6293527   -0.1975395    -0.0378365    0.0135310 
   0.302984900    -0.0106741   -0.0149236     0.5681624   -0.3329588     0.5722785   -0.3268324    -0.0460181    0.0269401 
   0.304984800     0.0042730   -0.0245489     0.4828640   -0.4457304     0.4887729   -0.4407171    -0.0487649    0.0472593 
   0.306984700     0.0161691   -0.0371993     0.3751968   -0.5371135     0.3826543   -0.5338529    -0.0426364    0.0715727 
   0.308984600     0.0245849   -0.0519303     0.2510585   -0.6022925     0.2591593   -0.6016240    -0.0254989    0.0956327 
   0.310984500     0.0293406   -0.0681262     0.1163798   -0.6389400     0.1245084   -0.6403959     0.0026820    0.1144415 
   0.312984400     0.0302975   -0.0848677    -0.0219976   -0.6452332    -0.0148457   -0.6490215     0.0392628    0.1228939 
   0.314984300     0.0274697   -0.1016240    -0.1574013   -0.6217175    -0.1513758   -0.6269683     0.0797597    0.1174022 
