! MS46122B
! 2250307/22442219
! 2/19/2026 8:43:30 AM
! C:\USERS\SPARKY\DOCUMENTS\VNA_DATA\FEB19_2026\WARM2\PORT3.S2P
! CHANNEL.1
! TR.MEASUREMENT
! RAW.DATA
# GHZ S RI R 50.0
! FREQ.GHZ         S11RE         S11IM         S21RE         S21IM         S12RE         S12IM         S22RE         S22IM         
!; PortSelection: Port_12
   0.001000000     1.0471190   -0.0662202    -0.0002719   -0.0009351    -0.0002069   -0.0009357     0.8037230   -0.5596277 
   0.002999900     0.9630576   -0.1928326    -0.0202232   -0.0143854    -0.0210529   -0.0148448     0.0451867   -0.8634430 
   0.004999800     0.8801168   -0.3127265    -0.1203269    0.0025683    -0.1261974    0.0053852    -0.7137182   -0.4265047 
   0.006999700     0.7127876   -0.3882906    -0.2256225    0.2910751    -0.2193403    0.3105097    -0.4099629    0.6524054 
   0.008999600     0.6348419   -0.2984139     0.2351077    0.4950363     0.2461527    0.4953912     0.5032462   -0.0338228 
   0.010999500     0.6648846   -0.3182577     0.4746651    0.2227959     0.4883647    0.2257309    -0.0204831   -0.5092624 
   0.012999400     0.6480346   -0.3815287     0.5032979    0.0078699     0.5202652    0.0020048    -0.4241599   -0.3708811 
   0.014999300     0.6037168   -0.4398313     0.4799709   -0.1525427     0.4927757   -0.1678233    -0.5811077   -0.0969563 
   0.016999200     0.5457163   -0.4861266     0.4307760   -0.2888009     0.4336425   -0.3081515    -0.5638857    0.1678479 
   0.018999100     0.4790133   -0.5174766     0.3554822   -0.4106703     0.3489526   -0.4277907    -0.4320498    0.3672802 
   0.020999000     0.4071117   -0.5314871     0.2511845   -0.5168301     0.2376509   -0.5269403    -0.2357070    0.4748370 
   0.022998900     0.3368890   -0.5259661     0.1142680   -0.5995116     0.0996667   -0.6000937    -0.0218195    0.4814057 
   0.024998800     0.2730875   -0.4787211    -0.0222940   -0.6729934    -0.0704513   -0.6379323     0.1736246    0.4303371 
   0.026998700     0.2279090   -0.4610024    -0.2374223   -0.6390983    -0.2389195   -0.6282638     0.2827952    0.2383954 
   0.028998600     0.2011125   -0.4136715    -0.4207397   -0.5718885    -0.4153309   -0.5642853     0.3113869    0.0546629 
   0.030998500     0.1954059   -0.3691012    -0.5778690   -0.4464897    -0.5698988   -0.4448612     0.2492840   -0.1088078 
   0.032998400     0.2030653   -0.3214376    -0.7008499   -0.3224195    -0.6869817   -0.2726687     0.1384970   -0.2226764 
   0.034998300     0.2210332   -0.3204451    -0.7398232   -0.0864272    -0.7386356   -0.0903701    -0.0286181   -0.2325936 
   0.036998200     0.2342334   -0.3188395    -0.7357438    0.1040123    -0.7364177    0.1032518    -0.1593801   -0.1784734 
   0.038998100     0.2392990   -0.3261095    -0.6853389    0.2792788    -0.6854444    0.2818995    -0.2410085   -0.0764254 
   0.040998000     0.2359864   -0.3379852    -0.5971978    0.4327051    -0.5932269    0.4367428    -0.2660290    0.0452355 
   0.042997900     0.2232977   -0.3499620    -0.4790312    0.5578276    -0.4711440    0.5601077    -0.2346039    0.1610328 
   0.044997800     0.2015932   -0.3424030    -0.3852347    0.6605316    -0.3220191    0.6554532    -0.1721798    0.2682778 
   0.046997700     0.1785941   -0.3594720    -0.1835738    0.7131947    -0.1744584    0.7067523    -0.0545155    0.2938704 
   0.048997600     0.1543596   -0.3538335    -0.0184781    0.7396265    -0.0127543    0.7291240     0.0561142    0.2919603 
   0.050997500     0.1338575   -0.3415302     0.1491015    0.7291531     0.1476451    0.7177320     0.1544615    0.2453299 
   0.052997400     0.1174520   -0.3260332     0.3139060    0.6804922     0.3062164    0.6712984     0.2247948    0.1629654 
   0.054997300     0.1083359   -0.3090921     0.4620671    0.5956866     0.4528235    0.5892353     0.2547497    0.0606582 
   0.056997200     0.1057197   -0.2941708     0.5876279    0.4777566     0.5787917    0.4750100     0.2409297   -0.0435053 
   0.058997100     0.1079080   -0.2839990     0.6827694    0.3323852     0.6750886    0.3332033     0.1870105   -0.1322902 
   0.060997000     0.1119681   -0.2800449     0.7406566    0.1685788     0.7353543    0.1711324     0.1038358   -0.1900444 
   0.062996900     0.1148269   -0.2821823     0.7582247   -0.0026655     0.7550180   -0.0002540     0.0068511   -0.2088959 
   0.064996800     0.1137600   -0.2889623     0.7362725   -0.1715544     0.7337800   -0.1699906    -0.0860569   -0.1874432 
   0.066996700     0.1070670   -0.2980077     0.6776075   -0.3289657     0.6743908   -0.3280102    -0.1594323   -0.1323720 
   0.068996600     0.0946661   -0.3064549     0.5872328   -0.4674231     0.5825167   -0.4656577    -0.2023918   -0.0556083 
   0.070996500     0.0773369   -0.3121551     0.4709167   -0.5826668     0.4654446   -0.5784073    -0.2103233    0.0284205 
   0.072996400     0.0565952   -0.3124516     0.3342019   -0.6697389     0.3288462   -0.6618991    -0.1849612    0.1051398 
   0.074996300     0.0347329   -0.3067447     0.1827450   -0.7257152     0.1804293   -0.7149522    -0.1330945    0.1629211 
   0.076996200     0.0144895   -0.2945834     0.0229493   -0.7492783     0.0248628   -0.7371144    -0.0650086    0.1938153 
   0.078996100    -0.0019814   -0.2770930    -0.1388032   -0.7388518    -0.1320876   -0.7270346     0.0073752    0.1947944 
   0.080996000    -0.0132602   -0.2559462    -0.2960016   -0.6939169    -0.2848310   -0.6851376     0.0715859    0.1672651 
   0.082995900    -0.0176345   -0.2335050    -0.4411139   -0.6153995    -0.4276302   -0.6116132     0.1177392    0.1172929 
   0.084995800    -0.0151985   -0.2122951    -0.5659149   -0.5066513    -0.5519835   -0.5076720     0.1381629    0.0547994 
   0.086995700    -0.0076985   -0.1949751    -0.6646671   -0.3717114    -0.6524549   -0.3768868     0.1304763   -0.0089872 
   0.088995600     0.0032560   -0.1830939    -0.7311280   -0.2178542    -0.7214771   -0.2258102     0.0971311   -0.0623124 
   0.090995500     0.0149762   -0.1773450    -0.7615229   -0.0527054    -0.7547945   -0.0617168     0.0449751   -0.0954196 
   0.092995400     0.0251066   -0.1771264    -0.7548417    0.1148056    -0.7499593    0.1059278    -0.0157663   -0.1029432 
   0.094995300     0.0317861   -0.1807988    -0.7105837    0.2752578    -0.7071311    0.2669018    -0.0736459   -0.0836823 
   0.096995200     0.0339469   -0.1864138    -0.6328275    0.4214803    -0.6302741    0.4135504    -0.1174203   -0.0417175 
   0.098995100     0.0316520   -0.1918990    -0.5263023    0.5465851    -0.5234823    0.5379392    -0.1393665    0.0143272 
   0.100995000     0.0239186   -0.1964246    -0.3941604    0.6471115    -0.3940083    0.6366362    -0.1353420    0.0756264 
   0.102994900     0.0157186   -0.1964086    -0.2464556    0.7150003    -0.2489971    0.7034525    -0.1076849    0.1289625 
   0.104994800     0.0070407   -0.1926363    -0.0884872    0.7500449    -0.0940552    0.7388014    -0.0609121    0.1666964 
   0.106994700    -0.0002413   -0.1853696     0.0729553    0.7509577     0.0639821    0.7416340    -0.0034012    0.1828500 
   0.108994600    -0.0047934   -0.1759327     0.2313768    0.7181928     0.2191293    0.7118429     0.0554404    0.1750615 
   0.110994500    -0.0058334   -0.1654956     0.3793695    0.6523275     0.3657931    0.6505031     0.1063739    0.1452145 
   0.112994400    -0.0033440   -0.1557705     0.5104797    0.5565830     0.4972785    0.5589620     0.1411328    0.0987073 
   0.114994300     0.0020744   -0.1480475     0.6180812    0.4345995     0.6065445    0.4404542     0.1545757    0.0432199 
   0.116994200     0.0092420   -0.1434456     0.6970038    0.2918382     0.6883478    0.3001909     0.1453442   -0.0121608 
   0.118994100     0.0166559   -0.1424292     0.7431244    0.1353227     0.7373599    0.1445940     0.1156180   -0.0579167 
   0.120994000     0.0231533   -0.1445985     0.7542592   -0.0269023     0.7511013   -0.0181616     0.0710198   -0.0870871 
   0.122993900     0.0270304   -0.1490994     0.7298269   -0.1878171     0.7281637   -0.1792860     0.0198305   -0.0950679 
   0.124993800     0.0279796   -0.1547681     0.6713823   -0.3390864     0.6706432   -0.3308874    -0.0289301   -0.0812800 
   0.126993700     0.0259908   -0.1602062     0.5824080   -0.4734723     0.5824268   -0.4649477    -0.0663705   -0.0488702 
   0.128993600     0.0214863   -0.1639442     0.4669210   -0.5850524     0.4687497   -0.5757630    -0.0860305   -0.0048797 
   0.130993500     0.0156308   -0.1657590     0.3313586   -0.6694914     0.3351219   -0.6597836    -0.0851322    0.0424401 
   0.132993400     0.0094797   -0.1652053     0.1815864   -0.7233932     0.1880561   -0.7140528    -0.0645404    0.0845022 
   0.134993300     0.0040291   -0.1625250     0.0242169   -0.7444274     0.0336601   -0.7365701    -0.0283165    0.1138127 
   0.136993200    -0.0000333   -0.1584420    -0.1340709   -0.7318724    -0.1219751   -0.7268862     0.0170823    0.1253596 
   0.138993100    -0.0020394   -0.1540273    -0.2859370   -0.6863984    -0.2725331   -0.6849043     0.0633574    0.1171892 
   0.140993000    -0.0022766   -0.1502343    -0.4246654   -0.6097264    -0.4113401   -0.6123410     0.1026273    0.0907654 
   0.142992900    -0.0013525   -0.1478322    -0.5440038   -0.5049968    -0.5323071   -0.5115765     0.1282080    0.0502428 
   0.144992800    -0.0001284   -0.1474084    -0.6386815   -0.3778457    -0.6294789   -0.3866255     0.1355789    0.0026094 
   0.146992700     0.0002889   -0.1488222    -0.7033885   -0.2331571    -0.6973774   -0.2432879     0.1235899   -0.0443658 
   0.148992600    -0.0009814   -0.1515790    -0.7354133   -0.0784402    -0.7320827   -0.0888729     0.0940436   -0.0833314 
   0.150992500    -0.0045547   -0.1545987    -0.7334505    0.0790054    -0.7320877    0.0689847     0.0517328   -0.1075776 
   0.152992400    -0.0106944   -0.1571194    -0.6985321    0.2318739    -0.6986867    0.2225610     0.0032179   -0.1135771 
   0.154992300    -0.0190507   -0.1580545    -0.6323476    0.3733336    -0.6338580    0.3640415    -0.0436262   -0.1004085 
   0.156992200    -0.0288693   -0.1561067    -0.5384470    0.4970393    -0.5411460    0.4878311    -0.0812078   -0.0705608 
   0.158992100    -0.0389601   -0.1509062    -0.4213828    0.5979160    -0.4256113    0.5889574    -0.1040607   -0.0294625 
   0.160992000    -0.0481650   -0.1425263    -0.2861170    0.6720575    -0.2928660    0.6636459    -0.1092636    0.0162388 
   0.162991900    -0.0552235   -0.1311210    -0.1386434    0.7165583    -0.1479394    0.7093555    -0.0969767    0.0592032 
   0.164991800    -0.0592915   -0.1179138     0.0144419    0.7295926     0.0033899    0.7245446    -0.0700049    0.0930159 
   0.166991700    -0.0597095   -0.1038692     0.1671832    0.7105023     0.1549637    0.7086737    -0.0332582    0.1130690 
   0.168991600    -0.0564873   -0.0902756     0.3130271    0.6599175     0.3004797    0.6615987     0.0066028    0.1170404 
   0.170991500    -0.0500444   -0.0782158     0.4453691    0.5796156     0.4341610    0.5843856     0.0430329    0.1054729 
   0.172991400    -0.0410791   -0.0687710     0.5582184    0.4729836     0.5491363    0.4801734     0.0704661    0.0814529 
   0.174991300    -0.0307325   -0.0624148     0.6459792    0.3444230     0.6394569    0.3534249     0.0848848    0.0499271 
   0.176991200    -0.0201320   -0.0591906     0.7048096    0.1997949     0.7004241    0.2093007     0.0845421    0.0171082 
   0.178991100    -0.0103017   -0.0587044     0.7311150    0.0461953     0.7287642    0.0550086     0.0707135   -0.0109355 
   0.180991000    -0.0019316   -0.0603252     0.7244309   -0.1100619     0.7235881   -0.1011528     0.0467651   -0.0290177 
   0.182990900     0.0046247   -0.0631711     0.6840921   -0.2613204     0.6847190   -0.2519666     0.0179797   -0.0339719 
   0.184990800     0.0093385   -0.0662854     0.6129434   -0.3999214     0.6145873   -0.3909985    -0.0095435   -0.0253639 
   0.186990700     0.0127051   -0.0690870     0.5139675   -0.5199423     0.5169426   -0.5113617    -0.0298499   -0.0050885 
   0.188990600     0.0167161   -0.0705980     0.4100169   -0.6037426     0.4119559   -0.5976313    -0.0398954    0.0216541 
   0.190990500     0.0180566   -0.0724887     0.2549513   -0.6832178     0.2622310   -0.6760716    -0.0343943    0.0522022 
   0.192990400     0.0209439   -0.0736206     0.1015897   -0.7217239     0.1112303   -0.7163310    -0.0166024    0.0779788 
   0.194990300     0.0248744   -0.0748896    -0.0535321   -0.7262146    -0.0423389   -0.7236682     0.0111878    0.0945102 
   0.196990200     0.0295675   -0.0771016    -0.2059230   -0.6978539    -0.1940795   -0.6983879     0.0446905    0.0984755 
   0.198990100     0.0346465   -0.0809126    -0.3487616   -0.6379735    -0.3374577   -0.6417524     0.0782722    0.0885406 
   0.200990000     0.0393574   -0.0867065    -0.4756742   -0.5485860    -0.4658101   -0.5554592     0.1061344    0.0657513 
   0.202989900     0.0428626   -0.0945820    -0.5803027   -0.4344269    -0.5728059   -0.4432510     0.1237560    0.0333178 
   0.204989800     0.0442619   -0.1041970    -0.6581006   -0.3010550    -0.6529698   -0.3103049     0.1281990   -0.0040501 
   0.206989700     0.0428058   -0.1149244    -0.7057854   -0.1544853    -0.7025392   -0.1640621     0.1183881   -0.0406209 
   0.208989600     0.0379410   -0.1255905    -0.7205299   -0.0015258    -0.7192300   -0.0115913     0.0958219   -0.0712044 
   0.210989500     0.0296651   -0.1350721    -0.7026263    0.1497675    -0.7028590    0.1405104     0.0639974   -0.0912332 
   0.212989400     0.0181433   -0.1422746    -0.6533165    0.2936725    -0.6549633    0.2849613     0.0276059   -0.0982623 
   0.214989300     0.0043824   -0.1461194    -0.5752232    0.4232531    -0.5785493    0.4147630    -0.0079255   -0.0917196 
   0.216989200    -0.0106177   -0.1460328    -0.4726013    0.5329706    -0.4775652    0.5248649    -0.0373984   -0.0734309 
   0.218989100    -0.0254803   -0.1415856    -0.3499414    0.6185516    -0.3570138    0.6115299    -0.0572222   -0.0470803 
   0.220989000    -0.0390030   -0.1327568    -0.2127320    0.6767327    -0.2215610    0.6714818    -0.0655731   -0.0173615 
   0.222988900    -0.0497692   -0.1200772    -0.0667407    0.7053475    -0.0766742    0.7024140    -0.0626081    0.0112305 
   0.224988800    -0.0569485   -0.1046521     0.0819373    0.7033705     0.0718795    0.7026873    -0.0503660    0.0345013 
   0.226988700    -0.0596742   -0.0875784     0.2270759    0.6707163     0.2175847    0.6725702    -0.0322735    0.0495384 
   0.228988600    -0.0577366   -0.0701579     0.3624735    0.6085995     0.3537528    0.6127757    -0.0124777    0.0554037 
   0.230988500    -0.0511340   -0.0537526     0.4822889    0.5195538     0.4749966    0.5251514     0.0051777    0.0528048 
   0.232988400    -0.0402314   -0.0395123     0.5809183    0.4065914     0.5756713    0.4134545     0.0172194    0.0440917 
   0.234988300    -0.0260554   -0.0284504     0.6543360    0.2751735     0.6504509    0.2825262     0.0218050    0.0327776 
   0.236988200    -0.0094254   -0.0213651     0.6983145    0.1308192     0.6955644    0.1381430     0.0186745    0.0227725 
   0.238988100     0.0085148   -0.0186414     0.7104648   -0.0201673     0.7088112   -0.0125194     0.0096178    0.0177441 
   0.240988000     0.0266438   -0.0203858     0.6901175   -0.1706184     0.6897990   -0.1624238    -0.0021736    0.0202572 
   0.242987900     0.0439236   -0.0264212     0.6378050   -0.3133155     0.6393843   -0.3041192    -0.0125790    0.0311235 
   0.244987800     0.0593701   -0.0363249     0.5559728   -0.4414070     0.5599265   -0.4318797    -0.0175029    0.0492716 
   0.246987700     0.0722706   -0.0494300     0.4484610   -0.5488317     0.4552426   -0.5402045    -0.0133982    0.0717751 
   0.248987600     0.0820899   -0.0651967     0.3208640   -0.6302751     0.3299564   -0.6236547     0.0014427    0.0944182 
   0.250987500     0.0884157   -0.0827810     0.1788207   -0.6823733     0.1895365   -0.6784281     0.0268189    0.1123168 
   0.252987400     0.0910982   -0.1015161     0.0297125   -0.7025471     0.0408965   -0.7020313     0.0606264    0.1210982 
   0.254987300     0.0900808   -0.1207408    -0.1196914   -0.6903847    -0.1086314   -0.6932907     0.0991999    0.1174387 
   0.256987200     0.0852795   -0.1397747    -0.2618528   -0.6470456    -0.2522489   -0.6526708     0.1372018    0.0998512 
   0.258987100     0.0768890   -0.1578294    -0.3909429   -0.5751197    -0.3833403   -0.5824737     0.1693475    0.0688809 
   0.260987000     0.0647977   -0.1741420    -0.5012681   -0.4775972    -0.4961468   -0.4861912     0.1910690    0.0268785 
   0.262986900     0.0492883   -0.1883300    -0.5877116   -0.3601092    -0.5849620   -0.3687394     0.1984994   -0.0215549 
   0.264986800     0.0309016   -0.1994411    -0.6472499   -0.2279409    -0.6463149   -0.2357050     0.1900260   -0.0713940 
   0.266986700     0.0102462   -0.2068968    -0.6776951   -0.0873415    -0.6780594   -0.0942082     0.1659681   -0.1167347 
   0.268986600    -0.0119803   -0.2102896    -0.6782551    0.0556354    -0.6794406    0.0492158     0.1285665   -0.1524925 
   0.270986500    -0.0349391   -0.2093562    -0.6496227    0.1945357    -0.6513863    0.1882965     0.0821219   -0.1746915 
   0.272986400    -0.0575208   -0.2037461    -0.5933846    0.3239278    -0.5960262    0.3177305     0.0318432   -0.1811043 
   0.274986300    -0.0787319   -0.1934973    -0.5121823    0.4386746    -0.5165465    0.4323453    -0.0165589   -0.1717015 
   0.276986200    -0.0976267   -0.1788514    -0.4097513    0.5340992    -0.4159423    0.5284122    -0.0576983   -0.1484310 
   0.278986100    -0.1131969   -0.1602927    -0.2900960    0.6067537    -0.2977441    0.6024128    -0.0880111   -0.1151692 
   0.280986000    -0.1245885   -0.1385624    -0.1580793    0.6534933    -0.1665230    0.6510949    -0.1048442   -0.0767286 
   0.282985900    -0.1311436   -0.1148992    -0.0192880    0.6724484    -0.0275681    0.6719844    -0.1082501   -0.0382166 
   0.284985800    -0.1320331   -0.0905732     0.1209842    0.6624526     0.1133851    0.6638361    -0.0998370   -0.0042911 
   0.286985700    -0.1274187   -0.0668343     0.2568156    0.6235842     0.2502809    0.6262673    -0.0828991    0.0213870 
   0.288985600    -0.1174798   -0.0451011     0.3824141    0.5568933     0.3766997    0.5610334    -0.0617123    0.0371818 
   0.290985500    -0.1030279   -0.0268880     0.4917462    0.4649545     0.4866125    0.4701489    -0.0407358    0.0431784 
   0.292985400    -0.0849821   -0.0130382     0.5797206    0.3512729     0.5752633    0.3574550    -0.0238244    0.0412179 
   0.294985300    -0.0643669   -0.0040751     0.6417226    0.2207312     0.6382486    0.2284354    -0.0136306    0.0345329 
   0.296985200    -0.0426263   -0.0006238     0.6743670    0.0796713     0.6720058    0.0878018    -0.0109796    0.0271143 
   0.298985100    -0.0214597   -0.0025253     0.6758689   -0.0658231     0.6751012   -0.0574249    -0.0147875    0.0230021 
   0.300985000    -0.0019465   -0.0095361     0.6454781   -0.2084495     0.6466731   -0.2003176    -0.0221563    0.0252354 
   0.302984900     0.0147539   -0.0210051     0.5849419   -0.3409195     0.5881595   -0.3331572    -0.0291307    0.0351587 
   0.304984800     0.0278868   -0.0359773     0.4971001   -0.4568670     0.5024170   -0.4500432    -0.0314118    0.0521022 
   0.306984700     0.0367987   -0.0533019     0.3863678   -0.5504742     0.3935292   -0.5454658    -0.0253279    0.0733099 
   0.308984600     0.0412013   -0.0719354     0.2589252   -0.6174272     0.2672783   -0.6149974    -0.0085906    0.0945396 
   0.310984500     0.0411982   -0.0909326     0.1210638   -0.6546219     0.1295545   -0.6547273     0.0189358    0.1105808 
   0.312984400     0.0370076   -0.1095898    -0.0204361   -0.6612087    -0.0125971   -0.6633868     0.0544834    0.1164430 
   0.314984300     0.0288917   -0.1267581    -0.1587390   -0.6372957    -0.1519616   -0.6414156     0.0937751    0.1084372 
