! MS46122B
! 2250307/22442219
! 2/19/2026 8:51:09 AM
! C:\USERS\SPARKY\DOCUMENTS\VNA_DATA\FEB19_2026\WARM2\PORT2.S2P
! CHANNEL.1
! TR.MEASUREMENT
! RAW.DATA
# GHZ S RI R 50.0
! FREQ.GHZ         S11RE         S11IM         S21RE         S21IM         S12RE         S12IM         S22RE         S22IM         
!; PortSelection: Port_12
   0.001000000     1.0464690   -0.0663747    -0.0002545   -0.0009350    -0.0001942   -0.0009353     0.8035219   -0.5595771 
   0.002999900     0.9623050   -0.1927570    -0.0200856   -0.0144870    -0.0209411   -0.0149476     0.0452487   -0.8629912 
   0.004999800     0.8793792   -0.3125522    -0.1200997    0.0023159    -0.1261163    0.0052207    -0.7133299   -0.4262055 
   0.006999700     0.7117977   -0.3871206    -0.2245481    0.2905751    -0.2181681    0.3104886    -0.4098488    0.6511225 
   0.008999600     0.6355566   -0.2971668     0.2349269    0.4916745     0.2466602    0.4922821     0.4985543   -0.0304568 
   0.010999500     0.6656728   -0.3177716     0.4719497    0.2205551     0.4863113    0.2231007    -0.0186553   -0.5016451 
   0.012999400     0.6487265   -0.3812108     0.4999528    0.0069653     0.5172653    0.0005083    -0.4171315   -0.3656792 
   0.014999300     0.6045397   -0.4396166     0.4763457   -0.1524178     0.4892157   -0.1681927    -0.5716426   -0.0958839 
   0.016999200     0.5468268   -0.4861065     0.4270809   -0.2875992     0.4298529   -0.3073430    -0.5543187    0.1643714 
   0.018999100     0.4802595   -0.5175223     0.3517945   -0.4082022     0.3452303   -0.4257225    -0.4242469    0.3597589 
   0.020999000     0.4085813   -0.5318704     0.2479572   -0.5129989     0.2343486   -0.5236027    -0.2314739    0.4644683 
   0.022998900     0.3385805   -0.5269665     0.1120074   -0.5943462     0.0973582   -0.5953863    -0.0219948    0.4699048 
   0.024998800     0.2746032   -0.4804734    -0.0230598   -0.6666580    -0.0713348   -0.6323085     0.1686862    0.4188899 
   0.026998700     0.2291023   -0.4636399    -0.2357710   -0.6326507    -0.2379492   -0.6222899     0.2744713    0.2307362 
   0.028998600     0.2013433   -0.4170809    -0.4168282   -0.5661237    -0.4123639   -0.5586990     0.3012844    0.0510623 
   0.030998500     0.1943512   -0.3728637    -0.5721122   -0.4422998    -0.5651899   -0.4405380     0.2394574   -0.1083008 
   0.032998400     0.2006200   -0.3249811    -0.6940150   -0.3200934    -0.6811944   -0.2701811     0.1298341   -0.2189218 
   0.034998300     0.2172870   -0.3231321    -0.7331476   -0.0865775    -0.7326374   -0.0896749    -0.0339709   -0.2273798 
   0.036998200     0.2294994   -0.3204156    -0.7296975    0.1022353    -0.7309331    0.1021615    -0.1622639   -0.1730332 
   0.038998100     0.2344478   -0.3262553    -0.6804486    0.2763104    -0.6807497    0.2796620    -0.2421028   -0.0715041 
   0.040998000     0.2312387   -0.3368288    -0.5934412    0.4290459    -0.5893797    0.4335564    -0.2660619    0.0492819 
   0.042997900     0.2189581   -0.3475742    -0.4761083    0.5536602    -0.4682792    0.5566425    -0.2340906    0.1641516 
   0.044997800     0.1979664   -0.3392606    -0.3830023    0.6560529    -0.3196717    0.6516761    -0.1715760    0.2709246 
   0.046997700     0.1759394   -0.3554623    -0.1823326    0.7086565    -0.1729604    0.7029211    -0.0539695    0.2958429 
   0.048997600     0.1527515   -0.3493674    -0.0180706    0.7349566    -0.0117057    0.7250785     0.0563567    0.2937511 
   0.050997500     0.1330359   -0.3371120     0.1497951    0.7243869     0.1480525    0.7134639     0.1546693    0.2471403 
   0.052997400     0.1179773   -0.3215558     0.3127401    0.6756443     0.3058971    0.6668530     0.2248161    0.1651149 
   0.054997300     0.1099671   -0.3049052     0.4610062    0.5899668     0.4502982    0.5858750     0.2549329    0.0632613 
   0.056997200     0.1080233   -0.2906210     0.5843996    0.4734676     0.5763051    0.4705719     0.2415852   -0.0404017 
   0.058997100     0.1107268   -0.2812489     0.6785614    0.3287707     0.6716220    0.3291669     0.1885074   -0.1288065 
   0.060997000     0.1151348   -0.2780786     0.7355461    0.1659181     0.7310086    0.1679888     0.1064193   -0.1865630 
   0.062996900     0.1181073   -0.2809902     0.7525024   -0.0041519     0.7498903   -0.0023986     0.0106373   -0.2058574 
   0.064996800     0.1170187   -0.2884851     0.7302591   -0.1716429     0.7282118   -0.1707968    -0.0811433   -0.1853848 
   0.066996700     0.1100980   -0.2981589     0.6716202   -0.3277181     0.6687015   -0.3274980    -0.1537791   -0.1317162 
   0.068996600     0.0973975   -0.3070957     0.5815905   -0.4648116     0.5770497   -0.4638438    -0.1965389   -0.0566368 
   0.070996500     0.0797909   -0.3132192     0.4660379   -0.5788123     0.4605755   -0.5753962    -0.2048117    0.0256613 
   0.072996400     0.0586661   -0.3139327     0.3301617   -0.6648043     0.3247032   -0.6579003    -0.1804582    0.1007760 
   0.074996300     0.0364584   -0.3084967     0.1799013   -0.7199737     0.1773134   -0.7100867    -0.1300991    0.1573623 
   0.076996200     0.0158381   -0.2965984     0.0214360   -0.7429944     0.0227637   -0.7315570    -0.0637928    0.1876296 
   0.078996100    -0.0011203   -0.2793252    -0.1388347   -0.7323076    -0.1328599   -0.7211699     0.0066256    0.1885995 
   0.080996000    -0.0129221   -0.2582994    -0.2946214   -0.6875219    -0.2843406   -0.6791939     0.0690242    0.1617156 
   0.082995900    -0.0178853   -0.2360102    -0.4382389   -0.6094368    -0.4257789   -0.6058710     0.1136917    0.1128893 
   0.084995800    -0.0160226   -0.2146013    -0.5616974   -0.5014442    -0.5488148   -0.5022656     0.1331324    0.0520152 
   0.086995700    -0.0090911   -0.1970685    -0.6593321   -0.3676325    -0.6481725   -0.3724987     0.1251271   -0.0100189 
   0.088995600     0.0012578   -0.1847834    -0.7251193   -0.2149207    -0.7163353   -0.2224978     0.0920029   -0.0615943 
   0.090995500     0.0126784   -0.1784574    -0.7550550   -0.0514546    -0.7490645   -0.0597684     0.0406686   -0.0933078 
   0.092995400     0.0226087   -0.1776468    -0.7483075    0.1146510    -0.7439230    0.1064455    -0.0189240   -0.0998388 
   0.094995300     0.0291520   -0.1806458    -0.7043731    0.2736687    -0.7012636    0.2661922    -0.0754958   -0.0800879 
   0.096995200     0.0315196   -0.1856525    -0.6271688    0.4185726    -0.6248276    0.4115837    -0.1179978   -0.0381942 
   0.098995100     0.0294758   -0.1905403    -0.5214131    0.5426556    -0.5187359    0.5348668    -0.1389190    0.0173768 
   0.100995000     0.0222337   -0.1946804    -0.3902079    0.6424297    -0.3899979    0.6326873    -0.1341711    0.0779392 
   0.102994900     0.0145662   -0.1943772    -0.2436728    0.7096739    -0.2455315    0.6988333    -0.1061430    0.1304585 
   0.104994800     0.0063398   -0.1905288    -0.0867631    0.7442952    -0.0919430    0.7337150    -0.0593828    0.1673786 
   0.106994700    -0.0004124   -0.1833776     0.0736839    0.7450668     0.0651127    0.7362460    -0.0021217    0.1829344 
   0.108994600    -0.0045203   -0.1740827     0.2307210    0.7122340     0.2192976    0.7063539     0.0562506    0.1747429 
   0.110994500    -0.0052394   -0.1639349     0.3774915    0.6465831     0.3647220    0.6450217     0.1067092    0.1447891 
   0.112994400    -0.0025316   -0.1545675     0.5074278    0.5513116     0.4950600    0.5537022     0.1410429    0.0983845 
   0.114994300     0.0029515   -0.1471571     0.6139656    0.4300134     0.6033053    0.4357847     0.1541941    0.0431894 
   0.116994200     0.0100549   -0.1429335     0.6919970    0.2882502     0.6840040    0.2961600     0.1448506   -0.0118120 
   0.118994100     0.0172920   -0.1421873     0.7373286    0.1328264     0.7323245    0.1414801     0.1152630   -0.0572288 
   0.120994000     0.0235717   -0.1445320     0.7481265   -0.0281774     0.7455004   -0.0199568     0.0709878   -0.0861641 
   0.122993900     0.0272012   -0.1491108     0.7235918   -0.1876425     0.7223260   -0.1798307     0.0202183   -0.0941236 
   0.124993800     0.0279326   -0.1547439     0.6653242   -0.3375462     0.6648575   -0.3301422    -0.0281527   -0.0805567 
   0.126993700     0.0257563   -0.1600809     0.5767403   -0.4707328     0.5769644   -0.4629592    -0.0653203   -0.0485689 
   0.128993600     0.0210987   -0.1636604     0.4620536   -0.5812258     0.4638310   -0.5726938    -0.0849186   -0.0051224 
   0.130993500     0.0151761   -0.1652784     0.3274873   -0.6646565     0.3309917   -0.6558022    -0.0842477    0.0416643 
   0.132993400     0.0090387   -0.1644964     0.1788167   -0.7178642     0.1849288   -0.7092901    -0.0641303    0.0832918 
   0.134993300     0.0036286   -0.1616375     0.0226048   -0.7384187     0.0315598   -0.7312826    -0.0285673    0.1123834 
   0.136993200    -0.0002856   -0.1573760    -0.1343301   -0.7257717    -0.1229581   -0.7211260     0.0160894    0.1239985 
   0.138993100    -0.0021273   -0.1528064    -0.2848890   -0.6803416    -0.2723425   -0.6792334     0.0617174    0.1162109 
   0.140993000    -0.0021411   -0.1488888    -0.4223940   -0.6040452    -0.4099468   -0.6068206     0.1004462    0.0904311 
   0.142992900    -0.0009565   -0.1464438    -0.5407026   -0.5000511    -0.5298549   -0.5064306     0.1257581    0.0507946 
   0.144992800     0.0005535   -0.1459757    -0.6343658   -0.3735990    -0.6260102   -0.3821442     0.1332136    0.0041050 
   0.146992700     0.0012634   -0.1473974    -0.6980991   -0.2300547    -0.6930009   -0.2396327     0.1216817   -0.0419610 
   0.148992600     0.0002800   -0.1503567    -0.7298249   -0.0762522    -0.7270302   -0.0861862     0.0929091   -0.0802053 
   0.150992500    -0.0029722   -0.1535816    -0.7275811    0.0799428    -0.7265735    0.0705990     0.0516228   -0.1039769 
   0.152992400    -0.0088506   -0.1564197    -0.6925814    0.2316409    -0.6930572    0.2229917     0.0042890   -0.1099625 
   0.154992300    -0.0169477   -0.1577113    -0.6266360    0.3717456    -0.6282509    0.3633235    -0.0413975   -0.0971105 
   0.156992200    -0.0266354   -0.1562693    -0.5330136    0.4943462    -0.5358065    0.4859690    -0.0779429   -0.0680009 
   0.158992100    -0.0367051   -0.1515818    -0.4165598    0.5942600    -0.4206977    0.5861126    -0.1000604   -0.0279690 
   0.160992000    -0.0459547   -0.1437845    -0.2820960    0.6674514    -0.2886407    0.6597475    -0.1048757    0.0164444 
   0.162991900    -0.0532810   -0.1329812    -0.1356427    0.7111679    -0.1444244    0.7046072    -0.0926345    0.0580450 
   0.164991800    -0.0577147   -0.1202753     0.0162101    0.7235900     0.0059771    0.7192739    -0.0661427    0.0906119 
   0.166991700    -0.0587051   -0.1067238     0.1677642    0.7041668     0.1561908    0.7028508    -0.0302390    0.1095918 
   0.168991600    -0.0561436   -0.0934824     0.3121723    0.6535733     0.3004875    0.6555513     0.0085287    0.1128284 
   0.170991500    -0.0504930   -0.0816302     0.4431543    0.5735387     0.4328343    0.5783664     0.0437169    0.1009065 
   0.172991400    -0.0424041   -0.0721526     0.5545375    0.4674065     0.5464712    0.4746166     0.0699047    0.0768846 
   0.174991300    -0.0329322   -0.0655729     0.6412886    0.3398159     0.6355615    0.3485488     0.0831753    0.0457227 
   0.176991200    -0.0231625   -0.0618919     0.6989996    0.1965521     0.6955330    0.2053950     0.0818974    0.0134907 
   0.178991100    -0.0140787   -0.0607966     0.7249852    0.0438538     0.7231756    0.0523369     0.0673500   -0.0137420 
   0.180991000    -0.0062869   -0.0615920     0.7178491   -0.1106292     0.7175325   -0.1024820     0.0430041   -0.0309634 
   0.182990900    -0.0001038   -0.0634502     0.6776356   -0.2604370     0.6783800   -0.2519682     0.0140054   -0.0351128 
   0.184990800     0.0045383   -0.0655316     0.6069092   -0.3976784     0.6085340   -0.3895235    -0.0135555   -0.0257476 
   0.186990700     0.0080211   -0.0672551     0.5086243   -0.5164803     0.5116277   -0.5087357    -0.0337745   -0.0048679 
   0.188990600     0.0123740   -0.0678779     0.4055885   -0.5994286     0.4072835   -0.5941387    -0.0436734    0.0223702 
   0.190990500     0.0143782   -0.0687328     0.2516850   -0.6780407     0.2585926   -0.6717284    -0.0380185    0.0535271 
   0.192990400     0.0180884   -0.0690585     0.0995540   -0.7160621     0.1086691   -0.7113989    -0.0200409    0.0798153 
   0.194990300     0.0229693   -0.0697399    -0.0544055   -0.7203804    -0.0438945   -0.7183630     0.0079470    0.0969003 
   0.196990200     0.0287569   -0.0716142    -0.2055880   -0.6920351    -0.1945045   -0.6930370     0.0416772    0.1014510 
   0.198990100     0.0349578   -0.0752532    -0.3473327   -0.6322600    -0.3368154   -0.6364635     0.0756848    0.0920932 
   0.200990000     0.0408489   -0.0811730    -0.4732096   -0.5435701    -0.4641578   -0.5504674     0.1040888    0.0699230 
   0.202989900     0.0454373   -0.0894673    -0.5770220   -0.4302026    -0.5703059   -0.4386808     0.1224452    0.0380240 
   0.204989800     0.0478393   -0.0996647    -0.6540331   -0.2972887    -0.6496411   -0.3063164     0.1278214    0.0010908 
   0.206989700     0.0473142   -0.1111750    -0.7009637   -0.1517551    -0.6985066   -0.1607430     0.1190923   -0.0352559 
   0.208989600     0.0431180   -0.1228074    -0.7153552    0.0003416    -0.7146108   -0.0091163     0.0977768   -0.0658395 
   0.210989500     0.0353731   -0.1334358    -0.6971344    0.1508454    -0.6978761    0.1421015     0.0672204   -0.0862451 
   0.212989400     0.0241203   -0.1418575    -0.6477706    0.2934863    -0.6497293    0.2855420     0.0320214   -0.0940279 
   0.214989300     0.0103293   -0.1469639    -0.5696689    0.4220853    -0.5731785    0.4143254    -0.0024885   -0.0885288 
   0.216989200    -0.0048696   -0.1480888    -0.4673398    0.5306298    -0.4723089    0.5233468    -0.0312356   -0.0715778 
   0.218989100    -0.0202307   -0.1448960    -0.3452895    0.6150379    -0.3521255    0.6089301    -0.0506256   -0.0467772 
   0.220989000    -0.0345213   -0.1371493    -0.2087743    0.6722894    -0.2172197    0.6678454    -0.0589841   -0.0186700 
   0.222988900    -0.0462605   -0.1254674    -0.0638662    0.6999946    -0.0731173    0.6978563    -0.0564791    0.0083155 
   0.224988800    -0.0546140   -0.1107235     0.0838387    0.6974922     0.0744425    0.6974006    -0.0450856    0.0301412 
   0.226988700    -0.0586882   -0.0941557     0.2275845    0.6645151     0.2189257    0.6667768    -0.0282215    0.0440358 
   0.228988600    -0.0581627   -0.0769383     0.3615415    0.6023639     0.3537883    0.6067425    -0.0098466    0.0490792 
   0.230988500    -0.0530855   -0.0604142     0.4800188    0.5136438     0.4736737    0.5192252     0.0062718    0.0460866 
   0.232988400    -0.0436375   -0.0457342     0.5774453    0.4013961     0.5730289    0.4080196     0.0167511    0.0373760 
   0.234988300    -0.0307921   -0.0339434     0.6497143    0.2708292     0.6466163    0.2778132     0.0198092    0.0264129 
   0.236988200    -0.0153553   -0.0257494     0.6928403    0.1276469     0.6908655    0.1344050     0.0154342    0.0170962 
   0.238988100     0.0016288   -0.0217248     0.7045425   -0.0219713     0.7034494   -0.0150928     0.0053449    0.0129676 
   0.240988000     0.0191664   -0.0219458     0.6840194   -0.1710486     0.6840897   -0.1636997    -0.0072231    0.0164750 
   0.242987900     0.0361786   -0.0263520     0.6318290   -0.3124291     0.6336033   -0.3040977    -0.0180907    0.0284348 
   0.244987800     0.0517569   -0.0345660     0.5504676   -0.4393640     0.5544576   -0.4307244    -0.0233019    0.0476274 
   0.246987700     0.0651574   -0.0460766     0.4435744   -0.5456684     0.4502870   -0.5379674    -0.0192931    0.0711868 
   0.248987600     0.0758178   -0.0603824     0.3169211   -0.6264149     0.3256029   -0.6206098    -0.0043440    0.0948706 
   0.250987500     0.0832949   -0.0767212     0.1757889   -0.6779375     0.1859537   -0.6746548     0.0212620    0.1137029 
   0.252987400     0.0873540   -0.0944667     0.0276430   -0.6977808     0.0381322   -0.6977460     0.0554041    0.1233725 
   0.254987300     0.0879317   -0.1131337    -0.1207262   -0.6854893    -0.1104991   -0.6885678     0.0943518    0.1205796 
   0.256987200     0.0847892   -0.1318410    -0.2621075   -0.6420490    -0.2533515   -0.6477651     0.1329766    0.1037679 
   0.258987100     0.0780565   -0.1500445    -0.3903778   -0.5701163    -0.3836188   -0.5774668     0.1658768    0.0735123 
   0.260987000     0.0675292   -0.1668356    -0.4997624   -0.4727079    -0.4953797   -0.4812260     0.1884407    0.0321286 
   0.262986900     0.0535338   -0.1817440    -0.5853487   -0.3555554    -0.5832809   -0.3637668     0.1968626   -0.0158292 
   0.264986800     0.0363473   -0.1940030    -0.6440322   -0.2238083    -0.6437808   -0.2312267     0.1895306   -0.0652748 
   0.266986700     0.0166429   -0.2028011    -0.6736865   -0.0838416    -0.6746758   -0.0901777     0.1666713   -0.1105856 
   0.268986600    -0.0050051   -0.2076212    -0.6735705    0.0585062    -0.6752049    0.0526240     0.1305647   -0.1464908 
   0.270986500    -0.0273952   -0.2081675    -0.6442538    0.1963346    -0.6464355    0.1908704     0.0854307   -0.1691330 
   0.272986400    -0.0501546   -0.2042075    -0.5876060    0.3247890    -0.5906033    0.3193456     0.0364056   -0.1763153 
   0.274986300    -0.0716456   -0.1954849    -0.5061988    0.4382154    -0.5106365    0.4327479    -0.0109423   -0.1680397 
   0.276986200    -0.0911600   -0.1822417    -0.4037850    0.5323430    -0.4099286    0.5275581    -0.0512550   -0.1461501 
   0.278986100    -0.1076076   -0.1650032    -0.2844675    0.6037329    -0.2919053    0.6001614    -0.0811189   -0.1144745 
   0.280986000    -0.1201359   -0.1442431    -0.1531525    0.6492054    -0.1611585    0.6475922    -0.0979492   -0.0777930 
   0.282985900    -0.1280492   -0.1213896    -0.0153897    0.6670669    -0.0229613    0.6672209    -0.1017699   -0.0409263 
   0.284985800    -0.1304023   -0.0975885     0.1236179    0.6562395     0.1167924    0.6580577    -0.0942757   -0.0085201 
   0.286985700    -0.1273177   -0.0740131     0.2580011    0.6168585     0.2523420    0.6198475    -0.0785812    0.0159367 
   0.288985600    -0.1189234   -0.0522578     0.3818817    0.5500904     0.3772518    0.5542985    -0.0589568    0.0309047 
   0.290985500    -0.1059523   -0.0334679     0.4897618    0.4582644     0.4855634    0.4634040    -0.0395962    0.0365510 
   0.292985400    -0.0892312   -0.0188257     0.5762066    0.3453957     0.5726424    0.3511684    -0.0242924    0.0346601 
   0.294985300    -0.0699230   -0.0088833     0.6371345    0.2157069     0.6343318    0.2229480    -0.0155915    0.0284560 
   0.296985200    -0.0489926   -0.0040165     0.6686695    0.0758383     0.6670240    0.0833558    -0.0141176    0.0219232 
   0.298985100    -0.0282730   -0.0044346     0.6696455   -0.0683344     0.6692860   -0.0605795    -0.0187736    0.0188348 
   0.300985000    -0.0089481   -0.0098919     0.6389729   -0.2093547     0.6404306   -0.2020200    -0.0266510    0.0221832 
   0.302984900     0.0079319   -0.0197580     0.5784990   -0.3404898     0.5817040   -0.3335743    -0.0338172    0.0332178 
   0.304984800     0.0215771   -0.0332612     0.4909858   -0.4550959     0.4962370   -0.4491434    -0.0359990    0.0511835 
   0.306984700     0.0313100   -0.0493567     0.3808033   -0.5475960     0.3878251   -0.5434077    -0.0296618    0.0732400 
   0.308984600     0.0369117   -0.0670027     0.2542346   -0.6135166     0.2621190   -0.6118236    -0.0125077    0.0950747 
   0.310984500     0.0382139   -0.0852901     0.1172863   -0.6499569     0.1251481   -0.6506715     0.0154097    0.1116580 
   0.312984400     0.0353974   -0.1034848    -0.0232673   -0.6559653    -0.0161064   -0.6586623     0.0513258    0.1179015 
   0.314984300     0.0286524   -0.1207546    -0.1604108   -0.6315609    -0.1544267   -0.6360704     0.0909472    0.1101898 
