! MS46122B
! 2250307/22442219
! 2/19/2026 8:48:19 AM
! C:\USERS\SPARKY\DOCUMENTS\VNA_DATA\FEB19_2026\WARM2\PORT1.S2P
! CHANNEL.1
! TR.MEASUREMENT
! RAW.DATA
# GHZ S RI R 50.0
! FREQ.GHZ         S11RE         S11IM         S21RE         S21IM         S12RE         S12IM         S22RE         S22IM         
!; PortSelection: Port_12
   0.001000000     1.0465430   -0.0664334    -0.0002483   -0.0009272    -0.0001966   -0.0009394     0.8033718   -0.5598819 
   0.002999900     0.9626915   -0.1929057    -0.0200949   -0.0144834    -0.0209540   -0.0149355     0.0449066   -0.8628104 
   0.004999800     0.8795903   -0.3126369    -0.1201186    0.0023422    -0.1260779    0.0052824    -0.7133319   -0.4259188 
   0.006999700     0.7120954   -0.3874188    -0.2247844    0.2904904    -0.2183833    0.3103445    -0.4103611    0.6512981 
   0.008999600     0.6353167   -0.2973255     0.2348664    0.4924887     0.2465206    0.4930165     0.4995790   -0.0302184 
   0.010999500     0.6655707   -0.3176498     0.4726006    0.2209888     0.4868741    0.2235423    -0.0185828   -0.5026727 
   0.012999400     0.6487945   -0.3810535     0.5006765    0.0069648     0.5179202    0.0005583    -0.4181218   -0.3662904 
   0.014999300     0.6046396   -0.4393754     0.4769536   -0.1526538     0.4898417   -0.1684284    -0.5729175   -0.0958493 
   0.016999200     0.5469893   -0.4858148     0.4275263   -0.2880680     0.4303435   -0.3077902    -0.5554922    0.1651268 
   0.018999100     0.4805873   -0.5172397     0.3520995   -0.4087973     0.3455077   -0.4263721    -0.4249168    0.3610691 
   0.020999000     0.4090862   -0.5315701     0.2480039   -0.5136420     0.2343853   -0.5242651    -0.2315029    0.4659223 
   0.022998900     0.3392385   -0.5266492     0.1118575   -0.5949631     0.0971122   -0.5960802    -0.0213947    0.4713168 
   0.024998800     0.2755370   -0.4803113    -0.0234481   -0.6671978    -0.0718046   -0.6328722     0.1698340    0.4200161 
   0.026998700     0.2302113   -0.4637075    -0.2362005   -0.6329108    -0.2384550   -0.6225662     0.2757963    0.2312381 
   0.028998600     0.2026274   -0.4174631    -0.4172093   -0.5661855    -0.4128190   -0.5587646     0.3026068    0.0510915 
   0.030998500     0.1956308   -0.3736797    -0.5724112   -0.4422962    -0.5655596   -0.4404823     0.2407273   -0.1086365 
   0.032998400     0.2016975   -0.3262603    -0.6941053   -0.3200465    -0.6813582   -0.2701066     0.1309890   -0.2196086 
   0.034998300     0.2180635   -0.3247398    -0.7331818   -0.0866673    -0.7327194   -0.0897024    -0.0331284   -0.2282623 
   0.036998200     0.2299519   -0.3222396    -0.7298756    0.1019871    -0.7310005    0.1020662    -0.1616673   -0.1740800 
   0.038998100     0.2343020   -0.3282008    -0.6806636    0.2759162    -0.6809562    0.2794667    -0.2418185   -0.0726920 
   0.040998000     0.2306005   -0.3387427    -0.5938817    0.4286381    -0.5896918    0.4333686    -0.2660989    0.0480602 
   0.042997900     0.2178490   -0.3493335    -0.4768385    0.5534479    -0.4688930    0.5564623    -0.2344831    0.1630152 
   0.044997800     0.1965272   -0.3407598    -0.3839537    0.6559690    -0.3206006    0.6516802    -0.1723042    0.2698465 
   0.046997700     0.1740390   -0.3565355    -0.1832568    0.7089303    -0.1738029    0.7031407    -0.0548521    0.2951734 
   0.048997600     0.1505615   -0.3500006    -0.0189319    0.7356237    -0.0125259    0.7256518     0.0554596    0.2933603 
   0.050997500     0.1308337   -0.3371065     0.1489482    0.7253755     0.1470590    0.7144885     0.1537304    0.2470822 
   0.052997400     0.1156073   -0.3210161     0.3123905    0.6768992     0.3055182    0.6679950     0.2241064    0.1651752 
   0.054997300     0.1076860   -0.3037293     0.4606677    0.5917667     0.4506604    0.5868592     0.2543628    0.0633623 
   0.056997200     0.1061264   -0.2888499     0.5849784    0.4747895     0.5769042    0.4718935     0.2410851   -0.0403788 
   0.058997100     0.1093726   -0.2789283     0.6795133    0.3298503     0.6725275    0.3302546     0.1879677   -0.1288874 
   0.060997000     0.1144147   -0.2754298     0.7368320    0.1666208     0.7322350    0.1686942     0.1057178   -0.1866138 
   0.062996900     0.1180867   -0.2781973     0.7539383   -0.0039153     0.7512553   -0.0021671     0.0097560   -0.2057975 
   0.064996800     0.1177321   -0.2856924     0.7315790   -0.1718738     0.7295636   -0.1710375    -0.0821584   -0.1850717 
   0.066996700     0.1115974   -0.2955526     0.6727844   -0.3282627     0.6698200   -0.3281034    -0.1548019   -0.1310826 
   0.068996600     0.0994635   -0.3048952     0.5824751   -0.4656971     0.5778975   -0.4647385    -0.1974399   -0.0556581 
   0.070996500     0.0823749   -0.3115138     0.4665039   -0.5797826     0.4610448   -0.5763918    -0.2054834    0.0269380 
   0.072996400     0.0616761   -0.3127222     0.3303198   -0.6657857     0.3247871   -0.6588859    -0.1807692    0.1022303 
   0.074996300     0.0397340   -0.3080285     0.1797899   -0.7208596     0.1770948   -0.7109672    -0.1299779    0.1589175 
   0.076996200     0.0191678   -0.2969015     0.0211213   -0.7437000     0.0223901   -0.7322257    -0.0632770    0.1891092 
   0.078996100     0.0022120   -0.2803891    -0.1392837   -0.7327620    -0.1333284   -0.7216009     0.0075115    0.1898982 
   0.080996000    -0.0097745   -0.2601898    -0.2950521   -0.6878006    -0.2847911   -0.6793931     0.0701702    0.1628042 
   0.082995900    -0.0152040   -0.2385527    -0.4386136   -0.6096063    -0.4261470   -0.6059332     0.1150738    0.1137006 
   0.084995800    -0.0139278   -0.2177491    -0.5619465   -0.5015007    -0.5489912   -0.5022289     0.1346054    0.0525036 
   0.086995700    -0.0076930   -0.2007373    -0.6595250   -0.3676814    -0.6482227   -0.3724769     0.1267128   -0.0098186 
   0.088995600     0.0018205   -0.1886701    -0.7251180   -0.2151623    -0.7163177   -0.2225260     0.0936535   -0.0617238 
   0.090995500     0.0122982   -0.1824150    -0.7551085   -0.0517126    -0.7490080   -0.0600295     0.0422788   -0.0937217 
   0.092995400     0.0213098   -0.1814849    -0.7484575    0.1142665    -0.7439352    0.1060709    -0.0174046   -0.1006341 
   0.094995300     0.0271219   -0.1841647    -0.7046686    0.2732159    -0.7014980    0.2656779    -0.0741699   -0.0811997 
   0.096995200     0.0287019   -0.1885633    -0.6277099    0.4181309    -0.6252378    0.4110777    -0.1169022   -0.0396073 
   0.098995100     0.0260696   -0.1927851    -0.5221298    0.5422930    -0.5193844    0.5344697    -0.1381553    0.0157763 
   0.100995000     0.0184224   -0.1960474    -0.3911089    0.6422710    -0.3907247    0.6325096    -0.1337784    0.0762251 
   0.102994900     0.0105187   -0.1948579    -0.2446113    0.7098103    -0.2467737    0.6989058    -0.1061235    0.1287376 
   0.104994800     0.0022954   -0.1900800    -0.0877902    0.7447300    -0.0930031    0.7339700    -0.0596689    0.1657946 
   0.106994700    -0.0042445   -0.1820218     0.0727743    0.7458264     0.0642289    0.7369964    -0.0026711    0.1814867 
   0.108994600    -0.0079193   -0.1718862     0.2299769    0.7131708     0.2186480    0.7073959     0.0555446    0.1734660 
   0.110994500    -0.0080369   -0.1610154     0.3771250    0.6477999     0.3643985    0.6462317     0.1058705    0.1436476 
   0.112994400    -0.0045665   -0.1510139     0.5074614    0.5526177     0.4951474    0.5549899     0.1400679    0.0973719 
   0.114994300     0.0018099   -0.1432225     0.6143974    0.4313169     0.6037669    0.4369758     0.1531273    0.0422707 
   0.116994200     0.0098712   -0.1388718     0.6927643    0.2892513     0.6848039    0.2971886     0.1436284   -0.0126400 
   0.118994100     0.0180999   -0.1381832     0.7383866    0.1336676     0.7333654    0.1422129     0.1138495   -0.0579114 
   0.120994000     0.0253071   -0.1408134     0.7493085   -0.0276359     0.7466806   -0.0196273     0.0693741   -0.0866460 
   0.122993900     0.0297598   -0.1458901     0.7247693   -0.1875761     0.7234554   -0.1798438     0.0184209   -0.0943040 
   0.124993800     0.0311614   -0.1521185     0.6663913   -0.3377860     0.6658179   -0.3304566    -0.0300441   -0.0803580 
   0.126993700     0.0295077   -0.1583803     0.5776687   -0.4711968     0.5777038   -0.4635237    -0.0672121   -0.0479398 
   0.128993600     0.0251312   -0.1628771     0.4627313   -0.5818208     0.4643194   -0.5733617    -0.0867084   -0.0040627 
   0.130993500     0.0193060   -0.1654072     0.3278804   -0.6653849     0.3312544   -0.6564072    -0.0857841    0.0431146 
   0.132993400     0.0130117   -0.1655661     0.1790242   -0.7185370     0.1849629   -0.7098819    -0.0653418    0.0850703 
   0.134993300     0.0073011   -0.1635861     0.0226771   -0.7390319     0.0314979   -0.7317375    -0.0293741    0.1144222 
   0.136993200     0.0029227   -0.1601067    -0.1343783   -0.7262326    -0.1229933   -0.7215120     0.0157250    0.1262000 
   0.138993100     0.0003046   -0.1561137    -0.2850333   -0.6807327    -0.2724561   -0.6793990     0.0617612    0.1184702 
   0.140993000    -0.0005100   -0.1526299    -0.4224723   -0.6043633    -0.4099271   -0.6069934     0.1009567    0.0926908 
   0.142992900    -0.0002063   -0.1504366    -0.5406970   -0.5003809    -0.5297304   -0.5066649     0.1266883    0.0529439 
   0.144992800     0.0004287   -0.1500998    -0.6343232   -0.3739501    -0.6257774   -0.3824373     0.1345815    0.0060713 
   0.146992700     0.0002526   -0.1513451    -0.6981434   -0.2304255    -0.6927721   -0.2401435     0.1234442   -0.0402468 
   0.148992600    -0.0015545   -0.1538135    -0.7298498   -0.0767479    -0.7270239   -0.0867756     0.0950419   -0.0788142 
   0.150992500    -0.0054970   -0.1565077    -0.7277151    0.0793317    -0.7266502    0.0698882     0.0540728   -0.1029980 
   0.152992400    -0.0119092   -0.1586821    -0.6928784    0.2309506    -0.6933895    0.2222687     0.0069484   -0.1095125 
   0.154992300    -0.0203782   -0.1592307    -0.6271876    0.3710929    -0.6288384    0.3626246    -0.0386701   -0.0972218 
   0.156992200    -0.0302080   -0.1568740    -0.5337655    0.4938118    -0.5365765    0.4854396    -0.0752788   -0.0686346 
   0.158992100    -0.0402760   -0.1513847    -0.4175020    0.5939142    -0.4216952    0.5857926    -0.0975645   -0.0291165 
   0.160992000    -0.0493480   -0.1427584    -0.2831445    0.6674052    -0.2897117    0.6597298    -0.1026543    0.0148674 
   0.162991900    -0.0562516   -0.1312569    -0.1367529    0.7113783    -0.1455830    0.7049268    -0.0907315    0.0561106 
   0.164991800    -0.0601650   -0.1179617     0.0152847    0.7241366     0.0048349    0.7197797    -0.0646377    0.0883761 
   0.166991700    -0.0604796   -0.1039165     0.1668412    0.7049990     0.1554211    0.7036881    -0.0291099    0.1071365 
   0.168991600    -0.0572030   -0.0903811     0.3115545    0.6545679     0.2999758    0.6565772     0.0092466    0.1102232 
   0.170991500    -0.0507568   -0.0783965     0.4428042    0.5746888     0.4325900    0.5794317     0.0440028    0.0981742 
   0.172991400    -0.0418632   -0.0690210     0.5545409    0.4685706     0.5465384    0.4756757     0.0697239    0.0740813 
   0.174991300    -0.0316817   -0.0627000     0.6416773    0.3409204     0.6357989    0.3495135     0.0824977    0.0429259 
   0.176991200    -0.0212583   -0.0594788     0.6995782    0.1974459     0.6960129    0.2061963     0.0807404    0.0107741 
   0.178991100    -0.0116307   -0.0588991     0.7257134    0.0446054     0.7237995    0.0529571     0.0656489   -0.0162661 
   0.180991000    -0.0035034   -0.0603680     0.7186949   -0.1101103     0.7182183   -0.1020220     0.0407894   -0.0331909 
   0.182990900     0.0029036   -0.0629524     0.6785020   -0.2600965     0.6790943   -0.2516935     0.0113065   -0.0369248 
   0.184990800     0.0075209   -0.0657595     0.6077502   -0.3975221     0.6091737   -0.3893161    -0.0165958   -0.0270301 
   0.186990700     0.0108163   -0.0682108     0.5094457   -0.5164976     0.5122191   -0.5086639    -0.0370797   -0.0055206 
   0.188990600     0.0148416   -0.0693901     0.4062724   -0.5994807     0.4078903   -0.5940995    -0.0471757    0.0222534 
   0.190990500     0.0163103   -0.0708128     0.2523760   -0.6782142     0.2592283   -0.6717356    -0.0414948    0.0542364 
   0.192990400     0.0194028   -0.0715388     0.1001210   -0.7162387     0.1092571   -0.7114726    -0.0233328    0.0812329 
   0.194990300     0.0236127   -0.0724167    -0.0537706   -0.7206817    -0.0431964   -0.7185071     0.0049491    0.0989880 
   0.196990200     0.0287145   -0.0742823    -0.2047907   -0.6926165    -0.1937476   -0.6933342     0.0391144    0.1041621 
   0.198990100     0.0342728   -0.0777843    -0.3466178   -0.6329920    -0.3360802   -0.6369340     0.0736516    0.0953440 
   0.200990000     0.0395567   -0.0834072    -0.4726217   -0.5443363    -0.4634672   -0.5511800     0.1027311    0.0735887 
   0.202989900     0.0437044   -0.0912159    -0.5765233   -0.4310888    -0.5697264   -0.4395691     0.1218364    0.0419863 
   0.204989800     0.0457556   -0.1008722    -0.6537730   -0.2984588    -0.6492695   -0.3074586     0.1280632    0.0051383 
   0.206989700     0.0450255   -0.1117676    -0.7009418   -0.1528881    -0.6984735   -0.1619660     0.1201792   -0.0312649 
   0.208989600     0.0408461   -0.1227829    -0.7156422   -0.0008547    -0.7148781   -0.0104337     0.0996912   -0.0620929 
   0.210989500     0.0332488   -0.1327856    -0.6977174    0.1496037    -0.6985006    0.1408300     0.0698874   -0.0829354 
   0.212989400     0.0222686   -0.1406622    -0.6486718    0.2924447    -0.6506373    0.2844946     0.0353951   -0.0912798 
   0.214989300     0.0089324   -0.1453449    -0.5707783    0.4212701    -0.5743432    0.4135067     0.0013082   -0.0865294 
   0.216989200    -0.0057417   -0.1461374    -0.4687020    0.5300921    -0.4736535    0.5228680    -0.0271038   -0.0703661 
   0.218989100    -0.0205610   -0.1427873    -0.3467121    0.6148878    -0.3535104    0.6088375    -0.0463500   -0.0463612 
   0.220989000    -0.0342471   -0.1350372    -0.2101634    0.6725076    -0.2185594    0.6680753    -0.0546853   -0.0190647 
   0.222988900    -0.0454328   -0.1234881    -0.0650219    0.7006423    -0.0743285    0.6983898    -0.0522853    0.0071286 
   0.224988800    -0.0532215   -0.1090263     0.0827296    0.6983290     0.0734245    0.6981701    -0.0411875    0.0281950 
   0.226988700    -0.0568693   -0.0928810     0.2267639    0.6655363     0.2181391    0.6677249    -0.0247030    0.0414118 
   0.228988600    -0.0560320   -0.0761892     0.3608322    0.6034576     0.3532521    0.6077814    -0.0068747    0.0458080 
   0.230988500    -0.0507566   -0.0602282     0.4796448    0.5148597     0.4733430    0.5202975     0.0086206    0.0423160 
   0.232988400    -0.0412799   -0.0461734     0.5773693    0.4025922     0.5729038    0.4090796     0.0183784    0.0331621 
   0.234988300    -0.0286002   -0.0349962     0.6498736    0.2719610     0.6466966    0.2788377     0.0205988    0.0218979 
   0.236988200    -0.0134597   -0.0273821     0.6931729    0.1287335     0.6910566    0.1354163     0.0153480    0.0124469 
   0.238988100     0.0031094   -0.0238539     0.7050179   -0.0209951     0.7037973   -0.0141023     0.0043576    0.0083396 
   0.240988000     0.0200798   -0.0244183     0.6845980   -0.1701557     0.6845983   -0.1627667    -0.0091052    0.0120824 
   0.242987900     0.0364286   -0.0290246     0.6326374   -0.3116018     0.6342857   -0.3031785    -0.0208564    0.0244413 
   0.244987800     0.0513318   -0.0372750     0.5514866   -0.4386022     0.5552936   -0.4299149    -0.0268396    0.0442204 
   0.246987700     0.0640475   -0.0486682     0.4447621   -0.5451318     0.4513473   -0.5373137    -0.0234996    0.0685288 
   0.248987600     0.0740558   -0.0626103     0.3182435   -0.6260214     0.3268662   -0.6200822    -0.0090487    0.0930967 
   0.250987500     0.0809843   -0.0784761     0.1772423   -0.6778476     0.1873554   -0.6744518     0.0162509    0.1129467 
   0.252987400     0.0846124   -0.0956290     0.0291165   -0.6979473     0.0396926   -0.6978909     0.0502948    0.1236676 
   0.254987300     0.0849683   -0.1135627    -0.1192959   -0.6860194    -0.1088938   -0.6891314     0.0893348    0.1219738 
   0.256987200     0.0817222   -0.1314899    -0.2607518   -0.6429724    -0.2518911   -0.6487167     0.1283731    0.1061611 
   0.258987100     0.0751082   -0.1489870    -0.3893283   -0.5715364    -0.3823759   -0.5788171     0.1618400    0.0768268 
   0.260987000     0.0649177   -0.1650395    -0.4989808   -0.4744084    -0.4945352   -0.4828908     0.1851816    0.0362787 
   0.262986900     0.0513890   -0.1793064    -0.5850366   -0.3574064    -0.5829267   -0.3657458     0.1945952   -0.0111395 
   0.264986800     0.0348182   -0.1910730    -0.6442108   -0.2257240    -0.6439002   -0.2331853     0.1882424   -0.0602380 
   0.266986700     0.0158301   -0.1994877    -0.6743665   -0.0855471    -0.6752604   -0.0920174     0.1664691   -0.1054310 
   0.268986600    -0.0049389   -0.2041682    -0.6746550    0.0569357    -0.6762729    0.0510027     0.1314099   -0.1414285 
   0.270986500    -0.0265461   -0.2047466    -0.6456856    0.1952274    -0.6478219    0.1896015     0.0872462   -0.1644312 
   0.272986400    -0.0484590   -0.2010205    -0.5892310    0.3239434    -0.5921285    0.3183690     0.0390464   -0.1720789 
   0.274986300    -0.0691928   -0.1927148    -0.5079108    0.4378812    -0.5123025    0.4324066    -0.0075401   -0.1644467 
   0.276986200    -0.0881047   -0.1800626    -0.4055220    0.5324561    -0.4116443    0.5276059    -0.0473262   -0.1432891 
   0.278986100    -0.1040576   -0.1635513    -0.2860682    0.6042297    -0.2934698    0.6006001    -0.0767686   -0.1123906 
   0.280986000    -0.1162126   -0.1436463    -0.1545329    0.6499595    -0.1624594    0.6483640    -0.0933267   -0.0765392 
   0.282985900    -0.1239809   -0.1217151    -0.0164876    0.6680673    -0.0240431    0.6681795    -0.0970015   -0.0404924 
   0.284985800    -0.1264300   -0.0988313     0.1227724    0.6573673     0.1159611    0.6591614    -0.0894959   -0.0089827 
   0.286985700    -0.1236964   -0.0761889     0.2574457    0.6180211     0.2517520    0.6210024    -0.0739889    0.0145867 
   0.288985600    -0.1158504   -0.0552577     0.3816368    0.5512105     0.3768640    0.5554525    -0.0546635    0.0287705 
   0.290985500    -0.1035602   -0.0371750     0.4896173    0.4594412     0.4854616    0.4645238    -0.0357652    0.0336508 
   0.292985400    -0.0877456   -0.0230596     0.5762188    0.3465239     0.5726467    0.3523211    -0.0210754    0.0310747 
   0.294985300    -0.0694358   -0.0134432     0.6371688    0.2168938     0.6344530    0.2240546    -0.0130815    0.0243144 
   0.296985200    -0.0495709   -0.0086203     0.6689575    0.0770472     0.6672907    0.0844941    -0.0124477    0.0173364 
   0.298985100    -0.0299294   -0.0088749     0.6700937   -0.0670350     0.6697855   -0.0594552    -0.0180101    0.0140278 
   0.300985000    -0.0116314   -0.0138534     0.6397212   -0.2082508     0.6411333   -0.2009371    -0.0268256    0.0173172 
   0.302984900     0.0043660   -0.0230255     0.5795691   -0.3393643     0.5827889   -0.3324523    -0.0349667    0.0284280 
   0.304984800     0.0173238   -0.0356364     0.4923529   -0.4542774     0.4974759   -0.4482346    -0.0380864    0.0467192 
   0.306984700     0.0265803   -0.0506458     0.3824610   -0.5469949     0.3893393   -0.5427724    -0.0326357    0.0692785 
   0.308984600     0.0319410   -0.0671585     0.2559990   -0.6133977     0.2638783   -0.6115695    -0.0162253    0.0918297 
   0.310984500     0.0333618   -0.0843471     0.1190679   -0.6503436     0.1269777   -0.6508468     0.0110972    0.1092453 
   0.312984400     0.0308734   -0.1013857    -0.0215420   -0.6567843    -0.0143936   -0.6593882     0.0466783    0.1164695 
   0.314984300     0.0246894   -0.1177530    -0.1589590   -0.6328648    -0.1528880   -0.6372381     0.0861846    0.1097954 
