! MS46122B
! 2250307/22442219
! 2/19/2026 8:55:33 AM
! C:\USERS\SPARKY\DOCUMENTS\VNA_DATA\FEB19_2026\WARM2\PORT4.S2P
! CHANNEL.1
! TR.MEASUREMENT
! RAW.DATA
# GHZ S RI R 50.0
! FREQ.GHZ         S11RE         S11IM         S21RE         S21IM         S12RE         S12IM         S22RE         S22IM         
!; PortSelection: Port_12
   0.001000000     1.0463880   -0.0664952    -0.0002655   -0.0009328    -0.0002132   -0.0009384     0.8042649   -0.5592541 
   0.002999900     0.9623610   -0.1929632    -0.0201594   -0.0143827    -0.0210513   -0.0148523     0.0465361   -0.8635920 
   0.004999800     0.8794311   -0.3127784    -0.1201559    0.0023710    -0.1262588    0.0053695    -0.7130755   -0.4274552 
   0.006999700     0.7119817   -0.3883971    -0.2256436    0.2905405    -0.2193334    0.3107980    -0.4096231    0.6516383 
   0.008999600     0.6343054   -0.2984412     0.2345596    0.4945924     0.2465402    0.4954398     0.5027764   -0.0344515 
   0.010999500     0.6642904   -0.3183492     0.4738797    0.2228032     0.4886808    0.2255301    -0.0207871   -0.5092011 
   0.012999400     0.6473621   -0.3815638     0.5026765    0.0082103     0.5205485    0.0016674    -0.4242676   -0.3706990 
   0.014999300     0.6030210   -0.4399127     0.4795191   -0.1520660     0.4929268   -0.1682280    -0.5809358   -0.0966350 
   0.016999200     0.5451207   -0.4862058     0.4306208   -0.2883112     0.4336792   -0.3085369    -0.5635271    0.1681844 
   0.018999100     0.4782558   -0.5173786     0.3553955   -0.4101260     0.3488891   -0.4283023    -0.4314288    0.3676053 
   0.020999000     0.4063229   -0.5312148     0.2511872   -0.5163063     0.2373650   -0.5274190    -0.2349148    0.4749473 
   0.022998900     0.3360920   -0.5256454     0.1142443   -0.5991158     0.0992198   -0.6005268    -0.0209185    0.4812652 
   0.024998800     0.2722056   -0.4782273    -0.0222206   -0.6726276    -0.0710786   -0.6382123     0.1745395    0.4299794 
   0.026998700     0.2273065   -0.4603044    -0.2374148   -0.6386645    -0.2398418   -0.6284316     0.2835982    0.2377135 
   0.028998600     0.2005951   -0.4128813    -0.4207502   -0.5713667    -0.4163862   -0.5641243     0.3118980    0.0537480 
   0.030998500     0.1951042   -0.3683396    -0.5777404   -0.4458534    -0.5709565   -0.4443881     0.2494874   -0.1097973 
   0.032998400     0.2027903   -0.3207866    -0.7005112   -0.3217721    -0.6879399   -0.2717059     0.1384853   -0.2237108 
   0.034998300     0.2209168   -0.3198599    -0.7392265   -0.0857416    -0.7392572   -0.0891047    -0.0289563   -0.2333715 
   0.036998200     0.2341597   -0.3183201    -0.7349286    0.1045754    -0.7366590    0.1046089    -0.1598213   -0.1790426 
   0.038998100     0.2391801   -0.3256591    -0.6844050    0.2795868    -0.6852645    0.2833945    -0.2414591   -0.0768641 
   0.040998000     0.2358021   -0.3376124    -0.5961983    0.4328354    -0.5925686    0.4379904    -0.2665094    0.0449450 
   0.042997900     0.2230645   -0.3496075    -0.4779399    0.5577174    -0.4702780    0.5612636    -0.2350258    0.1607286 
   0.044997800     0.2012414   -0.3421045    -0.3842365    0.6601955    -0.3207746    0.6563547    -0.1726720    0.2679173 
   0.046997700     0.1783392   -0.3590361    -0.1825845    0.7126603    -0.1731069    0.7073602    -0.0550048    0.2935281 
   0.048997600     0.1541222   -0.3533463    -0.0177446    0.7388145    -0.0111872    0.7293795     0.0553949    0.2916166 
   0.050997500     0.1332216   -0.3412936     0.1505056    0.7282045     0.1500430    0.7174941     0.1537615    0.2449246 
   0.052997400     0.1173278   -0.3255062     0.3144844    0.6792696     0.3078049    0.6708274     0.2237544    0.1627766 
   0.054997300     0.1084637   -0.3084601     0.4637574    0.5931402     0.4524772    0.5899549     0.2535006    0.0607299 
   0.056997200     0.1057442   -0.2936700     0.5875751    0.4764023     0.5799698    0.4738103     0.2395155   -0.0430460 
   0.058997100     0.1079497   -0.2835859     0.6823750    0.3310502     0.6759678    0.3316656     0.1855926   -0.1313865 
   0.060997000     0.1120015   -0.2797061     0.7399410    0.1673498     0.7358947    0.1694444     0.1025331   -0.1886647 
   0.062996900     0.1148039   -0.2819218     0.7571940   -0.0037327     0.7550992   -0.0020928     0.0058340   -0.2070829 
   0.064996800     0.1137297   -0.2887979     0.7350045   -0.1723222     0.7335168   -0.1717381    -0.0865991   -0.1853104 
   0.066996700     0.1069413   -0.2978651     0.6762273   -0.3294814     0.6736547   -0.3296694    -0.1593841   -0.1300366 
   0.068996600     0.0944198   -0.3063311     0.5857540   -0.4676195     0.5814407   -0.4670415    -0.2017443   -0.0533042 
   0.070996500     0.0770317   -0.3119777     0.4694443   -0.5824918     0.4641537   -0.5795470    -0.2091033    0.0305297 
   0.072996400     0.0562208   -0.3122433     0.3327927   -0.6692764     0.3273016   -0.6627526    -0.1832492    0.1068705 
   0.074996300     0.0343159   -0.3064643     0.1814279   -0.7250251     0.1787583   -0.7154390    -0.1310103    0.1641677 
   0.076996200     0.0140345   -0.2942396     0.0217799   -0.7483360     0.0230858   -0.7371774    -0.0627017    0.1944978 
   0.078996100    -0.0024465   -0.2766946    -0.1397547   -0.7377051    -0.1338356   -0.7268802     0.0097113    0.1949085 
   0.080996000    -0.0137516   -0.2554940    -0.2968104   -0.6926149    -0.2865677   -0.6845751     0.0737747    0.1668038 
   0.082995900    -0.0180692   -0.2330322    -0.4416079   -0.6139720    -0.4292612   -0.6107246     0.1196754    0.1163049 
   0.084995800    -0.0156369   -0.2117286    -0.5660501   -0.5050508    -0.5534283   -0.5063405     0.1397139    0.0534801 
   0.086995700    -0.0081252   -0.1943142    -0.6645133   -0.3700811    -0.6536980   -0.3752815     0.1315895   -0.0105786 
   0.088995600     0.0028166   -0.1824753    -0.7306464   -0.2162026    -0.7223924   -0.2238969     0.0977592   -0.0640526 
   0.090995500     0.0145569   -0.1766557    -0.7607250   -0.0511748    -0.7553072   -0.0596468     0.0451935   -0.0971641 
   0.092995400     0.0246925   -0.1764157    -0.7537102    0.1162116    -0.7498794    0.1081042    -0.0159815   -0.1045623 
   0.094995300     0.0313555   -0.1799880    -0.7091850    0.2764077    -0.7066216    0.2691541    -0.0741399   -0.0851301 
   0.096995200     0.0335656   -0.1855441    -0.6311744    0.4222331    -0.6292580    0.4156680    -0.1181416   -0.0429977 
   0.098995100     0.0313188   -0.1909059    -0.5244715    0.5470476    -0.5220077    0.5396908    -0.1402795    0.0132331 
   0.100995000     0.0237431   -0.1953524    -0.3922256    0.6472304    -0.3921164    0.6379679    -0.1363956    0.0746940 
   0.102994900     0.0156589   -0.1952415    -0.2445295    0.7147118    -0.2466359    0.7043622    -0.1088835    0.1281364 
   0.104994800     0.0071265   -0.1914373    -0.0865987    0.7493110    -0.0917211    0.7392020    -0.0622634    0.1659774 
   0.106994700    -0.0000085   -0.1842079     0.0748916    0.7499657     0.0663948    0.7415247    -0.0049031    0.1822952 
   0.108994600    -0.0043275   -0.1747620     0.2327896    0.7165567     0.2216786    0.7112480     0.0537454    0.1746618 
   0.110994500    -0.0051766   -0.1644532     0.3804429    0.6506070     0.3680433    0.6493046     0.1044766    0.1450585 
   0.112994400    -0.0025516   -0.1548924     0.5112730    0.5544924     0.4992393    0.5572727     0.1390314    0.0988827 
   0.114994300     0.0029715   -0.1473162     0.6184440    0.4323536     0.6081393    0.4382873     0.1523648    0.0438226 
   0.116994200     0.0101897   -0.1429884     0.6968492    0.2895407     0.6894509    0.2976294     0.1430628   -0.0110453 
   0.118994100     0.0175879   -0.1422218     0.7424234    0.1330079     0.7378016    0.1418366     0.1134594   -0.0562618 
   0.120994000     0.0240037   -0.1446335     0.7530860   -0.0291175     0.7508674   -0.0209578     0.0691321   -0.0848557 
   0.122993900     0.0277405   -0.1493448     0.7281826   -0.1896494     0.7273279   -0.1819835     0.0183996   -0.0923442 
   0.124993800     0.0285354   -0.1551876     0.6693702   -0.3404220     0.6692258   -0.3332912    -0.0297376   -0.0782067 
   0.126993700     0.0263317   -0.1607293     0.5800412   -0.4744700     0.5805024   -0.4669163    -0.0664294   -0.0456021 
   0.128993600     0.0216175   -0.1645358     0.4644739   -0.5854777     0.4663934   -0.5774209    -0.0853538   -0.0017085 
   0.130993500     0.0155289   -0.1663767     0.3288594   -0.6693270     0.3325513   -0.6607807    -0.0837296    0.0453454 
   0.132993400     0.0091454   -0.1657890     0.1791498   -0.7227368     0.1853900   -0.7144943    -0.0625370    0.0869405 
   0.134993300     0.0035139   -0.1630836     0.0219123   -0.7432536     0.0310073   -0.7364318    -0.0258800    0.1156534 
   0.136993200    -0.0007477   -0.1588608    -0.1359856   -0.7302364    -0.1246162   -0.7262380     0.0197898    0.1265131 
   0.138993100    -0.0029311   -0.1543264    -0.2875166   -0.6843900    -0.2749548   -0.6837238     0.0661096    0.1176239 
   0.140993000    -0.0032803   -0.1503561    -0.4257462   -0.6074418    -0.4134860   -0.6106490     0.1052610    0.0905159 
   0.142992900    -0.0024744   -0.1477844    -0.5446211   -0.5026938    -0.5342280   -0.5094280     0.1305826    0.0494181 
   0.144992800    -0.0013663   -0.1471374    -0.6387504   -0.3752898    -0.6308323   -0.3841695     0.1375380    0.0013128 
   0.146992700    -0.0009718   -0.1482746    -0.7027787   -0.2307441    -0.6982023   -0.2405530     0.1250911   -0.0459850 
   0.148992600    -0.0022554   -0.1508439    -0.7344486   -0.0759812    -0.7323747   -0.0859602     0.0950895   -0.0851372 
   0.150992500    -0.0057519   -0.1536323    -0.7320361    0.0811440    -0.7317019    0.0719256     0.0522931   -0.1094736 
   0.152992400    -0.0118012   -0.1559427    -0.6967161    0.2337424    -0.6977558    0.2253740     0.0033821   -0.1154729 
   0.154992300    -0.0199970   -0.1566469    -0.6302437    0.3746908    -0.6323152    0.3666075    -0.0438186   -0.1022217 
   0.156992200    -0.0296163   -0.1545120    -0.5360188    0.4979296    -0.5390995    0.4900284    -0.0817212   -0.0722383 
   0.158992100    -0.0394798   -0.1491606    -0.4187723    0.5984097    -0.4231062    0.5907290    -0.1048150   -0.0310157 
   0.160992000    -0.0484005   -0.1406535    -0.2834172    0.6720377    -0.2900288    0.6648424    -0.1102622    0.0147847 
   0.162991900    -0.0551462   -0.1292546    -0.1360133    0.7159616    -0.1448801    0.7099806    -0.0981769    0.0578838 
   0.164991800    -0.0588707   -0.1161017     0.0169089    0.7284514     0.0066479    0.7244872    -0.0714343    0.0917869 
   0.166991700    -0.0589915   -0.1021806     0.1695011    0.7088616     0.1581515    0.7079285    -0.0349503    0.1119560 
   0.168991600    -0.0554856   -0.0887560     0.3149619    0.6578042     0.3035161    0.6601661     0.0046536    0.1161730 
   0.170991500    -0.0487922   -0.0769496     0.4468498    0.5770856     0.4368371    0.5822546     0.0408214    0.1048273 
   0.172991400    -0.0396539   -0.0678246     0.5590442    0.4700657     0.5512847    0.4775058     0.0679506    0.0811767 
   0.174991300    -0.0292081   -0.0618214     0.6463159    0.3414492     0.6410298    0.3502556     0.0821981    0.0501229 
   0.176991200    -0.0185937   -0.0589601     0.7043661    0.1968081     0.7012843    0.2058014     0.0817481    0.0178423 
   0.178991100    -0.0088186   -0.0588168     0.7303267    0.0429331     0.7288354    0.0514321     0.0679391   -0.0095689 
   0.180991000    -0.0005725   -0.0607955     0.7228120   -0.1128628     0.7228386   -0.1046725     0.0442470   -0.0270184 
   0.182990900     0.0057521   -0.0638963     0.6818843   -0.2636760     0.6831166   -0.2553111     0.0158678   -0.0314124 
   0.184990800     0.0102266   -0.0672464     0.6102914   -0.4016667     0.6123353   -0.3938478    -0.0110504   -0.0223163 
   0.186990700     0.0132831   -0.0702227     0.5108577   -0.5212479     0.5141779   -0.5137510    -0.0306379   -0.0017954 
   0.188990600     0.0170275   -0.0718399     0.4067852   -0.6043440     0.4087861   -0.5994006    -0.0399908    0.0249892 
   0.190990500     0.0180267   -0.0737699     0.2517831   -0.6831492     0.2587709   -0.6771002    -0.0337021    0.0554158 
   0.192990400     0.0205906   -0.0748669     0.0982645   -0.7207059     0.1076195   -0.7165709    -0.0151496    0.0808200 
   0.194990300     0.0241960   -0.0760803    -0.0564356   -0.7246611    -0.0459254   -0.7231618     0.0131762    0.0968295 
   0.196990200     0.0286267   -0.0781663    -0.2085183   -0.6955631    -0.1975244   -0.6971201     0.0470636    0.1001580 
   0.198990100     0.0334612   -0.0818147    -0.3508174   -0.6352215    -0.3405616   -0.6397609     0.0808425    0.0895472 
   0.200990000     0.0379611   -0.0874159    -0.4770810   -0.5455927    -0.4684257   -0.5528700     0.1086892    0.0660810 
   0.202989900     0.0413096   -0.0950506    -0.5810429   -0.4312931    -0.5748943   -0.4401240     0.1261887    0.0330101 
   0.204989800     0.0425420   -0.1043848    -0.6581399   -0.2976363    -0.6543397   -0.3067994     0.1303596   -0.0048563 
   0.206989700     0.0410075   -0.1147980    -0.7049859   -0.1512140    -0.7031283   -0.1602678     0.1201760   -0.0418699 
   0.208989600     0.0361202   -0.1251407    -0.7189896    0.0014760    -0.7189866   -0.0077745     0.0972231   -0.0727217 
   0.210989500     0.0278269   -0.1343384    -0.7006037    0.1527388    -0.7018605    0.1442307     0.0649834   -0.0929582 
   0.212989400     0.0164025   -0.1412179    -0.6508272    0.2960022    -0.6531817    0.2883643     0.0282046   -0.1000693 
   0.214989300     0.0027856   -0.1447451    -0.5722553    0.4250256    -0.5760537    0.4177348    -0.0076908   -0.0935633 
   0.216989200    -0.0119655   -0.1443843    -0.4694768    0.5339998    -0.4744928    0.5273160    -0.0374850   -0.0753026 
   0.218989100    -0.0265572   -0.1396596    -0.3465212    0.6190027    -0.3535301    0.6132823    -0.0576060   -0.0489332 
   0.220989000    -0.0397170   -0.1306252    -0.2092845    0.6765441    -0.2177548    0.6724605    -0.0662641   -0.0191519 
   0.222988900    -0.0501218   -0.1178200    -0.0632482    0.7044441    -0.0726689    0.7025540    -0.0636014    0.0094765 
   0.224988800    -0.0568709   -0.1024107     0.0849586    0.7017309     0.0758939    0.7020131    -0.0516772    0.0328324 
   0.226988700    -0.0592298   -0.0854366     0.2298273    0.6684936     0.2213938    0.6710632    -0.0339331    0.0480313 
   0.228988600    -0.0568862   -0.0681496     0.3648437    0.6057706     0.3572627    0.6104416    -0.0145144    0.0540618 
   0.230988500    -0.0499102   -0.0519965     0.4838474    0.5163709     0.4779145    0.5221281     0.0028177    0.0518193 
   0.232988400    -0.0387237   -0.0380788     0.5819741    0.4030241     0.5779155    0.4098481     0.0146029    0.0435168 
   0.234988300    -0.0243080   -0.0273993     0.6545287    0.2713808     0.6518278    0.2784883     0.0189553    0.0327281 
   0.236988200    -0.0075562   -0.0207335     0.6976544    0.1269149     0.6961152    0.1338613     0.0157694    0.0233151 
   0.238988100     0.0104514   -0.0184310     0.7090848   -0.0237607     0.7083567   -0.0169044     0.0068082    0.0189377 
   0.240988000     0.0284881   -0.0206236     0.6877956   -0.1739891     0.6884134   -0.1666217    -0.0046783    0.0220547 
   0.242987900     0.0456321   -0.0270791     0.6348962   -0.3160211     0.6370935   -0.3079789    -0.0146517    0.0334337 
   0.244987800     0.0608445   -0.0373628     0.5522861   -0.4435608     0.5569067   -0.4350912    -0.0189052    0.0519467 
   0.246987700     0.0734279   -0.0507787     0.4444466   -0.5500560     0.4515890   -0.5427352    -0.0141146    0.0746539 
   0.248987600     0.0828819   -0.0667477     0.3167543   -0.6307192     0.3257343   -0.6253179     0.0014608    0.0972676 
   0.250987500     0.0888435   -0.0844850     0.1747378   -0.6819493     0.1849978   -0.6791865     0.0275577    0.1149328 
   0.252987400     0.0911696   -0.1033086     0.0258357   -0.7012013     0.0363526   -0.7018121     0.0619364    0.1232944 
   0.254987300     0.0897228   -0.1224833    -0.1231413   -0.6882105    -0.1129929   -0.6920512     0.1009125    0.1190610 
   0.256987200     0.0845468   -0.1414166    -0.2648679   -0.6440963    -0.2563940   -0.6505005     0.1391311    0.1008604 
   0.258987100     0.0758109   -0.1593461    -0.3932420   -0.5716715    -0.3868674   -0.5795146     0.1713369    0.0692582 
   0.260987000     0.0634354   -0.1754005    -0.5025750   -0.4736642    -0.4989498   -0.4825473     0.1929138    0.0266681 
   0.262986900     0.0476394   -0.1894022    -0.5883499   -0.3560225    -0.5868803   -0.3645114     0.2000684   -0.0222210 
   0.264986800     0.0290887   -0.2001704    -0.6468636   -0.2239804    -0.6472734   -0.2313311     0.1912473   -0.0723651 
   0.266986700     0.0082412   -0.2073321    -0.6765385   -0.0834336    -0.6780679   -0.0897123     0.1667712   -0.1179276 
   0.268986600    -0.0140738   -0.2103481    -0.6763240    0.0591590    -0.6784880    0.0536137     0.1290279   -0.1537730 
   0.270986500    -0.0370895   -0.2090348    -0.6470119    0.1975531    -0.6495220    0.1923782     0.0822725   -0.1759104 
   0.272986400    -0.0595837   -0.2030834    -0.5902412    0.3263584    -0.5934848    0.3213327     0.0317501   -0.1822438 
   0.274986300    -0.0806866   -0.1924416    -0.5086601    0.4403698    -0.5132892    0.4353004    -0.0168123   -0.1727097 
   0.276986200    -0.0993926   -0.1774556    -0.4059187    0.5351108    -0.4121401    0.5306376    -0.0580341   -0.1493632 
   0.278986100    -0.1147332   -0.1585211    -0.2861716    0.6069951    -0.2935695    0.6037983    -0.0883899   -0.1160151 
   0.280986000    -0.1258163   -0.1365691    -0.1540680    0.6529419    -0.1620788    0.6516850    -0.1052643   -0.0775938 
   0.282985900    -0.1319648   -0.1127240    -0.0155566    0.6711164    -0.0229610    0.6716072    -0.1087204   -0.0391254 
   0.284985800    -0.1324390   -0.0882883     0.1244320    0.6603909     0.1177720    0.6625823    -0.1003989   -0.0052352 
   0.286985700    -0.1273702   -0.0645448     0.2598159    0.6208640     0.2543496    0.6241862    -0.0836647    0.0203896 
   0.288985600    -0.1170037   -0.0428558     0.3848719    0.5535902     0.3802812    0.5581458    -0.0627536    0.0361456 
   0.290985500    -0.1021143   -0.0248349     0.4935010    0.4611306     0.4896338    0.4665122    -0.0420249    0.0422468 
   0.292985400    -0.0837010   -0.0112244     0.5807034    0.3471439     0.5773688    0.3532685    -0.0253951    0.0404747 
   0.294985300    -0.0627592   -0.0025777     0.6417505    0.2164336     0.6394163    0.2238586    -0.0154418    0.0341041 
   0.296985200    -0.0407892    0.0004809     0.6734627    0.0754148     0.6721982    0.0829720    -0.0129593    0.0270840 
   0.298985100    -0.0194538   -0.0018281     0.6740212   -0.0699529     0.6742700   -0.0622388    -0.0167153    0.0234644 
   0.300985000     0.0000997   -0.0092788     0.6428148   -0.2120319     0.6447751   -0.2048137    -0.0239309    0.0261964 
   0.302984900     0.0167829   -0.0211750     0.5814644   -0.3439253     0.5852227   -0.3372019    -0.0306024    0.0365583 
   0.304984800     0.0297828   -0.0365331     0.4930219   -0.4589709     0.4986977   -0.4534124    -0.0323577    0.0538128 
   0.306984700     0.0384970   -0.0542101     0.3819172   -0.5517330     0.3891860   -0.5480178    -0.0256905    0.0751576 
   0.308984600     0.0426757   -0.0731467     0.2543280   -0.6175697     0.2624322   -0.6164330    -0.0083131    0.0962902 
   0.310984500     0.0424080   -0.0923849     0.1165393   -0.6537683     0.1244782   -0.6550815     0.0197737    0.1120586 
   0.312984400     0.0379192   -0.1112287    -0.0246399   -0.6593014    -0.0177541   -0.6627309     0.0557258    0.1174086 
   0.314984300     0.0294360   -0.1285239    -0.1624950   -0.6344759    -0.1566296   -0.6394780     0.0952250    0.1088174 
