! MS46122B
! 2250307/22442219
! 2/19/2026 8:58:04 AM
! C:\USERS\SPARKY\DOCUMENTS\VNA_DATA\FEB19_2026\WARM2\PORT5.S2P
! CHANNEL.1
! TR.MEASUREMENT
! RAW.DATA
# GHZ S RI R 50.0
! FREQ.GHZ         S11RE         S11IM         S21RE         S21IM         S12RE         S12IM         S22RE         S22IM         
!; PortSelection: Port_12
   0.001000000     1.0460200   -0.0665889    -0.0002681   -0.0009306    -0.0002130   -0.0009383     0.8045492   -0.5591319 
   0.002999900     0.9620640   -0.1929237    -0.0201541   -0.0143767    -0.0210449   -0.0148600     0.0471354   -0.8639024 
   0.004999800     0.8795614   -0.3129022    -0.1201624    0.0023800    -0.1263015    0.0053183    -0.7130134   -0.4280487 
   0.006999700     0.7119911   -0.3884504    -0.2257580    0.2904461    -0.2195343    0.3107867    -0.4098568    0.6514298 
   0.008999600     0.6341025   -0.2984987     0.2343295    0.4948016     0.2463551    0.4958659     0.5030985   -0.0344414 
   0.010999500     0.6640977   -0.3182989     0.4739321    0.2230790     0.4888726    0.2259551    -0.0206136   -0.5098081 
   0.012999400     0.6471772   -0.3814934     0.5028636    0.0084278     0.5209177    0.0019027    -0.4245866   -0.3713420 
   0.014999300     0.6028746   -0.4397903     0.4797628   -0.1519503     0.4933708   -0.1681110    -0.5815842   -0.0969907 
   0.016999200     0.5450002   -0.4860857     0.4308471   -0.2882972     0.4341426   -0.3086950    -0.5643117    0.1681897 
   0.018999100     0.4781530   -0.5171767     0.3556595   -0.4101458     0.3492745   -0.4284977    -0.4321669    0.3679127 
   0.020999000     0.4062373   -0.5310795     0.2514389   -0.5164126     0.2377291   -0.5277413    -0.2354794    0.4755127 
   0.022998900     0.3360441   -0.5254000     0.1144411   -0.5992320     0.0994508   -0.6010138    -0.0211962    0.4820468 
   0.024998800     0.2721850   -0.4780012    -0.0219590   -0.6728024    -0.0710597   -0.6387081     0.1745134    0.4308831 
   0.026998700     0.2273148   -0.4601217    -0.2373043   -0.6389444    -0.2397455   -0.6289758     0.2838877    0.2385014 
   0.028998600     0.2007001   -0.4127098    -0.4206249   -0.5716701    -0.4164361   -0.5646433     0.3124858    0.0543804 
   0.030998500     0.1952494   -0.3682006    -0.5776665   -0.4461581    -0.5711581   -0.4448982     0.2502446   -0.1094459 
   0.032998400     0.2029498   -0.3207099    -0.7004651   -0.3221758    -0.6881857   -0.2721555     0.1393176   -0.2235356 
   0.034998300     0.2211271   -0.3198505    -0.7393065   -0.0861492    -0.7396824   -0.0895955    -0.0282224   -0.2335287 
   0.036998200     0.2342736   -0.3184245    -0.7350550    0.1042166    -0.7371303    0.1043389    -0.1591697   -0.1794162 
   0.038998100     0.2393143   -0.3258383    -0.6846605    0.2792136    -0.6858023    0.2831223    -0.2410762   -0.0773651 
   0.040998000     0.2359512   -0.3378542    -0.5965869    0.4325244    -0.5931493    0.4379300    -0.2662875    0.0443658 
   0.042997900     0.2230912   -0.3498733    -0.4784923    0.5574376    -0.4709598    0.5611821    -0.2350222    0.1602053 
   0.044997800     0.2011834   -0.3424070    -0.3848427    0.6598985    -0.3214481    0.6563578    -0.1728875    0.2674240 
   0.046997700     0.1781864   -0.3594035    -0.1832285    0.7125456    -0.1736635    0.7075660    -0.0552919    0.2932726 
   0.048997600     0.1537981   -0.3537006    -0.0184601    0.7388923    -0.0119244    0.7297161     0.0550939    0.2915501 
   0.050997500     0.1326847   -0.3416319     0.1496827    0.7284970     0.1497003    0.7179308     0.1535192    0.2450169 
   0.052997400     0.1167855   -0.3256937     0.3138838    0.6797519     0.3071328    0.6715894     0.2236312    0.1629703 
   0.054997300     0.1078427   -0.3085366     0.4632887    0.5937504     0.4519374    0.5910004     0.2535312    0.0609235 
   0.056997200     0.1050114   -0.2935580     0.5872323    0.4772236     0.5796974    0.4749024     0.2397212   -0.0429001 
   0.058997100     0.1072032   -0.2832991     0.6822492    0.3320256     0.6760610    0.3328295     0.1859457   -0.1313668 
   0.060997000     0.1113439   -0.2792638     0.7400950    0.1683429     0.7362944    0.1705793     0.1029230   -0.1888188 
   0.062996900     0.1142409   -0.2812963     0.7575728   -0.0028056     0.7558341   -0.0011017     0.0061541   -0.2074510 
   0.064996800     0.1132705   -0.2880119     0.7356449   -0.1715674     0.7344348   -0.1709174    -0.0864405   -0.1858156 
   0.066996700     0.1066914   -0.2970027     0.6770251   -0.3289108     0.6747831   -0.3290958    -0.1594870   -0.1306228 
   0.068996600     0.0943753   -0.3054031     0.5866323   -0.4672289     0.5826979   -0.4668109    -0.2020902   -0.0538259 
   0.070996500     0.0771891   -0.3110623     0.4704089   -0.5823199     0.4653363   -0.5796071    -0.2096134    0.0301483 
   0.072996400     0.0565715   -0.3113735     0.3337066   -0.6693392     0.3284574   -0.6630550    -0.1838776    0.1066765 
   0.074996300     0.0348419   -0.3057112     0.1823377   -0.7252185     0.1797757   -0.7160085    -0.1317059    0.1642075 
   0.076996200     0.0146813   -0.2936285     0.0225938   -0.7487063     0.0239741   -0.7379802    -0.0632974    0.1947368 
   0.078996100    -0.0016772   -0.2762229    -0.1390200   -0.7382332    -0.1331243   -0.7277164     0.0091968    0.1953316 
   0.080996000    -0.0129115   -0.2551746    -0.2961636   -0.6932815    -0.2860433   -0.6855198     0.0734822    0.1673328 
   0.082995900    -0.0171815   -0.2328925    -0.4411137   -0.6146696    -0.4289333   -0.6117461     0.1195466    0.1168677 
   0.084995800    -0.0147518   -0.2118284    -0.5657491   -0.5058900    -0.5533133   -0.5074449     0.1397920    0.0539952 
   0.086995700    -0.0072887   -0.1946414    -0.6643029   -0.3709811    -0.6537408   -0.3763896     0.1318284   -0.0101632 
   0.088995600     0.0035456   -0.1829547    -0.7306266   -0.2171753    -0.7226384   -0.2248819     0.0980735   -0.0637501 
   0.090995500     0.0151887   -0.1773046    -0.7608871   -0.0521816    -0.7557460   -0.0606629     0.0455538   -0.0970432 
   0.092995400     0.0251715   -0.1771943    -0.7540622    0.1152122    -0.7505299    0.1070976    -0.0156243   -0.1046469 
   0.094995300     0.0316563   -0.1808957    -0.7097291    0.2754884    -0.7074791    0.2683271    -0.0739235   -0.0853499 
   0.096995200     0.0336431   -0.1865378    -0.6319422    0.4214801    -0.6302623    0.4150231    -0.1181164   -0.0432996 
   0.098995100     0.0311634   -0.1919265    -0.5253853    0.5463698    -0.5232238    0.5392355    -0.1404464    0.0129402 
   0.100995000     0.0233232   -0.1963200    -0.3933677    0.6467090    -0.3934398    0.6376864    -0.1367722    0.0744620 
   0.102994900     0.0150014   -0.1961311    -0.2458102    0.7144615    -0.2481606    0.7043409    -0.1093937    0.1280967 
   0.104994800     0.0062525   -0.1921925    -0.0879732    0.7493620    -0.0931454    0.7395168    -0.0628594    0.1661758 
   0.106994700    -0.0010827   -0.1847835     0.0734973    0.7502863     0.0650143    0.7421262    -0.0054549    0.1827437 
   0.108994600    -0.0055776   -0.1750957     0.2315037    0.7172521     0.2204173    0.7122173     0.0533192    0.1753922 
   0.110994500    -0.0065577   -0.1644967     0.3793443    0.6515809     0.3669658    0.6505554     0.1042870    0.1459516 
   0.112994400    -0.0039526   -0.1546227     0.5103136    0.5557858     0.4984229    0.5588097     0.1391737    0.0998545 
   0.114994300     0.0016268   -0.1467314     0.6178486    0.4338454     0.6077251    0.4400248     0.1528197    0.0447585 
   0.116994200     0.0089602   -0.1420752     0.6966082    0.2911874     0.6894494    0.2994877     0.1438318   -0.0102567 
   0.118994100     0.0165534   -0.1410434     0.7425840    0.1347157     0.7382479    0.1436491     0.1144615   -0.0557514 
   0.120994000     0.0232593   -0.1432205     0.7536351   -0.0274354     0.7517655   -0.0192353     0.0702663   -0.0846701 
   0.122993900     0.0273030   -0.1477656     0.7291080   -0.1882063     0.7285886   -0.1805466     0.0195235   -0.0925030 
   0.124993800     0.0284791   -0.1535122     0.6707160   -0.3391410     0.6708262   -0.3321958    -0.0287238   -0.0786906 
   0.126993700     0.0266072   -0.1591137     0.5815322   -0.4735733     0.5822710   -0.4662621    -0.0656418   -0.0463574 
   0.128993600     0.0222043   -0.1630192     0.4660451   -0.5849859     0.4682255   -0.5770410    -0.0848254   -0.0026035 
   0.130993500     0.0164373   -0.1650103     0.3304977   -0.6692397     0.3343417   -0.6609625    -0.0834800    0.0444086 
   0.132993400     0.0103306   -0.1646573     0.1807392   -0.7229793     0.1870813   -0.7149848    -0.0625394    0.0860259 
   0.134993300     0.0048988   -0.1622268     0.0234077   -0.7438228     0.0325223   -0.7372858    -0.0260842    0.1148507 
   0.136993200     0.0007666   -0.1583170    -0.1346893   -0.7311182    -0.1233186   -0.7273456     0.0194663    0.1258224 
   0.138993100    -0.0013320   -0.1541012    -0.2864440   -0.6854437    -0.2739220   -0.6850494     0.0657271    0.1170765 
   0.140993000    -0.0016837   -0.1504716    -0.4248909   -0.6086584    -0.4127535   -0.6121265     0.1048464    0.0900707 
   0.142992900    -0.0009283   -0.1482521    -0.5440382   -0.5040327    -0.5336943   -0.5110384     0.1301637    0.0490380 
   0.144992800     0.0000739   -0.1479141    -0.6382841   -0.3767646    -0.6306402   -0.3858698     0.1371180    0.0009902 
   0.146992700     0.0002426   -0.1493984    -0.7028898   -0.2321139    -0.6983493   -0.2422131     0.1246472   -0.0463220 
   0.148992600    -0.0013148   -0.1521612    -0.7346542   -0.0774682    -0.7328297   -0.0875476     0.0945866   -0.0854833 
   0.150992500    -0.0051058   -0.1551352    -0.7325199    0.0796860    -0.7324678    0.0704352     0.0517112   -0.1098127 
   0.152992400    -0.0115010   -0.1575769    -0.6974827    0.2324064    -0.6987436    0.2240133     0.0026268   -0.1158019 
   0.154992300    -0.0200678   -0.1583549    -0.6312436    0.3734914    -0.6335739    0.3654499    -0.0447228   -0.1024750 
   0.156992200    -0.0300425   -0.1561628    -0.5372995    0.4968947    -0.5405580    0.4891369    -0.0827648   -0.0723708 
   0.158992100    -0.0402637   -0.1507179    -0.4202875    0.5976051    -0.4248142    0.5900940    -0.1060293   -0.0309186 
   0.160992000    -0.0495516   -0.1420738    -0.2851260    0.6715161    -0.2919175    0.6645281    -0.1115680    0.0151937 
   0.162991900    -0.0565855   -0.1303781    -0.1378550    0.7158343    -0.1468337    0.7100317    -0.0994869    0.0586193 
   0.164991800    -0.0605735   -0.1168748     0.0151154    0.7287466     0.0047987    0.7250904    -0.0726650    0.0929275 
   0.166991700    -0.0608685   -0.1025662     0.1676269    0.7095287     0.1562312    0.7088723    -0.0359754    0.1134790 
   0.168991600    -0.0574412   -0.0887457     0.3132591    0.6589204     0.3018350    0.6615510     0.0040060    0.1179709 
   0.170991500    -0.0507402   -0.0765077     0.4454224    0.5786023     0.4354681    0.5840686     0.0406361    0.1068755 
   0.172991400    -0.0414989   -0.0669493     0.5579547    0.4719447     0.5503761    0.4796376     0.0683169    0.0832811 
   0.174991300    -0.0308536   -0.0605334     0.6457533    0.3434899     0.6406012    0.3525850     0.0831034    0.0521211 
   0.176991200    -0.0199272   -0.0573198     0.7041954    0.1991343     0.7014183    0.2082133     0.0831672    0.0195948 
   0.178991100    -0.0097821   -0.0569315     0.7307231    0.0451818     0.7295488    0.0537127     0.0698095   -0.0082513 
   0.180991000    -0.0011101   -0.0587128     0.7236971   -0.1107393     0.7240339   -0.1026112     0.0463816   -0.0262243 
   0.182990900     0.0056799   -0.0617812     0.6832553   -0.2618501     0.6847482   -0.2535785     0.0181314   -0.0311900 
   0.184990800     0.0105887   -0.0651768     0.6120099   -0.4002516     0.6144140   -0.3926027    -0.0088090   -0.0226735 
   0.186990700     0.0140636   -0.0682623     0.5128471   -0.5202013     0.5163986   -0.5129048    -0.0286028   -0.0026611 
   0.188990600     0.0181522   -0.0700938     0.4089107   -0.6037521     0.4110761   -0.5990317    -0.0382463    0.0237610 
   0.190990500     0.0194896   -0.0723564     0.2539269   -0.6830884     0.2610569   -0.6772963    -0.0323653    0.0538353 
   0.192990400     0.0222801   -0.0738079     0.1003474   -0.7211181     0.1097392   -0.7172197    -0.0142451    0.0790308 
   0.194990300     0.0260595   -0.0754033    -0.0546138   -0.7253946    -0.0440085   -0.7242034     0.0136646    0.0949786 
   0.196990200     0.0305500   -0.0779095    -0.2067531   -0.6968799    -0.1958437   -0.6985387     0.0471970    0.0983060 
   0.198990100     0.0353777   -0.0819321    -0.3494390   -0.6367238    -0.3391841   -0.6414955     0.0805849    0.0877511 
   0.200990000     0.0397852   -0.0879209    -0.4759542   -0.5473863    -0.4674551   -0.5547665     0.1081613    0.0643915 
   0.202989900     0.0429530   -0.0959151    -0.5803494   -0.4330570    -0.5743045   -0.4421555     0.1253799    0.0314577 
   0.204989800     0.0439651   -0.1055758    -0.6577803   -0.2996101    -0.6541600   -0.3088666     0.1292969   -0.0062718 
   0.206989700     0.0421625   -0.1162580    -0.7050391   -0.1532058    -0.7033281   -0.1624390     0.1188882   -0.0430885 
   0.208989600     0.0369287   -0.1268032    -0.7194980   -0.0004284    -0.7196016   -0.0098385     0.0957060   -0.0737491 
   0.210989500     0.0282937   -0.1361311    -0.7013999    0.1507713    -0.7028649    0.1423172     0.0632601   -0.0937503 
   0.212989400     0.0165322   -0.1430886    -0.6520466    0.2941651    -0.6545719    0.2866447     0.0262831   -0.1006083 
   0.214989300     0.0025008   -0.1465887    -0.5737773    0.4235197    -0.5777543    0.4163340    -0.0097466   -0.0937505 
   0.216989200    -0.0126385   -0.1461453    -0.4712781    0.5327774    -0.4765043    0.5262129    -0.0396538   -0.0750728 
   0.218989100    -0.0275879   -0.1412944    -0.3485598    0.6181738    -0.3557810    0.6125652    -0.0597728   -0.0482694 
   0.220989000    -0.0411011   -0.1320371    -0.2115221    0.6760910    -0.2201663    0.6722012    -0.0683520   -0.0180326 
   0.222988900    -0.0517587   -0.1189359    -0.0657106    0.7045013    -0.0751337    0.7028434    -0.0654849    0.0110918 
   0.224988800    -0.0587875   -0.1031877     0.0826177    0.7022910     0.0734893    0.7028418    -0.0532460    0.0349016 
   0.226988700    -0.0612047   -0.0857506     0.2276280    0.6695479     0.2191785    0.6724140    -0.0350342    0.0504589 
   0.228988600    -0.0589133   -0.0680707     0.3627378    0.6073408     0.3553111    0.6122934    -0.0150569    0.0567803 
   0.230988500    -0.0519114   -0.0514842     0.4823110    0.5183522     0.4764391    0.5244269     0.0029401    0.0546426 
   0.232988400    -0.0405781   -0.0371622     0.5808173    0.4053343     0.5769191    0.4124711     0.0153670    0.0462717 
   0.234988300    -0.0259387   -0.0260947     0.6539485    0.2739919     0.6514934    0.2812299     0.0204213    0.0352233 
   0.236988200    -0.0088669   -0.0191204     0.6976401    0.1295903     0.6963838    0.1366357     0.0178016    0.0254119 
   0.238988100     0.0094812   -0.0165896     0.7096851   -0.0211337     0.7092896   -0.0142473     0.0092887    0.0204716 
   0.240988000     0.0279507   -0.0186324     0.6889816   -0.1715802     0.6898696   -0.1642223    -0.0019507    0.0229388 
   0.242987900     0.0455083   -0.0250276     0.6366028   -0.3139237     0.6390208   -0.3058929    -0.0117925    0.0336286 
   0.244987800     0.0611376   -0.0353309     0.5544351   -0.4418666     0.5591993   -0.4336371    -0.0162012    0.0514786 
   0.246987700     0.0741334   -0.0488614     0.4468739   -0.5488951     0.4541683   -0.5416912    -0.0116854    0.0736147 
   0.248987600     0.0839542   -0.0650598     0.3193454   -0.6301178     0.3284601   -0.6249271     0.0035017    0.0957465 
   0.250987500     0.0902180   -0.0830703     0.1773669   -0.6819093     0.1877524   -0.6793396     0.0291355    0.1130653 
   0.252987400     0.0927820   -0.1022045     0.0283539   -0.7016777     0.0389209   -0.7025416     0.0630490    0.1212455 
   0.254987300     0.0914794   -0.1217638    -0.1207901   -0.6892262    -0.1106379   -0.6932741     0.1015627    0.1169275 
   0.256987200     0.0863868   -0.1410665    -0.2627901   -0.6455498    -0.2542754   -0.6521919     0.1393566    0.0987283 
   0.258987100     0.0776718   -0.1593770    -0.3915441   -0.5735573    -0.3852333   -0.5815379     0.1711778    0.0672206 
   0.260987000     0.0651993   -0.1758091    -0.5012757   -0.4758082    -0.4975889   -0.4848844     0.1924381    0.0247320 
   0.262986900     0.0492610   -0.1901353    -0.5874982   -0.3584066    -0.5860987   -0.3671118     0.1992969   -0.0240330 
   0.264986800     0.0305300   -0.2012088    -0.6464986   -0.2263808    -0.6470403   -0.2339835     0.1902157   -0.0740411 
   0.266986700     0.0094480   -0.2086193    -0.6766344   -0.0859629    -0.6783405   -0.0923782     0.1654937   -0.1193861 
   0.268986600    -0.0132022   -0.2118100    -0.6769077    0.0566751    -0.6793059    0.0510799     0.1274934   -0.1550915 
   0.270986500    -0.0365450   -0.2106888    -0.6480741    0.1952388    -0.6508398    0.1900074     0.0805020   -0.1769913 
   0.272986400    -0.0593124   -0.2047708    -0.5917793    0.3241417    -0.5952795    0.3192624     0.0297359   -0.1830385 
   0.274986300    -0.0807701   -0.1941190    -0.5105631    0.4385867    -0.5154427    0.4335287    -0.0190100   -0.1731680 
   0.276986200    -0.0998251   -0.1791041    -0.4081937    0.5336995    -0.4146844    0.5294028    -0.0604091   -0.1494091 
   0.278986100    -0.1154447   -0.1601295    -0.2887639    0.6060451    -0.2963875    0.6031337    -0.0908399   -0.1155798 
   0.280986000    -0.1268672   -0.1379095    -0.1569110    0.6525587    -0.1650477    0.6515024    -0.1076768   -0.0766272 
   0.282985900    -0.1332417   -0.1138375    -0.0183825    0.6712980    -0.0260501    0.6721382    -0.1109508   -0.0375863 
   0.284985800    -0.1339442   -0.0891349     0.1216362    0.6612033     0.1149145    0.6637041    -0.1023192   -0.0031793 
   0.286985700    -0.1290097   -0.0650423     0.2571999    0.6223044     0.2517723    0.6259115    -0.0851035    0.0229262 
   0.288985600    -0.1186985   -0.0430243     0.3825272    0.5555692     0.3780995    0.5604445    -0.0635445    0.0390198 
   0.290985500    -0.1038271   -0.0246701     0.4916686    0.4636357     0.4880262    0.4692868    -0.0420959    0.0453167 
   0.292985400    -0.0853307   -0.0107163     0.5793988    0.3500274     0.5764170    0.3564063    -0.0247163    0.0434760 
   0.294985300    -0.0642288   -0.0017728     0.6411321    0.2196802     0.6391287    0.2271117    -0.0140320    0.0368618 
   0.296985200    -0.0420476    0.0015788     0.6736127    0.0786013     0.6727055    0.0861886    -0.0108886    0.0293931 
   0.298985100    -0.0204706   -0.0004923     0.6749657   -0.0668429     0.6753976   -0.0591758    -0.0142000    0.0251480 
   0.300985000    -0.0006077   -0.0077888     0.6443596   -0.2091800     0.6465550   -0.2020869    -0.0211297    0.0271613 
   0.302984900     0.0163638   -0.0195979     0.5836358   -0.3415144     0.5876219   -0.3349283    -0.0277278    0.0367927 
   0.304984800     0.0296925   -0.0349451     0.4956145   -0.4571383     0.5014915   -0.4517622    -0.0296662    0.0533216 
   0.306984700     0.0387281   -0.0527070     0.3848714   -0.5504460     0.3922472   -0.5469382    -0.0233267    0.0741015 
   0.308984600     0.0431696   -0.0717307     0.2574508   -0.6169723     0.2656501   -0.6160588    -0.0063710    0.0947601 
   0.310984500     0.0431301   -0.0911040     0.1196063   -0.6539372     0.1276927   -0.6554157     0.0212232    0.1102694 
   0.312984400     0.0388454   -0.1101677    -0.0216185   -0.6601033    -0.0145489   -0.6636412     0.0566618    0.1154934 
   0.314984300     0.0305362   -0.1276734    -0.1596910   -0.6359192    -0.1538840   -0.6411532     0.0957693    0.1069179 
