! MS46122B
! 2250307/22442219
! 2/19/2026 8:46:58 AM
! C:\USERS\SPARKY\DOCUMENTS\VNA_DATA\FEB19_2026\WARM2\SHORT.S2P
! CHANNEL.1
! TR.MEASUREMENT
! RAW.DATA
# GHZ S RI R 50.0
! FREQ.GHZ         S11RE         S11IM         S21RE         S21IM         S12RE         S12IM         S22RE         S22IM         
!; PortSelection: Port_12
   0.001000000     1.0469400   -0.0661461     0.0000000    0.0000041    -0.0000003   -0.0000025     0.8066441   -0.5550685 
   0.002999900     0.9657573   -0.1885481    -0.0000044    0.0000050     0.0000014   -0.0000042     0.1666160   -0.8575042 
   0.004999800     0.9056416   -0.2933060    -0.0000008   -0.0000027     0.0000011   -0.0000044    -0.3649153   -0.7587536 
   0.006999700     0.8361438   -0.3933200    -0.0000012   -0.0000026    -0.0000012   -0.0000008    -0.6814085   -0.5178694 
   0.008999600     0.7537414   -0.4901660    -0.0000011    0.0000014    -0.0000035    0.0000001    -0.8453701   -0.2453509 
   0.010999500     0.6527588   -0.5834411     0.0000008    0.0000019    -0.0000043   -0.0000002    -0.8999874    0.0187213 
   0.012999400     0.5238650   -0.6690257    -0.0000017    0.0000010     0.0000005   -0.0000032    -0.8762565    0.2574007 
   0.014999300     0.3567143   -0.7351519    -0.0000011   -0.0000016     0.0000000    0.0000025    -0.7945966    0.4619437 
   0.016999200     0.1379956   -0.7568483     0.0000042    0.0000019     0.0000005   -0.0000004    -0.6704388    0.6287631 
   0.018999100    -0.1320322   -0.6837287    -0.0000004   -0.0000013    -0.0000027   -0.0000003    -0.5168762    0.7564168 
   0.020999000    -0.3998622   -0.4370364    -0.0000012    0.0000047    -0.0000020   -0.0000003    -0.3435908    0.8437353 
   0.022998900    -0.4967059    0.0093718    -0.0000008   -0.0000039    -0.0000011    0.0000014    -0.1590039    0.8914407 
   0.024998800    -0.2554163    0.4335695    -0.0000002    0.0000006     0.0000023    0.0000002     0.0199638    0.9746175 
   0.026998700     0.1867216    0.6152682     0.0000015    0.0000014    -0.0000012   -0.0000009     0.2145788    0.8727057 
   0.028998600     0.5551282    0.5176890    -0.0000007   -0.0000005    -0.0000015   -0.0000012     0.3901511    0.8088249 
   0.030998500     0.7726098    0.3192994     0.0000017   -0.0000001    -0.0000001   -0.0000013     0.5504876    0.7107694 
   0.032998400     0.8428326    0.1262898     0.0000018   -0.0000012    -0.0000029   -0.0000025     0.7363244    0.6428775 
   0.034998300     0.9068261   -0.0712931     0.0000027   -0.0000014     0.0000006   -0.0000008     0.7978197    0.4270706 
   0.036998200     0.8952559   -0.2268241     0.0000045   -0.0000031     0.0000019    0.0000000     0.8735280    0.2503527 
   0.038998100     0.8619053   -0.3573106     0.0000006   -0.0000009     0.0000008    0.0000017     0.9097708    0.0590665 
   0.040998000     0.8119120   -0.4715944     0.0000026    0.0000014    -0.0000016    0.0000018     0.9037617   -0.1370495 
   0.042997900     0.7475440   -0.5690530    -0.0000002   -0.0000002     0.0000022    0.0000005     0.8542157   -0.3286716 
   0.044997800     0.6616239   -0.6171395    -0.0000006   -0.0000013     0.0000007   -0.0000026     0.8327839   -0.5297364 
   0.046997700     0.5915492   -0.7192751    -0.0000010   -0.0000011     0.0000006   -0.0000018     0.6345959   -0.6580038 
   0.048997600     0.5037968   -0.7747572    -0.0000005   -0.0000002    -0.0000004   -0.0000006     0.4764496   -0.7778605 
   0.050997500     0.4130472   -0.8176617     0.0000018   -0.0000089    -0.0000045    0.0000024     0.2972896   -0.8597114 
   0.052997400     0.3149205   -0.8509682    -0.0000053    0.0000051    -0.0000017    0.0000014     0.1055319   -0.9014964 
   0.054997300     0.2146058   -0.8721638     0.0000034   -0.0000072    -0.0000011    0.0000030    -0.0863377   -0.9016120 
   0.056997200     0.1106169   -0.8809578     0.0000009   -0.0000019    -0.0000014   -0.0000015    -0.2718791   -0.8624001 
   0.058997100     0.0037552   -0.8775824    -0.0000013   -0.0000024    -0.0000014   -0.0000034    -0.4427647   -0.7874931 
   0.060997000    -0.1050192   -0.8598982     0.0000013   -0.0000007     0.0000003    0.0000007    -0.5924847   -0.6809132 
   0.062996900    -0.2153494   -0.8266539     0.0000005   -0.0000005    -0.0000011   -0.0000012    -0.7155448   -0.5491040 
   0.064996800    -0.3249434   -0.7759038    -0.0000043    0.0000002    -0.0000004   -0.0000006    -0.8087239   -0.3983219 
   0.066996700    -0.4314911   -0.7059464    -0.0000012   -0.0000007     0.0000004    0.0000016    -0.8697036   -0.2350640 
   0.068996600    -0.5320430   -0.6143798    -0.0000015   -0.0000012    -0.0000026    0.0000009    -0.8972983   -0.0662412 
   0.070996500    -0.6216987   -0.5000175    -0.0000003   -0.0000023    -0.0000016   -0.0000014    -0.8927534    0.1022246 
   0.072996400    -0.6930589   -0.3612610    -0.0000009    0.0000017    -0.0000020    0.0000008    -0.8579231    0.2642671 
   0.074996300    -0.7387732   -0.1995755    -0.0000004   -0.0000034     0.0000025    0.0000005    -0.7944946    0.4149005 
   0.076996200    -0.7497609   -0.0190731    -0.0000005   -0.0000002     0.0000008   -0.0000002    -0.7057654    0.5498031 
   0.078996100    -0.7169648    0.1719661    -0.0000009   -0.0000003     0.0000028   -0.0000033    -0.5955747    0.6659417 
   0.080996000    -0.6326783    0.3611554     0.0000000    0.0000019    -0.0000013   -0.0000011    -0.4678738    0.7598081 
   0.082995900    -0.4947499    0.5306132     0.0000003   -0.0000002    -0.0000017    0.0000005    -0.3263880    0.8291127 
   0.084995800    -0.3088614    0.6598287    -0.0000016   -0.0000002     0.0000022    0.0000002    -0.1759792    0.8723333 
   0.086995700    -0.0892118    0.7339897    -0.0000025   -0.0000002     0.0000024   -0.0000023    -0.0200219    0.8885547 
   0.088995600     0.1432216    0.7421081     0.0000024    0.0000000     0.0000008    0.0000016     0.1357796    0.8774567 
   0.090995500     0.3650718    0.6847039     0.0000006    0.0000006     0.0000010   -0.0000009     0.2872813    0.8388141 
   0.092995400     0.5562374    0.5711572    -0.0000005   -0.0000017     0.0000010    0.0000008     0.4295679    0.7739635 
   0.094995300     0.7020052    0.4179561     0.0000001   -0.0000020     0.0000040   -0.0000008     0.5591390    0.6840598 
   0.096995200     0.7977972    0.2426672    -0.0000010    0.0000003    -0.0000004   -0.0000025     0.6708705    0.5726699 
   0.098995100     0.8456900    0.0615486     0.0000003    0.0000006     0.0000003   -0.0000040     0.7610240    0.4422460 
   0.100995000     0.8512718   -0.1152990    -0.0000014   -0.0000003     0.0000004   -0.0000019     0.8268351    0.2965784 
   0.102994900     0.8205510   -0.2762449     0.0000012   -0.0000010     0.0000006   -0.0000016     0.8647345    0.1407788 
   0.104994800     0.7626595   -0.4191487     0.0000002   -0.0000003     0.0000001   -0.0000012     0.8736655   -0.0203271 
   0.106994700     0.6832033   -0.5410251     0.0000008   -0.0000015    -0.0000007   -0.0000017     0.8524344   -0.1812746 
   0.108994600     0.5895296   -0.6425787    -0.0000014   -0.0000015    -0.0000009   -0.0000017     0.8013713   -0.3362873 
   0.110994500     0.4847596   -0.7231172    -0.0000007   -0.0000018    -0.0000010   -0.0000015     0.7217842   -0.4800962 
   0.112994400     0.3724801   -0.7843347     0.0000002   -0.0000011    -0.0000002   -0.0000025     0.6160037   -0.6069819 
   0.114994300     0.2556844   -0.8257220    -0.0000026    0.0000003    -0.0000004   -0.0000006     0.4876763   -0.7119908 
   0.116994200     0.1363207   -0.8484095    -0.0000011   -0.0000002    -0.0000023   -0.0000011     0.3410105   -0.7906685 
   0.118994100     0.0168110   -0.8530629    -0.0000004    0.0000002    -0.0000012   -0.0000010     0.1815183   -0.8399133 
   0.120994000    -0.1009606   -0.8413560     0.0000000    0.0000004    -0.0000013   -0.0000020     0.0152928   -0.8574683 
   0.122993900    -0.2166841   -0.8113931     0.0000006    0.0000015    -0.0000026   -0.0000002    -0.1511953   -0.8431129 
   0.124993800    -0.3267167   -0.7647505     0.0000007   -0.0000005    -0.0000003   -0.0000023    -0.3116919   -0.7966565 
   0.126993700    -0.4308341   -0.7012173    -0.0000012   -0.0000004    -0.0000013   -0.0000005    -0.4594923   -0.7204494 
   0.128993600    -0.5250831   -0.6203234    -0.0000006    0.0000009    -0.0000012    0.0000001    -0.5898169   -0.6177078 
   0.130993500    -0.6083983   -0.5241787    -0.0000004    0.0000010    -0.0000005   -0.0000004    -0.6975033   -0.4923656 
   0.132993400    -0.6777127   -0.4129201    -0.0000004   -0.0000004    -0.0000004    0.0000011    -0.7789291   -0.3493958 
   0.134993300    -0.7290714   -0.2875087    -0.0000017    0.0000021    -0.0000019    0.0000010    -0.8313799   -0.1948831 
   0.136993200    -0.7597473   -0.1497929    -0.0000003   -0.0000020    -0.0000012    0.0000007    -0.8537619   -0.0341500 
   0.138993100    -0.7656363   -0.0027412     0.0000009   -0.0000021    -0.0000016    0.0000007    -0.8455135    0.1270178 
   0.140993000    -0.7435086    0.1489370     0.0000006   -0.0000002    -0.0000002    0.0000005    -0.8075843    0.2826121 
   0.142992900    -0.6898419    0.2997620    -0.0000003    0.0000012     0.0000006    0.0000010    -0.7422594    0.4276181 
   0.144992800    -0.6041327    0.4433839    -0.0000010   -0.0000001     0.0000009    0.0000010    -0.6515952    0.5565208 
   0.146992700    -0.4844768    0.5699866     0.0000000   -0.0000005     0.0000007    0.0000006    -0.5397289    0.6666862 
   0.148992600    -0.3349156    0.6704762     0.0000002   -0.0000003     0.0000012    0.0000013    -0.4104795    0.7542756 
   0.150992500    -0.1611425    0.7349691    -0.0000013   -0.0000010     0.0000028   -0.0000007    -0.2686326    0.8173827 
   0.152992400     0.0268297    0.7590914    -0.0000004   -0.0000016     0.0000002   -0.0000011    -0.1181042    0.8528546 
   0.154992300     0.2169736    0.7377153    -0.0000010    0.0000006     0.0000034   -0.0000002     0.0360318    0.8608223 
   0.156992200     0.3970894    0.6711633    -0.0000004   -0.0000016     0.0000022   -0.0000009     0.1886107    0.8413126 
   0.158992100     0.5553975    0.5642422    -0.0000003   -0.0000014     0.0000020   -0.0000035     0.3350246    0.7948408 
   0.160992000     0.6818300    0.4250055     0.0000017   -0.0000011     0.0000027   -0.0000030     0.4705766    0.7227297 
   0.162991900     0.7702083    0.2641855    -0.0000005   -0.0000020     0.0000037   -0.0000029     0.5912374    0.6276537 
   0.164991800     0.8188668    0.0923384    -0.0000010    0.0000000     0.0000005   -0.0000035     0.6931478    0.5123916 
   0.166991700     0.8278751   -0.0798640    -0.0000012   -0.0000015     0.0000008   -0.0000024     0.7728087    0.3804491 
   0.168991600     0.8013648   -0.2435332    -0.0000020   -0.0000011     0.0000003   -0.0000057     0.8272343    0.2360779 
   0.170991500     0.7436835   -0.3930296    -0.0000030   -0.0000024    -0.0000004   -0.0000061     0.8549060    0.0836031 
   0.172991400     0.6615112   -0.5228291    -0.0000021    0.0000000     0.0000004   -0.0000046     0.8541396   -0.0717829 
   0.174991300     0.5602861   -0.6303355    -0.0000038    0.0000004    -0.0000026   -0.0000064     0.8253018   -0.2248925 
   0.176991200     0.4444440   -0.7148471    -0.0000037    0.0000003    -0.0000042   -0.0000049     0.7685525   -0.3703538 
   0.178991100     0.3192948   -0.7756417    -0.0000015   -0.0000002    -0.0000042   -0.0000034     0.6856501   -0.5037031 
   0.180991000     0.1895426   -0.8139705    -0.0000054    0.0000024    -0.0000042   -0.0000009     0.5790656   -0.6194671 
   0.182990900     0.0580461   -0.8280100    -0.0000036    0.0000018    -0.0000056    0.0000004     0.4525129   -0.7137120 
   0.184990800    -0.0721770   -0.8205001    -0.0000030    0.0000045    -0.0000043    0.0000012     0.3101729   -0.7829310 
   0.186990700    -0.1981966   -0.7920678    -0.0000022    0.0000040    -0.0000010    0.0000025     0.1571582   -0.8241906 
   0.188990600    -0.2957064   -0.7521448     0.0000005    0.0000027     0.0000002    0.0000005     0.0216577   -0.8357413 
   0.190990500    -0.4226149   -0.6786594     0.0000034    0.0000030     0.0000018   -0.0000009    -0.1554914   -0.8183262 
   0.192990400    -0.5224937   -0.5931907     0.0000028    0.0000003     0.0000012   -0.0000022    -0.3097342   -0.7700275 
   0.194990300    -0.6054855   -0.4938679     0.0000011   -0.0000003    -0.0000007   -0.0000009    -0.4488545   -0.6948843 
   0.196990200    -0.6715488   -0.3810839     0.0000004    0.0000002    -0.0000003   -0.0000016    -0.5710175   -0.5951227 
   0.198990100    -0.7183529   -0.2571318     0.0000006    0.0000000    -0.0000001   -0.0000012    -0.6718031   -0.4744994 
   0.200990000    -0.7438672   -0.1237746     0.0000011    0.0000007     0.0000011   -0.0000003    -0.7477225   -0.3377811 
   0.202989900    -0.7461077    0.0153994     0.0000010   -0.0000007     0.0000002    0.0000005    -0.7968213   -0.1902895 
   0.204989800    -0.7226349    0.1562121     0.0000001   -0.0000009     0.0000001   -0.0000010    -0.8173397   -0.0371606 
   0.206989700    -0.6737778    0.2938027     0.0000003   -0.0000017     0.0000011   -0.0000001    -0.8091906    0.1164087 
   0.208989600    -0.5963804    0.4229349     0.0000003   -0.0000016     0.0000017   -0.0000008    -0.7733678    0.2648214 
   0.210989500    -0.4927061    0.5378057    -0.0000002   -0.0000026     0.0000012   -0.0000016    -0.7114014    0.4033105 
   0.212989400    -0.3644844    0.6327886     0.0000002   -0.0000028     0.0000008   -0.0000014    -0.6259645    0.5273660 
   0.214989300    -0.2162175    0.7005078    -0.0000010   -0.0000007     0.0000008   -0.0000029    -0.5201120    0.6334442 
   0.216989200    -0.0545863    0.7363724    -0.0000013   -0.0000018     0.0000031   -0.0000021    -0.3977467    0.7185004 
   0.218989100     0.1137822    0.7375478    -0.0000009   -0.0000026     0.0000018   -0.0000036    -0.2627335    0.7799109 
   0.220989000     0.2800241    0.7018221    -0.0000013   -0.0000004     0.0000008   -0.0000037    -0.1199440    0.8160831 
   0.222988900     0.4357826    0.6305411    -0.0000024   -0.0000006     0.0000032   -0.0000030     0.0268948    0.8264087 
   0.224988800     0.5723389    0.5272338    -0.0000027   -0.0000013     0.0000015   -0.0000046     0.1726459    0.8110939 
   0.226988700     0.6824096    0.3981219    -0.0000017   -0.0000002     0.0000000   -0.0000057     0.3133304    0.7704160 
   0.228988600     0.7610537    0.2504306    -0.0000023    0.0000007     0.0000002   -0.0000058     0.4442494    0.7058091 
   0.230988500     0.8064277    0.0922025    -0.0000020    0.0000012    -0.0000004   -0.0000059     0.5619782    0.6190785 
   0.232988400     0.8167788   -0.0685580    -0.0000008    0.0000015    -0.0000015   -0.0000057     0.6627589    0.5130029 
   0.234988300     0.7960328   -0.2245199     0.0000000    0.0000023    -0.0000011   -0.0000056     0.7434766    0.3909234 
   0.236988200     0.7464723   -0.3697255    -0.0000012    0.0000007    -0.0000001   -0.0000056     0.8017956    0.2561311 
   0.238988100     0.6721221   -0.4988713    -0.0000018   -0.0000002    -0.0000035   -0.0000069     0.8354928    0.1124792 
   0.240988000     0.5773307   -0.6086822    -0.0000002   -0.0000002    -0.0000030   -0.0000037     0.8432338   -0.0353245 
   0.242987900     0.4675538   -0.6971577    -0.0000015    0.0000011    -0.0000049   -0.0000051     0.8246396   -0.1828700 
   0.244987800     0.3467068   -0.7633591    -0.0000008    0.0000006    -0.0000043   -0.0000042     0.7795895   -0.3251418 
   0.246987700     0.2191590   -0.8067846     0.0000000    0.0000000    -0.0000042   -0.0000053     0.7092901   -0.4581034 
   0.248987600     0.0884883   -0.8275553     0.0000000   -0.0000004    -0.0000029   -0.0000026     0.6155180   -0.5766094 
   0.250987500    -0.0423784   -0.8260831     0.0000003   -0.0000007    -0.0000027   -0.0000002     0.5011454   -0.6767679 
   0.252987400    -0.1692806   -0.8034099     0.0000003    0.0000015    -0.0000035   -0.0000021     0.3696370   -0.7545605 
   0.254987300    -0.2893929   -0.7605782     0.0000016   -0.0000013    -0.0000014   -0.0000004     0.2253045   -0.8069240 
   0.256987200    -0.3998760   -0.6994146    -0.0000001   -0.0000003    -0.0000001   -0.0000007     0.0733320   -0.8318765 
   0.258987100    -0.5001444   -0.6218717     0.0000013   -0.0000003     0.0000012   -0.0000006    -0.0811567   -0.8280542 
   0.260987000    -0.5861235   -0.5276998     0.0000002   -0.0000010     0.0000028   -0.0000005    -0.2328298   -0.7950298 
   0.262986900    -0.6563568   -0.4196492    -0.0000003   -0.0000011     0.0000054   -0.0000019    -0.3755088   -0.7339374 
   0.264986800    -0.7081125   -0.2995563    -0.0000019   -0.0000016     0.0000060   -0.0000034    -0.5044156   -0.6473657 
   0.266986700    -0.7389392   -0.1703133    -0.0000012   -0.0000020     0.0000064   -0.0000070    -0.6144075   -0.5380158 
   0.268986600    -0.7469213   -0.0354733    -0.0000023   -0.0000017     0.0000052   -0.0000095    -0.7017062   -0.4101200 
   0.270986500    -0.7310874    0.1013307    -0.0000031   -0.0000027     0.0000029   -0.0000127    -0.7630510   -0.2682998 
   0.272986400    -0.6894876    0.2358358    -0.0000042   -0.0000016    -0.0000023   -0.0000135    -0.7966760   -0.1181447 
   0.274986300    -0.6215472    0.3637249    -0.0000035   -0.0000016    -0.0000053   -0.0000106    -0.8013986    0.0350971 
   0.276986200    -0.5281966    0.4792593    -0.0000046    0.0000005    -0.0000075   -0.0000093    -0.7769634    0.1851858 
   0.278986100    -0.4102793    0.5767352    -0.0000047    0.0000010    -0.0000069   -0.0000056    -0.7258858    0.3277708 
   0.280986000    -0.2712598    0.6497267    -0.0000053    0.0000003    -0.0000060   -0.0000037    -0.6496605    0.4575392 
   0.282985900    -0.1162958    0.6931006    -0.0000013    0.0000038    -0.0000031   -0.0000018    -0.5515010    0.5701786 
   0.284985800     0.0472495    0.7022710    -0.0000055    0.0000026    -0.0000032   -0.0000005    -0.4351950    0.6623825 
   0.286985700     0.2114272    0.6749574    -0.0000021    0.0000030    -0.0000009   -0.0000020    -0.3048574    0.7313266 
   0.288985600     0.3662250    0.6115832    -0.0000017    0.0000015     0.0000002   -0.0000017    -0.1650044    0.7752971 
   0.290985500     0.5030231    0.5151883    -0.0000003    0.0000020     0.0000022   -0.0000030    -0.0202272    0.7931597 
   0.292985400     0.6147128    0.3909497    -0.0000006    0.0000034     0.0000015   -0.0000047     0.1248033    0.7847661 
   0.294985300     0.6950931    0.2464998     0.0000008    0.0000032     0.0000018   -0.0000058     0.2653264    0.7508243 
   0.296985200     0.7412022    0.0895047     0.0000014    0.0000014     0.0000009   -0.0000069     0.3971719    0.6923878 
   0.298985100     0.7515830   -0.0709697     0.0000016    0.0000013    -0.0000004   -0.0000083     0.5161408    0.6116441 
   0.300985000     0.7282963   -0.2263805     0.0000010    0.0000008     0.0000010   -0.0000093     0.6188367    0.5111682 
   0.302984900     0.6746359   -0.3696381     0.0000014    0.0000000    -0.0000036   -0.0000095     0.7018489    0.3944407 
   0.304984800     0.5954126   -0.4948057     0.0000011    0.0000002    -0.0000038   -0.0000102     0.7629551    0.2646196 
   0.306984700     0.4964269   -0.5986116     0.0000000   -0.0000008    -0.0000054   -0.0000093     0.8002004    0.1256204 
   0.308984600     0.3838429   -0.6787606    -0.0000006   -0.0000019    -0.0000079   -0.0000084     0.8119237   -0.0180869 
   0.310984500     0.2629634   -0.7351226     0.0000010    0.0000005    -0.0000083   -0.0000072     0.7979552   -0.1619383 
   0.312984400     0.1382121   -0.7679779    -0.0000012   -0.0000015    -0.0000103   -0.0000043     0.7581507   -0.3016017 
   0.314984300     0.0133059   -0.7786710    -0.0000011   -0.0000012    -0.0000102   -0.0000028     0.6938332   -0.4324019 
