! MS46122B
! 2250307/22442219
! 2/13/2026 1:45:19 PM
! C:\USERS\SPARKY\DOCUMENTS\VNA_DATA\FEB13_2026\LOAD_300K.S2P
! CHANNEL.1
! TR.MEASUREMENT
! RAW.DATA
# GHZ S RI R 50.0
! FREQ.GHZ         S11RE         S11IM         S21RE         S21IM         S12RE         S12IM         S22RE         S22IM         
!; PortSelection: Port_12
   0.001000000     1.0467440   -0.0679751    -0.0000026    0.0000017     0.0000024   -0.0000028     0.8104374   -0.5578312 
   0.002999900     0.9561030   -0.1919147     0.0000024    0.0000005    -0.0000038   -0.0000029     0.0573795   -0.8131881 
   0.004999800     0.8756333   -0.2840857     0.0000008   -0.0000006    -0.0000040   -0.0000002    -0.4371079   -0.4519988 
   0.006999700     0.7886874   -0.3501268    -0.0000001    0.0000008    -0.0000013   -0.0000049    -0.4780220   -0.0970014 
   0.008999600     0.7056254   -0.3947865     0.0000025   -0.0000005    -0.0000017    0.0000020    -0.3834797    0.0790198 
   0.010999500     0.6300662   -0.4228214    -0.0000004    0.0000023    -0.0000010   -0.0000019    -0.2877097    0.1491528 
   0.012999400     0.5645303   -0.4388727     0.0000007    0.0000006    -0.0000032   -0.0000024    -0.2133334    0.1709913 
   0.014999300     0.5080625   -0.4462982    -0.0000018    0.0000011    -0.0000022   -0.0000015    -0.1583723    0.1715035 
   0.016999200     0.4600616   -0.4478740     0.0000005   -0.0000022    -0.0000014    0.0000011    -0.1175161    0.1628564 
   0.018999100     0.4196059   -0.4458859    -0.0000005    0.0000009    -0.0000005    0.0000012    -0.0865307    0.1504496 
   0.020999000     0.3856660   -0.4412132     0.0000019    0.0000030     0.0000003    0.0000016    -0.0625552    0.1368678 
   0.022998900     0.3566854   -0.4349471    -0.0000004   -0.0000018    -0.0000004   -0.0000014    -0.0437555    0.1234385 
   0.024998800     0.3263863   -0.4068909    -0.0000001   -0.0000005     0.0000003   -0.0000014    -0.0293866    0.1211399 
   0.026998700     0.3095643   -0.4204928     0.0000007   -0.0000032    -0.0000037   -0.0000023    -0.0174495    0.0989982 
   0.028998600     0.2898681   -0.4125371     0.0000003   -0.0000009    -0.0000009   -0.0000007    -0.0083954    0.0884743 
   0.030998500     0.2718788   -0.4045001    -0.0000012   -0.0000001    -0.0000009   -0.0000035    -0.0014331    0.0790477 
   0.032998400     0.2515498   -0.3788397     0.0000011   -0.0000006    -0.0000018   -0.0000015     0.0059661    0.0792745 
   0.034998300     0.2387206   -0.3886571     0.0000007    0.0000003    -0.0000024   -0.0000032     0.0072714    0.0632856 
   0.036998200     0.2231807   -0.3809815    -0.0000026    0.0000010    -0.0000001   -0.0000041     0.0096631    0.0568277 
   0.038998100     0.2084849   -0.3723981    -0.0000015   -0.0000019    -0.0000044   -0.0000015     0.0110099    0.0512143 
   0.040998000     0.1954733   -0.3641536    -0.0000032   -0.0000003     0.0000005    0.0000019     0.0114473    0.0463803 
   0.042997900     0.1832238   -0.3565163    -0.0000016    0.0000017    -0.0000020   -0.0000035     0.0112028    0.0422149 
   0.044997800     0.1699069   -0.3347958    -0.0000001    0.0000004    -0.0000008   -0.0000028     0.0135418    0.0453684 
   0.046997700     0.1587317   -0.3425004     0.0000005    0.0000015    -0.0000024    0.0000012     0.0094106    0.0355460 
   0.048997600     0.1477512   -0.3356320    -0.0000009   -0.0000032     0.0000009    0.0000007     0.0077932    0.0330607 
   0.050997500     0.1372927   -0.3289409    -0.0000016   -0.0000005     0.0000006   -0.0000014     0.0059447    0.0310183 
   0.052997400     0.1275107   -0.3223486    -0.0000028   -0.0000033    -0.0000002    0.0000035     0.0039373    0.0293590 
   0.054997300     0.1182136   -0.3160293    -0.0000004   -0.0000073    -0.0000019   -0.0000067     0.0020087    0.0278904 
   0.056997200     0.1091070   -0.3102550     0.0000001    0.0000013    -0.0000011    0.0000019    -0.0001666    0.0268787 
   0.058997100     0.1006812   -0.3044838    -0.0000050    0.0000030     0.0000004    0.0000023    -0.0021329    0.0260132 
   0.060997000     0.0925750   -0.2990013     0.0000013   -0.0000005     0.0000005   -0.0000012    -0.0040083    0.0253395 
   0.062996900     0.0848249   -0.2937067     0.0000020   -0.0000013     0.0000013   -0.0000006    -0.0057547    0.0248870 
   0.064996800     0.0776165   -0.2884983     0.0000007   -0.0000019     0.0000019   -0.0000010    -0.0074154    0.0247058 
   0.066996700     0.0707151   -0.2833529     0.0000039   -0.0000012     0.0000014   -0.0000002    -0.0088977    0.0247096 
   0.068996600     0.0640862   -0.2782214     0.0000029    0.0000004     0.0000025    0.0000003    -0.0102722    0.0249995 
   0.070996500     0.0578310   -0.2733575    -0.0000003   -0.0000018    -0.0000006   -0.0000029    -0.0114721    0.0254815 
   0.072996400     0.0517365   -0.2681224     0.0000014   -0.0000027     0.0000021   -0.0000011    -0.0124887    0.0262034 
   0.074996300     0.0458951   -0.2627264    -0.0000021   -0.0000020    -0.0000005   -0.0000029    -0.0132513    0.0272076 
   0.076996200     0.0403244   -0.2571626     0.0000006   -0.0000031     0.0000024   -0.0000012    -0.0138193    0.0283979 
   0.078996100     0.0350397   -0.2514296     0.0000004   -0.0000022    -0.0000007   -0.0000029    -0.0141397    0.0298101 
   0.080996000     0.0299931   -0.2455529    -0.0000027   -0.0000007    -0.0000018   -0.0000047    -0.0141583    0.0314002 
   0.082995900     0.0252061   -0.2394596    -0.0000016   -0.0000018    -0.0000028   -0.0000012    -0.0139069    0.0331429 
   0.084995800     0.0206879   -0.2328423    -0.0000044   -0.0000026    -0.0000032   -0.0000027    -0.0134331    0.0350335 
   0.086995700     0.0167837   -0.2263826    -0.0000037   -0.0000004    -0.0000009   -0.0000023    -0.0126642    0.0369520 
   0.088995600     0.0134069   -0.2198748    -0.0000025   -0.0000006    -0.0000046   -0.0000004    -0.0116251    0.0388809 
   0.090995500     0.0104788   -0.2132853    -0.0000044    0.0000055    -0.0000039   -0.0000001    -0.0102174    0.0407376 
   0.092995400     0.0081111   -0.2069398    -0.0000005    0.0000008    -0.0000017    0.0000020    -0.0086292    0.0425091 
   0.094995300     0.0062998   -0.2004075    -0.0000019    0.0000039     0.0000012    0.0000006    -0.0066301    0.0441571 
   0.096995200     0.0049229   -0.1939258    -0.0000008    0.0000027    -0.0000020    0.0000003    -0.0043201    0.0455376 
   0.098995100     0.0040542   -0.1877136     0.0000009    0.0000038    -0.0000011    0.0000012    -0.0017480    0.0466967 
   0.100995000     0.0025719   -0.1830844     0.0000034    0.0000040     0.0000012    0.0000033     0.0020605    0.0472952 
   0.102994900     0.0027332   -0.1776969     0.0000025   -0.0000002     0.0000021   -0.0000018     0.0050357    0.0477683 
   0.104994800     0.0034103   -0.1727921     0.0000011   -0.0000005     0.0000015   -0.0000024     0.0081277    0.0477842 
   0.106994700     0.0044126   -0.1682914     0.0000009   -0.0000021     0.0000015   -0.0000005     0.0112329    0.0474193 
   0.108994600     0.0056965   -0.1644554     0.0000020   -0.0000013     0.0000005   -0.0000038     0.0143405    0.0465892 
   0.110994500     0.0071692   -0.1612207     0.0000010   -0.0000008     0.0000016   -0.0000017     0.0173832    0.0453222 
   0.112994400     0.0087204   -0.1586083     0.0000000   -0.0000015    -0.0000012   -0.0000029     0.0202882    0.0436534 
   0.114994300     0.0102436   -0.1566214    -0.0000012   -0.0000014     0.0000002   -0.0000021     0.0229017    0.0416127 
   0.116994200     0.0116610   -0.1551908     0.0000004   -0.0000023    -0.0000005   -0.0000024     0.0253244    0.0391909 
   0.118994100     0.0128723   -0.1543051    -0.0000011   -0.0000008    -0.0000001   -0.0000026     0.0273382    0.0364697 
   0.120994000     0.0140191   -0.1537098    -0.0000011   -0.0000019    -0.0000002   -0.0000024     0.0289663    0.0335098 
   0.122993900     0.0145049   -0.1537353    -0.0000025   -0.0000010    -0.0000008   -0.0000026     0.0301532    0.0303656 
   0.124993800     0.0145774   -0.1540954     0.0000005    0.0000010    -0.0000023   -0.0000027     0.0308690    0.0271108 
   0.126993700     0.0142011   -0.1546370    -0.0000010   -0.0000008    -0.0000014   -0.0000017     0.0309924    0.0238420 
   0.128993600     0.0131570   -0.1551490    -0.0000016   -0.0000018    -0.0000026   -0.0000027     0.0307651    0.0206521 
   0.130993500     0.0117030   -0.1557690    -0.0000018    0.0000007    -0.0000022   -0.0000004     0.0300329    0.0175638 
   0.132993400     0.0097431   -0.1563035    -0.0000032   -0.0000011    -0.0000006   -0.0000018     0.0288683    0.0147112 
   0.134993300     0.0072152   -0.1565800    -0.0000020    0.0000001    -0.0000016    0.0000000     0.0272776    0.0121131 
   0.136993200     0.0042731   -0.1565607    -0.0000017    0.0000001    -0.0000027   -0.0000011     0.0253398    0.0098781 
   0.138993100     0.0009766   -0.1561827    -0.0000019    0.0000007    -0.0000020   -0.0000022     0.0231206    0.0080532 
   0.140993000    -0.0025431   -0.1553802    -0.0000014    0.0000003    -0.0000021   -0.0000016     0.0206951    0.0067032 
   0.142992900    -0.0063181   -0.1540902     0.0000004   -0.0000009    -0.0000028   -0.0000018     0.0180904    0.0058175 
   0.144992800    -0.0101067   -0.1523899    -0.0000010   -0.0000003    -0.0000019   -0.0000012     0.0154157    0.0053791 
   0.146992700    -0.0139630   -0.1499088     0.0000004    0.0000007    -0.0000011   -0.0000018     0.0128282    0.0054917 
   0.148992600    -0.0176955   -0.1468351     0.0000006   -0.0000005    -0.0000012   -0.0000012     0.0103465    0.0060648 
   0.150992500    -0.0210667   -0.1431953    -0.0000009   -0.0000006    -0.0000022   -0.0000037     0.0080249    0.0071566 
   0.152992400    -0.0241922   -0.1392207    -0.0000012    0.0000021    -0.0000006   -0.0000007     0.0060601    0.0085858 
   0.154992300    -0.0268677   -0.1348182     0.0000010    0.0000020    -0.0000004   -0.0000006     0.0044175    0.0103891 
   0.156992200    -0.0290850   -0.1300607     0.0000000   -0.0000003    -0.0000005   -0.0000010     0.0031832    0.0124276 
   0.158992100    -0.0307244   -0.1250395     0.0000006   -0.0000010    -0.0000003   -0.0000011     0.0023922    0.0146776 
   0.160992000    -0.0317712   -0.1198477     0.0000001    0.0000001    -0.0000021   -0.0000010     0.0020756    0.0170196 
   0.162991900    -0.0321882   -0.1145761     0.0000005    0.0000009    -0.0000006   -0.0000027     0.0022283    0.0194000 
   0.164991800    -0.0320036   -0.1093393    -0.0000006   -0.0000007    -0.0000029   -0.0000024     0.0028477    0.0216961 
   0.166991700    -0.0311030   -0.1042764    -0.0000010   -0.0000005    -0.0000024   -0.0000026     0.0039290    0.0238562 
   0.168991600    -0.0296370   -0.0995000    -0.0000001   -0.0000007    -0.0000006   -0.0000015     0.0054326    0.0257802 
   0.170991500    -0.0276272   -0.0950360    -0.0000012   -0.0000014    -0.0000021   -0.0000010     0.0072872    0.0274087 
   0.172991400    -0.0251344   -0.0910201    -0.0000002   -0.0000006    -0.0000005   -0.0000025     0.0094085    0.0286667 
   0.174991300    -0.0222370   -0.0875239    -0.0000008   -0.0000004    -0.0000021   -0.0000027     0.0117795    0.0295108 
   0.176991200    -0.0190613   -0.0845778    -0.0000003   -0.0000017    -0.0000010   -0.0000031     0.0142817    0.0299009 
   0.178991100    -0.0156595   -0.0822363     0.0000003   -0.0000024    -0.0000021   -0.0000025     0.0168250    0.0298384 
   0.180991000    -0.0121777   -0.0805051    -0.0000018   -0.0000014    -0.0000034   -0.0000027     0.0193518    0.0292816 
   0.182990900    -0.0087180   -0.0793701    -0.0000027    0.0000004    -0.0000013   -0.0000038     0.0217268    0.0283201 
   0.184990800    -0.0053426   -0.0788052    -0.0000015   -0.0000014    -0.0000016   -0.0000020     0.0240086    0.0269659 
   0.186990700    -0.0021820   -0.0787719    -0.0000013   -0.0000004    -0.0000015   -0.0000004     0.0259112    0.0252352 
   0.188990600     0.0023807   -0.0790474    -0.0000012    0.0000000    -0.0000012   -0.0000026     0.0263528    0.0240131 
   0.190990500     0.0034648   -0.0800235    -0.0000019    0.0000002    -0.0000011   -0.0000018     0.0285713    0.0210857 
   0.192990400     0.0053060   -0.0812066    -0.0000010    0.0000008    -0.0000021   -0.0000048     0.0294559    0.0186283 
   0.194990300     0.0069643   -0.0825724    -0.0000003    0.0000001    -0.0000028   -0.0000030     0.0297086    0.0162364 
   0.196990200     0.0081869   -0.0840634    -0.0000013    0.0000008    -0.0000044   -0.0000019     0.0295249    0.0138532 
   0.198990100     0.0089667   -0.0855931    -0.0000025    0.0000004    -0.0000033   -0.0000026     0.0288805    0.0116032 
   0.200990000     0.0093011   -0.0870743    -0.0000022   -0.0000001    -0.0000041   -0.0000019     0.0278423    0.0095936 
   0.202989900     0.0092334   -0.0884214    -0.0000020    0.0000015    -0.0000039   -0.0000017     0.0264308    0.0078753 
   0.204989800     0.0088885   -0.0895510    -0.0000004    0.0000025    -0.0000032   -0.0000002     0.0247330    0.0065079 
   0.206989700     0.0083077   -0.0905153    -0.0000007    0.0000025    -0.0000014   -0.0000007     0.0228304    0.0055697 
   0.208989600     0.0075614   -0.0911091     0.0000020    0.0000030    -0.0000015   -0.0000018     0.0208063    0.0050699 
   0.210989500     0.0067611   -0.0914083     0.0000001    0.0000012    -0.0000004   -0.0000014     0.0187589    0.0050820 
   0.212989400     0.0059002   -0.0913944     0.0000025   -0.0000004    -0.0000002   -0.0000027     0.0167455    0.0055462 
   0.214989300     0.0051152   -0.0910709     0.0000012    0.0000009    -0.0000015   -0.0000037     0.0149222    0.0064696 
   0.216989200     0.0045039   -0.0905164     0.0000016   -0.0000010    -0.0000012   -0.0000034     0.0133603    0.0078448 
   0.218989100     0.0041624   -0.0897631     0.0000011   -0.0000024    -0.0000017   -0.0000036     0.0121587    0.0095736 
   0.220989000     0.0040574   -0.0888879     0.0000005    0.0000001    -0.0000024   -0.0000035     0.0113680    0.0116241 
   0.222988900     0.0042464   -0.0879371    -0.0000007   -0.0000005    -0.0000017   -0.0000042     0.0110606    0.0138780 
   0.224988800     0.0047610   -0.0869931    -0.0000002   -0.0000027    -0.0000013   -0.0000046     0.0113123    0.0162713 
   0.226988700     0.0056269   -0.0861934     0.0000006   -0.0000018    -0.0000034   -0.0000047     0.0121014    0.0186425 
   0.228988600     0.0068295   -0.0856082    -0.0000010   -0.0000030    -0.0000036   -0.0000049     0.0133489    0.0209325 
   0.230988500     0.0083141   -0.0853125    -0.0000003   -0.0000027    -0.0000021   -0.0000041     0.0152308    0.0230421 
   0.232988400     0.0099962   -0.0853130    -0.0000011   -0.0000004    -0.0000030   -0.0000047     0.0176373    0.0248333 
   0.234988300     0.0118197   -0.0857933    -0.0000016   -0.0000014    -0.0000036   -0.0000045     0.0204482    0.0262440 
   0.236988200     0.0136744   -0.0867374    -0.0000024   -0.0000010    -0.0000047   -0.0000047     0.0236806    0.0271570 
   0.238988100     0.0154789   -0.0882082    -0.0000032   -0.0000013    -0.0000029   -0.0000032     0.0271417    0.0275126 
   0.240988000     0.0171670   -0.0901698    -0.0000026   -0.0000018    -0.0000049   -0.0000044     0.0307941    0.0272279 
   0.242987900     0.0186041   -0.0926575    -0.0000025   -0.0000015    -0.0000041   -0.0000039     0.0344708    0.0263120 
   0.244987800     0.0197122   -0.0955662    -0.0000016    0.0000012    -0.0000035   -0.0000024     0.0381023    0.0246581 
   0.246987700     0.0203162   -0.0988595    -0.0000027    0.0000011    -0.0000053   -0.0000029     0.0415596    0.0224303 
   0.248987600     0.0203172   -0.1025015    -0.0000007   -0.0000007    -0.0000045   -0.0000035     0.0446958    0.0195088 
   0.250987500     0.0197282   -0.1063311    -0.0000016   -0.0000004    -0.0000017   -0.0000032     0.0474566    0.0160355 
   0.252987400     0.0184608   -0.1102742    -0.0000024   -0.0000016    -0.0000033   -0.0000052     0.0496307    0.0120701 
   0.254987300     0.0165804   -0.1142127    -0.0000019    0.0000003    -0.0000041   -0.0000028     0.0512223    0.0076532 
   0.256987200     0.0140470   -0.1180324    -0.0000021    0.0000002    -0.0000026   -0.0000030     0.0520871    0.0029938 
   0.258987100     0.0107976   -0.1217220    -0.0000019    0.0000000    -0.0000028   -0.0000026     0.0521957   -0.0018392 
   0.260987000     0.0069164   -0.1248692    -0.0000010    0.0000006    -0.0000037   -0.0000028     0.0515320   -0.0067452 
   0.262986900     0.0024194   -0.1275540    -0.0000011   -0.0000005    -0.0000036   -0.0000031     0.0500837   -0.0115312 
   0.264986800    -0.0026117   -0.1297676     0.0000001    0.0000003    -0.0000036   -0.0000032     0.0478822   -0.0160947 
   0.266986700    -0.0080272   -0.1311979    -0.0000016    0.0000017    -0.0000017   -0.0000037     0.0449363   -0.0202840 
   0.268986600    -0.0136044   -0.1318007     0.0000002    0.0000002    -0.0000026   -0.0000027     0.0413200   -0.0240313 
   0.270986500    -0.0192369   -0.1315829    -0.0000003    0.0000011    -0.0000014   -0.0000052     0.0371402   -0.0271978 
   0.272986400    -0.0248754   -0.1305888     0.0000011   -0.0000007    -0.0000017   -0.0000039     0.0325331   -0.0296067 
   0.274986300    -0.0302919   -0.1288813    -0.0000004   -0.0000007    -0.0000026   -0.0000052     0.0276195   -0.0312512 
   0.276986200    -0.0355050   -0.1264129    -0.0000003    0.0000005    -0.0000027   -0.0000039     0.0225089   -0.0320990 
   0.278986100    -0.0403525   -0.1232995    -0.0000013   -0.0000011    -0.0000025   -0.0000045     0.0174148   -0.0320687 
   0.280986000    -0.0445465   -0.1194912     0.0000001   -0.0000006    -0.0000017   -0.0000050     0.0124573   -0.0311700 
   0.282985900    -0.0480952   -0.1152003    -0.0000029   -0.0000028    -0.0000040   -0.0000041     0.0077866   -0.0294689 
   0.284985800    -0.0508979   -0.1105355    -0.0000020   -0.0000010    -0.0000035   -0.0000047     0.0035031   -0.0270375 
   0.286985700    -0.0528457   -0.1057150    -0.0000010   -0.0000022    -0.0000040   -0.0000054    -0.0002315   -0.0239415 
   0.288985600    -0.0539528   -0.1009554    -0.0000026   -0.0000006    -0.0000055   -0.0000046    -0.0033326   -0.0202451 
   0.290985500    -0.0541344   -0.0964062    -0.0000022   -0.0000012    -0.0000047   -0.0000050    -0.0056984   -0.0161770 
   0.292985400    -0.0535660   -0.0921798    -0.0000037   -0.0000015    -0.0000042   -0.0000054    -0.0072285   -0.0118064 
   0.294985300    -0.0522905   -0.0883662    -0.0000041   -0.0000013    -0.0000063   -0.0000043    -0.0079152   -0.0072867 
   0.296985200    -0.0504782   -0.0850371    -0.0000034   -0.0000026    -0.0000069   -0.0000039    -0.0077609   -0.0027521 
   0.298985100    -0.0482779   -0.0823936    -0.0000052   -0.0000015    -0.0000084   -0.0000041    -0.0067758    0.0015336 
   0.300985000    -0.0458107   -0.0806716    -0.0000043    0.0000003    -0.0000075   -0.0000021    -0.0049737    0.0055165 
   0.302984900    -0.0432389   -0.0798011    -0.0000051    0.0000005    -0.0000075   -0.0000012    -0.0025164    0.0089980 
   0.304984800    -0.0407807   -0.0799446    -0.0000026    0.0000010    -0.0000084   -0.0000007     0.0005713    0.0119303 
   0.306984700    -0.0386621   -0.0810195    -0.0000029    0.0000020    -0.0000055    0.0000007     0.0041540    0.0141001 
   0.308984600    -0.0370691   -0.0829985    -0.0000037    0.0000036    -0.0000059   -0.0000001     0.0080741    0.0155138 
   0.310984500    -0.0362325   -0.0857810    -0.0000005    0.0000031    -0.0000063    0.0000006     0.0121749    0.0161067 
   0.312984400    -0.0364124   -0.0891174     0.0000010    0.0000016    -0.0000053    0.0000015     0.0163189    0.0158205 
   0.314984300    -0.0378366   -0.0928733     0.0000002    0.0000012    -0.0000049    0.0000013     0.0202996    0.0146616 
