! MS46122B
! 2250307/22442219
! 2/13/2026 1:49:46 PM
! C:\USERS\SPARKY\DOCUMENTS\VNA_DATA\FEB13_2026\OPEN_300K.S2P
! CHANNEL.1
! TR.MEASUREMENT
! RAW.DATA
# GHZ S RI R 50.0
! FREQ.GHZ         S11RE         S11IM         S21RE         S21IM         S12RE         S12IM         S22RE         S22IM         
!; PortSelection: Port_12
   0.001000000     1.0468110   -0.0682459    -0.0000026    0.0000038     0.0000009    0.0000024     0.8111663   -0.5586289 
   0.002999900     0.9572532   -0.2084488     0.0000035    0.0000011    -0.0000017    0.0000013     0.0212898   -0.8693697 
   0.004999800     0.7573909   -0.4498478    -0.0000010   -0.0000012     0.0000011   -0.0000029    -0.7516608   -0.4113091 
   0.006999700     0.9550784    0.1196425    -0.0000029   -0.0000001    -0.0000010   -0.0000033    -0.7841657    0.5114860 
   0.008999600     0.9400653   -0.1948805     0.0000001    0.0000025    -0.0000007   -0.0000028    -0.0463779    0.9864873 
   0.010999500     0.8945276   -0.3127996    -0.0000011   -0.0000025     0.0000002   -0.0000001     0.6455171    0.7364316 
   0.012999400     0.8501766   -0.4004076     0.0000012   -0.0000005    -0.0000039    0.0000003     0.9249383    0.2260892 
   0.014999300     0.8048234   -0.4765699     0.0000019    0.0000049    -0.0000014    0.0000029     0.9005517   -0.2383866 
   0.016999200     0.7562859   -0.5467069    -0.0000014   -0.0000030     0.0000006   -0.0000022     0.7188380   -0.5769867 
   0.018999100     0.7022524   -0.6117879     0.0000022    0.0000014     0.0000013   -0.0000018     0.4680734   -0.7912657 
   0.020999000     0.6425407   -0.6720692     0.0000023   -0.0000003     0.0000018    0.0000004     0.1987085   -0.8989094 
   0.022998900     0.5757708   -0.7270139     0.0000027   -0.0000002     0.0000013   -0.0000028    -0.0625720   -0.9199766 
   0.024998800     0.4963251   -0.7411398     0.0000001   -0.0000023    -0.0000001   -0.0000048    -0.3014506   -0.9433070 
   0.026998700     0.4156042   -0.8184653    -0.0000019    0.0000011    -0.0000021   -0.0000062    -0.4985762   -0.7740639 
   0.028998600     0.3201096   -0.8510311    -0.0000019    0.0000016    -0.0000020   -0.0000036    -0.6590620   -0.6380278 
   0.030998500     0.2142410   -0.8719898    -0.0000020   -0.0000009     0.0000028   -0.0000023    -0.7776065   -0.4774941 
   0.032998400     0.1077915   -0.8472572    -0.0000005   -0.0000002    -0.0000011   -0.0000011    -0.9113600   -0.3401082 
   0.034998300    -0.0302131   -0.8645657    -0.0000018    0.0000002     0.0000020   -0.0000016    -0.8923113   -0.1244797 
   0.036998200    -0.1658963   -0.8263994     0.0000006   -0.0000047    -0.0000020   -0.0000008    -0.8948018    0.0516558 
   0.038998100    -0.3056570   -0.7574520    -0.0000012   -0.0000005    -0.0000026    0.0000000    -0.8645114    0.2196968 
   0.040998000    -0.4426406   -0.6513804    -0.0000002   -0.0000028    -0.0000048   -0.0000003    -0.8057693    0.3754813 
   0.042997900    -0.5646724   -0.5022359    -0.0000003   -0.0000009    -0.0000044   -0.0000030    -0.7225260    0.5155842 
   0.044997800    -0.6300983   -0.3085819    -0.0000039    0.0000045    -0.0000057    0.0000013    -0.6751545    0.6780659 
   0.046997700    -0.6911393   -0.0696843    -0.0000067    0.0000041    -0.0000012    0.0000040    -0.4939568    0.7369247 
   0.048997600    -0.6485548    0.1889315     0.0000016   -0.0000011     0.0000030   -0.0000012    -0.3553628    0.8132863 
   0.050997500    -0.5121322    0.4342596     0.0000008   -0.0000038     0.0000006   -0.0000004    -0.2066721    0.8640259 
   0.052997400    -0.2890376    0.6215476    -0.0000042   -0.0000011    -0.0000032   -0.0000004    -0.0515099    0.8874013 
   0.054997300    -0.0126783    0.7145864     0.0000022   -0.0000087    -0.0000056    0.0000134     0.1082411    0.8825780 
   0.056997200     0.2690780    0.7012464    -0.0000031    0.0000029    -0.0000023    0.0000007     0.2622212    0.8493986 
   0.058997100     0.5116256    0.5993309    -0.0000009    0.0000047    -0.0000001    0.0000022     0.4093823    0.7884254 
   0.060997000     0.6917281    0.4407481    -0.0000010    0.0000009     0.0000005    0.0000035     0.5442209    0.7008150 
   0.062996900     0.8067020    0.2564553     0.0000015    0.0000023     0.0000013   -0.0000013     0.6617522    0.5892811 
   0.064996800     0.8633463    0.0690346     0.0000041   -0.0000002     0.0000021   -0.0000004     0.7580215    0.4560341 
   0.066996700     0.8736542   -0.1072344     0.0000043   -0.0000021     0.0000038   -0.0000027     0.8287232    0.3065149 
   0.068996600     0.8492187   -0.2667450     0.0000035   -0.0000030     0.0000025   -0.0000017     0.8705762    0.1444890 
   0.070996500     0.7998519   -0.4065048     0.0000010   -0.0000039     0.0000032   -0.0000031     0.8811215   -0.0238283 
   0.072996400     0.7306883   -0.5263683    -0.0000006   -0.0000061     0.0000001   -0.0000031     0.8590242   -0.1935451 
   0.074996300     0.6482577   -0.6267225     0.0000017   -0.0000013     0.0000018   -0.0000033     0.8046693   -0.3569387 
   0.076996200     0.5559036   -0.7089231     0.0000006   -0.0000019     0.0000027   -0.0000035     0.7186928   -0.5077296 
   0.078996100     0.4563081   -0.7744463    -0.0000030   -0.0000043     0.0000014   -0.0000034     0.6038520   -0.6392275 
   0.080996000     0.3514528   -0.8232031    -0.0000032   -0.0000029     0.0000008   -0.0000050     0.4645627   -0.7461976 
   0.082995900     0.2422917   -0.8566589    -0.0000013   -0.0000053    -0.0000006   -0.0000054     0.3066740   -0.8234892 
   0.084995800     0.1311011   -0.8736517    -0.0000025   -0.0000049    -0.0000015   -0.0000061     0.1364036   -0.8676592 
   0.086995700     0.0185512   -0.8764641    -0.0000046   -0.0000060    -0.0000070   -0.0000062    -0.0390926   -0.8770659 
   0.088995600    -0.0940345   -0.8637467    -0.0000055    0.0000003    -0.0000079   -0.0000039    -0.2121443   -0.8516736 
   0.090995500    -0.2055435   -0.8357270    -0.0000031    0.0000010    -0.0000034   -0.0000002    -0.3761005   -0.7927525 
   0.092995400    -0.3153301   -0.7926453    -0.0000041    0.0000004    -0.0000055    0.0000001    -0.5242426   -0.7032344 
   0.094995300    -0.4199951   -0.7313676    -0.0000010    0.0000018    -0.0000034    0.0000015    -0.6514099   -0.5880360 
   0.096995200    -0.5187240   -0.6523678    -0.0000052    0.0000021    -0.0000053    0.0000013    -0.7532130   -0.4511009 
   0.098995100    -0.6073768   -0.5557457    -0.0000034    0.0000074    -0.0000049    0.0000077    -0.8261696   -0.2989625 
   0.100995000    -0.6851345   -0.4387857     0.0000037    0.0000060     0.0000003    0.0000067    -0.8696935   -0.1354510 
   0.102994900    -0.7427149   -0.3056779     0.0000031    0.0000016     0.0000024    0.0000043    -0.8804704    0.0300348 
   0.104994800    -0.7778602   -0.1561332     0.0000020    0.0000012     0.0000014    0.0000019    -0.8606094    0.1931605 
   0.106994700    -0.7837547    0.0062251     0.0000035    0.0000009     0.0000012    0.0000004    -0.8112041    0.3483151 
   0.108994600    -0.7564227    0.1755101     0.0000023   -0.0000007     0.0000041    0.0000017    -0.7351396    0.4904364 
   0.110994500    -0.6902400    0.3444751     0.0000031   -0.0000021     0.0000041   -0.0000025    -0.6351340    0.6154826 
   0.112994400    -0.5828470    0.5020936     0.0000014   -0.0000020     0.0000019   -0.0000027    -0.5150476    0.7195715 
   0.114994300    -0.4347549    0.6354852     0.0000012   -0.0000034     0.0000027   -0.0000030    -0.3794062    0.8002630 
   0.116994200    -0.2525793    0.7324701     0.0000021   -0.0000020     0.0000017   -0.0000024    -0.2321584    0.8547344 
   0.118994100    -0.0470901    0.7819592     0.0000008   -0.0000025     0.0000006   -0.0000028    -0.0780286    0.8823124 
   0.120994000     0.1666803    0.7781091    -0.0000004   -0.0000037     0.0000010   -0.0000024     0.0776127    0.8819844 
   0.122993900     0.3720494    0.7184106    -0.0000026   -0.0000021    -0.0000005   -0.0000034     0.2306589    0.8542616 
   0.124993800     0.5526474    0.6101027    -0.0000010   -0.0000033     0.0000001   -0.0000030     0.3766145    0.8001182 
   0.126993700     0.6962964    0.4635334    -0.0000001   -0.0000009     0.0000008   -0.0000029     0.5105701    0.7211199 
   0.128993600     0.7949991    0.2921160    -0.0000027   -0.0000010    -0.0000007   -0.0000028     0.6289259    0.6195709 
   0.130993500     0.8500303    0.1115058    -0.0000007   -0.0000017    -0.0000005   -0.0000021     0.7272400    0.4981626 
   0.132993400     0.8625761   -0.0683498    -0.0000039    0.0000003    -0.0000009   -0.0000031     0.8027889    0.3607074 
   0.134993300     0.8377750   -0.2382300    -0.0000020    0.0000003    -0.0000012   -0.0000030     0.8529181    0.2115245 
   0.136993200     0.7824144   -0.3916542    -0.0000015   -0.0000012    -0.0000009   -0.0000035     0.8753258    0.0548697 
   0.138993100     0.7022391   -0.5249746    -0.0000009   -0.0000001    -0.0000017   -0.0000030     0.8688304   -0.1039151 
   0.140993000     0.6035081   -0.6361519    -0.0000012    0.0000007    -0.0000029   -0.0000030     0.8334303   -0.2597440 
   0.142992900     0.4912166   -0.7245572    -0.0000015    0.0000005    -0.0000024   -0.0000017     0.7698368   -0.4070897 
   0.144992800     0.3707705   -0.7911553    -0.0000010    0.0000017    -0.0000024   -0.0000029     0.6791289   -0.5404652 
   0.146992700     0.2441953   -0.8348193    -0.0000015    0.0000014    -0.0000045   -0.0000020     0.5653871   -0.6554726 
   0.148992600     0.1153272   -0.8572401    -0.0000014    0.0000016    -0.0000050   -0.0000049     0.4316928   -0.7477795 
   0.150992500    -0.0130868   -0.8582525    -0.0000011    0.0000013    -0.0000038   -0.0000020     0.2831811   -0.8139712 
   0.152992400    -0.1387073   -0.8408850    -0.0000020    0.0000015    -0.0000042   -0.0000016     0.1240455   -0.8507738 
   0.154992300    -0.2596027   -0.8046242     0.0000012    0.0000028    -0.0000054   -0.0000017    -0.0394934   -0.8570522 
   0.156992200    -0.3736302   -0.7504125    -0.0000006    0.0000028    -0.0000042   -0.0000008    -0.2013616   -0.8321248 
   0.158992100    -0.4787397   -0.6788127     0.0000005    0.0000018    -0.0000039   -0.0000008    -0.3553605   -0.7773269 
   0.160992000    -0.5727161   -0.5910792    -0.0000004   -0.0000007    -0.0000028   -0.0000008    -0.4962402   -0.6944718 
   0.162991900    -0.6531453   -0.4880091    -0.0000001    0.0000015    -0.0000028   -0.0000006    -0.6185805   -0.5867270 
   0.164991800    -0.7178250   -0.3703437     0.0000004    0.0000011    -0.0000022    0.0000008    -0.7183348   -0.4585563 
   0.166991700    -0.7634643   -0.2407881     0.0000007    0.0000019    -0.0000025    0.0000011    -0.7918525   -0.3146701 
   0.168991600    -0.7873691   -0.1013455     0.0000001   -0.0000001    -0.0000022    0.0000010    -0.8371178   -0.1598926 
   0.170991500    -0.7867683    0.0450159     0.0000004   -0.0000002    -0.0000020    0.0000021    -0.8525370   -0.0004045 
   0.172991400    -0.7587136    0.1937735     0.0000019    0.0000006     0.0000006    0.0000012    -0.8386870    0.1584916 
   0.174991300    -0.7017986    0.3400066     0.0000011   -0.0000005     0.0000011    0.0000015    -0.7959256    0.3111233 
   0.176991200    -0.6146774    0.4773982     0.0000012   -0.0000009    -0.0000002    0.0000014    -0.7263637    0.4527217 
   0.178991100    -0.4981915    0.5987451     0.0000019   -0.0000011     0.0000014    0.0000001    -0.6325876    0.5787349 
   0.180991000    -0.3545724    0.6973396     0.0000003   -0.0000028     0.0000019   -0.0000004    -0.5180598    0.6849917 
   0.182990900    -0.1889193    0.7643570    -0.0000018   -0.0000023     0.0000021   -0.0000016    -0.3868732    0.7686261 
   0.184990800    -0.0083021    0.7940722    -0.0000024   -0.0000046     0.0000016   -0.0000023    -0.2431730    0.8271168 
   0.186990700     0.1776989    0.7828396    -0.0000010   -0.0000018    -0.0000006   -0.0000036    -0.0919280    0.8592588 
   0.188990600     0.3360841    0.7391860    -0.0000035   -0.0000022    -0.0000004   -0.0000049     0.0383640    0.8657207 
   0.190990500     0.5180175    0.6388693    -0.0000032   -0.0000033    -0.0000007   -0.0000046     0.2116885    0.8414163 
   0.192990400     0.6584391    0.5103697    -0.0000015   -0.0000008    -0.0000022   -0.0000073     0.3608450    0.7906243 
   0.194990300     0.7632604    0.3580328    -0.0000036   -0.0000017    -0.0000027   -0.0000081     0.4958077    0.7156890 
   0.196990200     0.8307623    0.1899455    -0.0000035   -0.0000001    -0.0000021   -0.0000056     0.6153303    0.6176550 
   0.198990100     0.8594722    0.0157709    -0.0000048    0.0000013    -0.0000048   -0.0000054     0.7155411    0.4996493 
   0.200990000     0.8511267   -0.1565047    -0.0000046    0.0000025    -0.0000051   -0.0000034     0.7933748    0.3649734 
   0.202989900     0.8087627   -0.3185846    -0.0000038    0.0000043    -0.0000056   -0.0000032     0.8458198    0.2179581 
   0.204989800     0.7376654   -0.4643954    -0.0000023    0.0000062    -0.0000051   -0.0000017     0.8713378    0.0632499 
   0.206989700     0.6435993   -0.5897248    -0.0000009    0.0000061    -0.0000037   -0.0000005     0.8680245   -0.0940434 
   0.208989600     0.5307007   -0.6918806     0.0000041    0.0000055    -0.0000015   -0.0000019     0.8359263   -0.2490962 
   0.210989500     0.4043794   -0.7696246     0.0000032    0.0000024    -0.0000018   -0.0000028     0.7755910   -0.3964218 
   0.212989400     0.2690545   -0.8225897     0.0000040    0.0000029    -0.0000024   -0.0000036     0.6886754   -0.5307691 
   0.214989300     0.1300300   -0.8505138     0.0000037   -0.0000011    -0.0000023   -0.0000019     0.5776347   -0.6471649 
   0.216989200    -0.0088261   -0.8544124     0.0000030   -0.0000003    -0.0000027   -0.0000042     0.4460745   -0.7410724 
   0.218989100    -0.1445466   -0.8352911     0.0000031   -0.0000017    -0.0000042   -0.0000041     0.2987812   -0.8089198 
   0.220989000    -0.2742556   -0.7939051     0.0000032   -0.0000022    -0.0000034   -0.0000048     0.1408807   -0.8476955 
   0.222988900    -0.3949239   -0.7317013     0.0000025   -0.0000028    -0.0000041   -0.0000016    -0.0219789   -0.8558106 
   0.224988800    -0.5041532   -0.6501321     0.0000027   -0.0000037    -0.0000057   -0.0000021    -0.1836648   -0.8325814 
   0.226988700    -0.5986213   -0.5513009     0.0000012   -0.0000040    -0.0000039   -0.0000028    -0.3380343   -0.7791921 
   0.228988600    -0.6754496   -0.4369798     0.0000004   -0.0000033    -0.0000055   -0.0000012    -0.4789872   -0.6970142 
   0.230988500    -0.7325097   -0.3096700    -0.0000006   -0.0000041    -0.0000040   -0.0000016    -0.6013690   -0.5896132 
   0.232988400    -0.7662815   -0.1710566    -0.0000006   -0.0000028    -0.0000045   -0.0000003    -0.7009445   -0.4615372 
   0.234988300    -0.7763695   -0.0256494    -0.0000019   -0.0000037    -0.0000027    0.0000013    -0.7738600   -0.3173510 
   0.236988200    -0.7594595    0.1227501    -0.0000049   -0.0000018    -0.0000011    0.0000003    -0.8178754   -0.1624732 
   0.238988100    -0.7136170    0.2694096    -0.0000034   -0.0000026    -0.0000011    0.0000008    -0.8316553   -0.0029798 
   0.240988000    -0.6384595    0.4075847    -0.0000022   -0.0000020    -0.0000011    0.0000011    -0.8155074    0.1552012 
   0.242987900    -0.5352943    0.5314573    -0.0000044   -0.0000009     0.0000004   -0.0000001    -0.7702692    0.3064500 
   0.244987800    -0.4056486    0.6345214    -0.0000043   -0.0000013     0.0000011   -0.0000009    -0.6981068    0.4457535 
   0.246987700    -0.2533225    0.7103475    -0.0000034   -0.0000013     0.0000018   -0.0000023    -0.6021211    0.5685800 
   0.248987600    -0.0844517    0.7529216    -0.0000055   -0.0000018     0.0000041   -0.0000042    -0.4859463    0.6709617 
   0.250987500     0.0927700    0.7576731    -0.0000037   -0.0000013     0.0000027   -0.0000052    -0.3541183    0.7499352 
   0.252987400     0.2687747    0.7232098    -0.0000038    0.0000006     0.0000012   -0.0000060    -0.2108139    0.8034006 
   0.254987300     0.4327700    0.6499906    -0.0000034    0.0000014     0.0000015   -0.0000098    -0.0610589    0.8298262 
   0.256987200     0.5763563    0.5421585    -0.0000022    0.0000027    -0.0000008   -0.0000100     0.0903961    0.8292574 
   0.258987100     0.6926593    0.4068119    -0.0000007    0.0000021    -0.0000025   -0.0000109     0.2384403    0.8015841 
   0.260987000     0.7747399    0.2505596    -0.0000009    0.0000016    -0.0000052   -0.0000131     0.3791621    0.7480946 
   0.262986900     0.8202412    0.0825810     0.0000000    0.0000027    -0.0000070   -0.0000119     0.5076059    0.6706186 
   0.264986800     0.8287581   -0.0876486    -0.0000001    0.0000029    -0.0000106   -0.0000087     0.6204202    0.5719070 
   0.266986700     0.8026984   -0.2518696     0.0000006    0.0000011    -0.0000111   -0.0000060     0.7138723    0.4547511 
   0.268986600     0.7455961   -0.4026659     0.0000025    0.0000009    -0.0000101   -0.0000011     0.7851709    0.3228574 
   0.270986500     0.6625165   -0.5351478     0.0000013   -0.0000009    -0.0000089    0.0000015     0.8321638    0.1800691 
   0.272986400     0.5591779   -0.6461568     0.0000027   -0.0000014    -0.0000052    0.0000017     0.8532989    0.0307482 
   0.274986300     0.4408521   -0.7337348    -0.0000003   -0.0000011    -0.0000011    0.0000020     0.8471438   -0.1205898 
   0.276986200     0.3123157   -0.7971620     0.0000011   -0.0000023     0.0000009   -0.0000010     0.8134844   -0.2689162 
   0.278986100     0.1771673   -0.8359498    -0.0000001   -0.0000020     0.0000007   -0.0000032     0.7541485   -0.4095616 
   0.280986000     0.0398895   -0.8509945    -0.0000002   -0.0000025    -0.0000010   -0.0000071     0.6698774   -0.5376794 
   0.282985900    -0.0951428   -0.8429910    -0.0000004   -0.0000042    -0.0000027   -0.0000061     0.5632169   -0.6492222 
   0.284985800    -0.2254568   -0.8132918    -0.0000020   -0.0000034    -0.0000035   -0.0000074     0.4374474   -0.7396763 
   0.286985700    -0.3476654   -0.7628167    -0.0000006   -0.0000040    -0.0000049   -0.0000074     0.2965035   -0.8060235 
   0.288985600    -0.4588666   -0.6944000    -0.0000020   -0.0000031    -0.0000064   -0.0000064     0.1450200   -0.8454401 
   0.290985500    -0.5570278   -0.6090694    -0.0000033   -0.0000027    -0.0000073   -0.0000051    -0.0117663   -0.8561628 
   0.292985400    -0.6402295   -0.5093153    -0.0000048   -0.0000024    -0.0000093   -0.0000042    -0.1685170   -0.8373107 
   0.294985300    -0.7069159   -0.3962835    -0.0000062   -0.0000018    -0.0000097   -0.0000036    -0.3195814   -0.7897359 
   0.296985200    -0.7546914   -0.2716232    -0.0000072   -0.0000011    -0.0000108   -0.0000010    -0.4591400   -0.7141913 
   0.298985100    -0.7810819   -0.1378277    -0.0000075    0.0000011    -0.0000102    0.0000011    -0.5820448   -0.6139107 
   0.300985000    -0.7840367    0.0016538    -0.0000069    0.0000012    -0.0000092    0.0000034    -0.6838434   -0.4924030 
   0.302984900    -0.7612680    0.1425780    -0.0000067    0.0000022    -0.0000066    0.0000045    -0.7610993   -0.3541598 
   0.304984800    -0.7119899    0.2801807    -0.0000044    0.0000047    -0.0000057    0.0000075    -0.8107222   -0.2040031 
   0.306984700    -0.6348270    0.4093121    -0.0000021    0.0000050    -0.0000024    0.0000056    -0.8311492   -0.0477235 
   0.308984600    -0.5308523    0.5227215     0.0000001    0.0000047    -0.0000008    0.0000048    -0.8221248    0.1086753 
   0.310984500    -0.4022927    0.6140924     0.0000014    0.0000014     0.0000017    0.0000047    -0.7843413    0.2603148 
   0.312984400    -0.2531364    0.6768051     0.0000014    0.0000024     0.0000024    0.0000023    -0.7189992    0.4013902 
   0.314984300    -0.0907789    0.7043651     0.0000040    0.0000006     0.0000036    0.0000008    -0.6291923    0.5273402 
