! MS46122B
! 2250307/22442219
! 2/13/2026 1:36:40 PM
! C:\USERS\SPARKY\DOCUMENTS\VNA_DATA\FEB13_2026\SHORT_300K.S2P
! CHANNEL.1
! TR.MEASUREMENT
! RAW.DATA
# GHZ S RI R 50.0
! FREQ.GHZ         S11RE         S11IM         S21RE         S21IM         S12RE         S12IM         S22RE         S22IM         
!; PortSelection: Port_12
   0.001000000     1.0466520   -0.0674363     0.0000013   -0.0000006     0.0000037   -0.0000020     0.8151103   -0.5520800 
   0.002999900     0.9658183   -0.1899637     0.0000042   -0.0000020     0.0000021    0.0000000     0.1771262   -0.8611432 
   0.004999800     0.9057193   -0.2949761    -0.0000010   -0.0000003     0.0000016   -0.0000054    -0.3590577   -0.7666119 
   0.006999700     0.8357624   -0.3955383     0.0000018   -0.0000016     0.0000018   -0.0000038    -0.6795500   -0.5258374 
   0.008999600     0.7532747   -0.4926025     0.0000000    0.0000016    -0.0000040    0.0000012    -0.8460463   -0.2522027 
   0.010999500     0.6516410   -0.5859793     0.0000001    0.0000006    -0.0000025   -0.0000031    -0.9023232    0.0134705 
   0.012999400     0.5224983   -0.6718810    -0.0000004    0.0000009    -0.0000036   -0.0000052    -0.8793524    0.2535459 
   0.014999300     0.3540439   -0.7376679    -0.0000010    0.0000025     0.0000015   -0.0000016    -0.7981387    0.4593445 
   0.016999200     0.1341818   -0.7585689     0.0000014   -0.0000016     0.0000023   -0.0000009    -0.6742206    0.6274257 
   0.018999100    -0.1365961   -0.6834383    -0.0000017   -0.0000022     0.0000003   -0.0000017    -0.5206941    0.7560918 
   0.020999000    -0.4034988   -0.4338971     0.0000004   -0.0000022    -0.0000001   -0.0000009    -0.3470564    0.8442355 
   0.022998900    -0.4966336    0.0138069    -0.0000004   -0.0000005    -0.0000024   -0.0000015    -0.1621206    0.8926297 
   0.024998800    -0.2520975    0.4352394     0.0000013    0.0000004    -0.0000025    0.0000008     0.0158249    0.9767957 
   0.026998700     0.1891287    0.6133405     0.0000011    0.0000026    -0.0000006   -0.0000019     0.2123831    0.8750908 
   0.028998600     0.5553404    0.5149604    -0.0000005   -0.0000021     0.0000022    0.0000018     0.3884921    0.8116373 
   0.030998500     0.7714967    0.3166849    -0.0000010   -0.0000023     0.0000022    0.0000000     0.5493784    0.7138684 
   0.032998400     0.8414348    0.1241077    -0.0000042    0.0000014    -0.0000003    0.0000023     0.7351856    0.6474267 
   0.034998300     0.9050785   -0.0725209    -0.0000005   -0.0000018    -0.0000025    0.0000000     0.7978621    0.4305140 
   0.036998200     0.8939650   -0.2277075     0.0000021    0.0000011     0.0000011   -0.0000018     0.8742515    0.2536737 
   0.038998100     0.8604210   -0.3581154     0.0000007   -0.0000021     0.0000017   -0.0000031     0.9110988    0.0622798 
   0.040998000     0.8104477   -0.4723881    -0.0000009   -0.0000017     0.0000018   -0.0000028     0.9056342   -0.1341616 
   0.042997900     0.7460446   -0.5698214    -0.0000017   -0.0000003     0.0000010    0.0000003     0.8564978   -0.3261111 
   0.044997800     0.6597490   -0.6182966    -0.0000013    0.0000012    -0.0000012   -0.0000026     0.8364772   -0.5266123 
   0.046997700     0.5899237   -0.7200791     0.0000012    0.0000014     0.0000037   -0.0000037     0.6374325   -0.6567050 
   0.048997600     0.5020904   -0.7756097     0.0000008    0.0000018     0.0000006   -0.0000005     0.4795825   -0.7771431 
   0.050997500     0.4097215   -0.8193158     0.0000017   -0.0000018    -0.0000028   -0.0000008     0.2999031   -0.8597761 
   0.052997400     0.3134482   -0.8515550    -0.0000026    0.0000009     0.0000066   -0.0000038     0.1095985   -0.9017704 
   0.054997300     0.2132532   -0.8727072    -0.0000109    0.0000044     0.0000010   -0.0000008    -0.0853081   -0.9026185 
   0.056997200     0.1082402   -0.8816776     0.0000006    0.0000003     0.0000013   -0.0000004    -0.2699842   -0.8638265 
   0.058997100     0.0010156   -0.8781874    -0.0000016   -0.0000006    -0.0000002   -0.0000009    -0.4412760   -0.7891819 
   0.060997000    -0.1080302   -0.8602986    -0.0000014   -0.0000015    -0.0000013   -0.0000011    -0.5916250   -0.6828011 
   0.062996900    -0.2186439   -0.8266546     0.0000018   -0.0000009    -0.0000018   -0.0000040    -0.7152482   -0.5510567 
   0.064996800    -0.3284831   -0.7756585    -0.0000007    0.0000000    -0.0000025   -0.0000017    -0.8089445   -0.4001876 
   0.066996700    -0.4352655   -0.7051460    -0.0000001   -0.0000010    -0.0000018   -0.0000005    -0.8705025   -0.2367301 
   0.068996600    -0.5358026   -0.6130595    -0.0000009   -0.0000017    -0.0000002    0.0000007    -0.8986511   -0.0676287 
   0.070996500    -0.6253430   -0.4979503     0.0000011    0.0000027    -0.0000006    0.0000013    -0.8942853    0.1010616 
   0.072996400    -0.6963954   -0.3585372     0.0000000    0.0000004     0.0000009   -0.0000014    -0.8598184    0.2635167 
   0.074996300    -0.7415432   -0.1961621    -0.0000026    0.0000001    -0.0000026   -0.0000001    -0.7966112    0.4145526 
   0.076996200    -0.7515681   -0.0152699    -0.0000005    0.0000001     0.0000015    0.0000004    -0.7080749    0.5498572 
   0.078996100    -0.7177432    0.1760643    -0.0000024   -0.0000008    -0.0000012   -0.0000006    -0.5978884    0.6663899 
   0.080996000    -0.6323578    0.3650284    -0.0000019   -0.0000009    -0.0000010    0.0000002    -0.4702319    0.7606610 
   0.082995900    -0.4933992    0.5337294     0.0000004   -0.0000006     0.0000006   -0.0000019    -0.3287654    0.8304209 
   0.084995800    -0.3068737    0.6618708    -0.0000013   -0.0000020     0.0000012    0.0000002    -0.1783010    0.8740640 
   0.086995700    -0.0870616    0.7347420     0.0000006   -0.0000009     0.0000000    0.0000019    -0.0222102    0.8906617 
   0.088995600     0.1448539    0.7417145    -0.0000031    0.0000014     0.0000041   -0.0000003     0.1338845    0.8799583 
   0.090995500     0.3658919    0.6834935     0.0000002   -0.0000008     0.0000040   -0.0000006     0.2856060    0.8416010 
   0.092995400     0.5561014    0.5698190     0.0000011   -0.0000029    -0.0000016   -0.0000045     0.4280992    0.7771483 
   0.094995300     0.7008044    0.4166702     0.0000007    0.0000005     0.0000021   -0.0000043     0.5580011    0.6874195 
   0.096995200     0.7962183    0.2416112    -0.0000014   -0.0000018     0.0000003   -0.0000008     0.6701952    0.5762798 
   0.098995100     0.8437104    0.0610576     0.0000011   -0.0000009     0.0000013   -0.0000014     0.7608148    0.4459883 
   0.100995000     0.8491244   -0.1148639    -0.0000010   -0.0000023    -0.0000001   -0.0000026     0.8269641    0.3005201 
   0.102994900     0.8184936   -0.2756256    -0.0000006   -0.0000001     0.0000006   -0.0000028     0.8653684    0.1446937 
   0.104994800     0.7607799   -0.4183770    -0.0000024   -0.0000011    -0.0000007   -0.0000028     0.8747718   -0.0165056 
   0.106994700     0.6815717   -0.5402182     0.0000001   -0.0000014    -0.0000002   -0.0000019     0.8541609   -0.1777758 
   0.108994600     0.5879841   -0.6417550    -0.0000025   -0.0000015     0.0000003   -0.0000040     0.8035026   -0.3332019 
   0.110994500     0.4832746   -0.7223969    -0.0000002   -0.0000002    -0.0000010   -0.0000042     0.7241877   -0.4774843 
   0.112994400     0.3710669   -0.7835414    -0.0000007   -0.0000015    -0.0000028   -0.0000035     0.6187230   -0.6048841 
   0.114994300     0.2539919   -0.8251763    -0.0000016    0.0000007    -0.0000016   -0.0000029     0.4904200   -0.7105325 
   0.116994200     0.1346597   -0.8479415    -0.0000007    0.0000004    -0.0000019   -0.0000016     0.3437221   -0.7897829 
   0.118994100     0.0149532   -0.8526412     0.0000003    0.0000000    -0.0000020   -0.0000023     0.1840666   -0.8396041 
   0.120994000    -0.1033582   -0.8408676     0.0000001   -0.0000006    -0.0000022   -0.0000027     0.0176202   -0.8576106 
   0.122993900    -0.2190964   -0.8108410    -0.0000001    0.0000014    -0.0000024    0.0000003    -0.1492713   -0.8436775 
   0.124993800    -0.3294228   -0.7639766    -0.0000012    0.0000012    -0.0000016   -0.0000016    -0.3101374   -0.7975578 
   0.126993700    -0.4336305   -0.7001872    -0.0000002   -0.0000027    -0.0000027   -0.0000009    -0.4584215   -0.7215552 
   0.128993600    -0.5279699   -0.6189430     0.0000001    0.0000005    -0.0000026   -0.0000023    -0.5892596   -0.6189625 
   0.130993500    -0.6113528   -0.5223733     0.0000007   -0.0000002    -0.0000017   -0.0000018    -0.6973885   -0.4936663 
   0.132993400    -0.6805346   -0.4107485     0.0000001   -0.0000004    -0.0000018    0.0000001    -0.7792253   -0.3507289 
   0.134993300    -0.7315751   -0.2849951    -0.0000003    0.0000009    -0.0000013   -0.0000010    -0.8321670   -0.1961402 
   0.136993200    -0.7619747   -0.1468767     0.0000001   -0.0000003    -0.0000031    0.0000011    -0.8548321   -0.0352789 
   0.138993100    -0.7673856    0.0004560    -0.0000011   -0.0000003    -0.0000014   -0.0000003    -0.8470557    0.1260294 
   0.140993000    -0.7447400    0.1522293     0.0000002    0.0000008    -0.0000012    0.0000009    -0.8094341    0.2818516 
   0.142992900    -0.6904171    0.3032642    -0.0000010    0.0000003    -0.0000016    0.0000009    -0.7444523    0.4271237 
   0.144992800    -0.6040856    0.4464320     0.0000004   -0.0000009    -0.0000004   -0.0000007    -0.6540846    0.5564030 
   0.146992700    -0.4838302    0.5725598    -0.0000017   -0.0000019     0.0000006    0.0000010    -0.5424515    0.6669458 
   0.148992600    -0.3339641    0.6723092    -0.0000007   -0.0000010     0.0000010    0.0000007    -0.4133654    0.7549183 
   0.150992500    -0.1601075    0.7360790    -0.0000003   -0.0000009     0.0000015    0.0000003    -0.2715631    0.8184555 
   0.152992400     0.0277194    0.7595180    -0.0000001   -0.0000005     0.0000016   -0.0000003    -0.1211131    0.8544757 
   0.154992300     0.2174949    0.7375017    -0.0000012   -0.0000013     0.0000016   -0.0000014     0.0330963    0.8629416 
   0.156992200     0.3970774    0.6705410    -0.0000002   -0.0000023     0.0000028   -0.0000024     0.1858904    0.8438966 
   0.158992100     0.5547432    0.5633420     0.0000004   -0.0000006     0.0000010   -0.0000033     0.3326656    0.7978098 
   0.160992000     0.6805590    0.4241258    -0.0000004   -0.0000019     0.0000031   -0.0000024     0.4685157    0.7260623 
   0.162991900     0.7684389    0.2634551    -0.0000007   -0.0000005     0.0000031   -0.0000048     0.5896519    0.6313123 
   0.164991800     0.8167058    0.0919146    -0.0000012   -0.0000021     0.0000001   -0.0000045     0.6921216    0.5161842 
   0.166991700     0.8255410   -0.0800280    -0.0000004   -0.0000030     0.0000004   -0.0000056     0.7723594    0.3842008 
   0.168991600     0.7988082   -0.2434313    -0.0000017   -0.0000004     0.0000009   -0.0000052     0.8273672    0.2397474 
   0.170991500     0.7413525   -0.3926476    -0.0000018   -0.0000015    -0.0000016   -0.0000073     0.8554184    0.0870934 
   0.172991400     0.6590176   -0.5223572    -0.0000027   -0.0000003    -0.0000008   -0.0000073     0.8551104   -0.0686841 
   0.174991300     0.5576252   -0.6299303    -0.0000026   -0.0000008    -0.0000031   -0.0000082     0.8265671   -0.2221524 
   0.176991200     0.4417511   -0.7143434    -0.0000046    0.0000001    -0.0000043   -0.0000046     0.7701048   -0.3681634 
   0.178991100     0.3166350   -0.7748792    -0.0000025   -0.0000007    -0.0000074   -0.0000058     0.6872703   -0.5019341 
   0.180991000     0.1868614   -0.8131163    -0.0000032    0.0000009    -0.0000077   -0.0000039     0.5806997   -0.6181059 
   0.182990900     0.0553464   -0.8270367    -0.0000040    0.0000020    -0.0000061   -0.0000011     0.4541073   -0.7128086 
   0.184990800    -0.0750680   -0.8194171    -0.0000032    0.0000025    -0.0000063    0.0000007     0.3116362   -0.7823741 
   0.186990700    -0.2011985   -0.7908300    -0.0000004    0.0000052    -0.0000040   -0.0000001     0.1584224   -0.8239600 
   0.188990600    -0.2985713   -0.7507218     0.0000035    0.0000030    -0.0000017   -0.0000007     0.0226823   -0.8358141 
   0.190990500    -0.4254473   -0.6770078     0.0000012    0.0000021    -0.0000024   -0.0000007    -0.1547139   -0.8186013 
   0.192990400    -0.5253045   -0.5912058     0.0000011    0.0000007    -0.0000023   -0.0000029    -0.3091777   -0.7705492 
   0.194990300    -0.6083499   -0.4913861     0.0000003    0.0000001    -0.0000016   -0.0000019    -0.4485557   -0.6955158 
   0.196990200    -0.6741312   -0.3786217     0.0000019   -0.0000009    -0.0000042    0.0000003    -0.5709565   -0.5959259 
   0.198990100    -0.7207025   -0.2544355     0.0000010   -0.0000014    -0.0000030   -0.0000010    -0.6720901   -0.4754656 
   0.200990000    -0.7460021   -0.1209267     0.0000007   -0.0000015    -0.0000031   -0.0000004    -0.7483363   -0.3388183 
   0.202989900    -0.7478241    0.0184312     0.0000011   -0.0000003    -0.0000019    0.0000019    -0.7977552   -0.1913502 
   0.204989800    -0.7239301    0.1593112     0.0000003   -0.0000009    -0.0000002    0.0000009    -0.8186805   -0.0382235 
   0.206989700    -0.6746257    0.2968024     0.0000005   -0.0000002    -0.0000009   -0.0000005    -0.8109100    0.1153631 
   0.208989600    -0.5968828    0.4256929     0.0000012   -0.0000015    -0.0000004   -0.0000014    -0.7754359    0.2638526 
   0.210989500    -0.4926711    0.5403867     0.0000019   -0.0000030     0.0000015   -0.0000011    -0.7138603    0.4027012 
   0.212989400    -0.3641874    0.6348643    -0.0000002   -0.0000029     0.0000013   -0.0000021    -0.6287259    0.5270252 
   0.214989300    -0.2155624    0.7021691    -0.0000006   -0.0000014     0.0000017   -0.0000024    -0.5231151    0.6334944 
   0.216989200    -0.0537800    0.7374960     0.0000008   -0.0000029     0.0000022   -0.0000041    -0.4009229    0.7189056 
   0.218989100     0.1142327    0.7380315    -0.0000011   -0.0000015     0.0000011   -0.0000036    -0.2659591    0.7808231 
   0.220989000     0.2803294    0.7016801    -0.0000027   -0.0000020     0.0000012   -0.0000057    -0.1231029    0.8174308 
   0.222988900     0.4357500    0.6300534    -0.0000021   -0.0000010     0.0000017   -0.0000049     0.0238490    0.8283082 
   0.224988800     0.5719419    0.5263610    -0.0000015    0.0000008    -0.0000005   -0.0000061     0.1698589    0.8133371 
   0.226988700     0.6816097    0.3969237    -0.0000009   -0.0000008    -0.0000009   -0.0000085     0.3108963    0.7730145 
   0.228988600     0.7596683    0.2493273    -0.0000013    0.0000005    -0.0000014   -0.0000085     0.4423207    0.7086581 
   0.230988500     0.8044717    0.0912891    -0.0000022    0.0000019    -0.0000004   -0.0000097     0.5604644    0.6220294 
   0.232988400     0.8144453   -0.0693003    -0.0000001    0.0000008    -0.0000042   -0.0000081     0.6616925    0.5159559 
   0.234988300     0.7934164   -0.2249810    -0.0000011    0.0000002    -0.0000050   -0.0000091     0.7428485    0.3938592 
   0.236988200     0.7434818   -0.3699734     0.0000012    0.0000012    -0.0000065   -0.0000082     0.8016034    0.2588651 
   0.238988100     0.6689476   -0.4992697    -0.0000003    0.0000004    -0.0000074   -0.0000072     0.8357018    0.1149876 
   0.240988000     0.5741876   -0.6084269     0.0000000    0.0000002    -0.0000081   -0.0000068     0.8436532   -0.0331172 
   0.242987900     0.4644186   -0.6966553    -0.0000018   -0.0000005    -0.0000082   -0.0000060     0.8252614   -0.1809446 
   0.244987800     0.3438040   -0.7626150     0.0000008    0.0000009    -0.0000106   -0.0000033     0.7803684   -0.3235788 
   0.246987700     0.2162612   -0.8057808     0.0000001    0.0000002    -0.0000097   -0.0000033     0.7102150   -0.4568278 
   0.248987600     0.0854090   -0.8263675     0.0000003    0.0000004    -0.0000079   -0.0000021     0.6163539   -0.5756986 
   0.250987500    -0.0454123   -0.8248274    -0.0000001   -0.0000013    -0.0000078   -0.0000003     0.5020128   -0.6760606 
   0.252987400    -0.1721200   -0.8019554    -0.0000010   -0.0000018    -0.0000067    0.0000022     0.3704561   -0.7540945 
   0.254987300    -0.2920556   -0.7591738     0.0000011    0.0000001    -0.0000068    0.0000030     0.2261382   -0.8067954 
   0.256987200    -0.4024360   -0.6979421    -0.0000011   -0.0000017    -0.0000044    0.0000026     0.0741566   -0.8319123 
   0.258987100    -0.5026206   -0.6203878    -0.0000003   -0.0000023    -0.0000019    0.0000046    -0.0804754   -0.8284108 
   0.260987000    -0.5884001   -0.5261958     0.0000006   -0.0000013     0.0000010    0.0000033    -0.2322114   -0.7956551 
   0.262986900    -0.6586791   -0.4179371    -0.0000011   -0.0000034     0.0000024    0.0000031    -0.3750316   -0.7348927 
   0.264986800    -0.7102502   -0.2975163    -0.0000004   -0.0000016     0.0000047    0.0000010    -0.5041718   -0.6485882 
   0.266986700    -0.7410340   -0.1683190    -0.0000021   -0.0000027     0.0000053   -0.0000028    -0.6143607   -0.5395288 
   0.268986600    -0.7489630   -0.0334803    -0.0000001   -0.0000022     0.0000057   -0.0000069    -0.7020233   -0.4118738 
   0.270986500    -0.7327877    0.1034318    -0.0000029   -0.0000038     0.0000036   -0.0000104    -0.7637280   -0.2702065 
   0.272986400    -0.6908956    0.2380316    -0.0000037   -0.0000043    -0.0000025   -0.0000105    -0.7978987   -0.1201448 
   0.274986300    -0.6226718    0.3656958    -0.0000049   -0.0000015    -0.0000049   -0.0000128    -0.8030875    0.0330626 
   0.276986200    -0.5290103    0.4811330    -0.0000028   -0.0000014    -0.0000059   -0.0000081    -0.7791389    0.1833610 
   0.278986100    -0.4106112    0.5784822    -0.0000041    0.0000013    -0.0000078   -0.0000056    -0.7284036    0.3261665 
   0.280986000    -0.2712187    0.6511078    -0.0000049    0.0000017    -0.0000065   -0.0000038    -0.6525499    0.4563120 
   0.282985900    -0.1159481    0.6939933    -0.0000026   -0.0000001    -0.0000081   -0.0000017    -0.5547588    0.5693150 
   0.284985800     0.0480230    0.7025204    -0.0000029    0.0000025    -0.0000071   -0.0000021    -0.4386468    0.6620547 
   0.286985700     0.2119182    0.6745996    -0.0000037    0.0000022    -0.0000054   -0.0000018    -0.3082699    0.7315440 
   0.288985600     0.3662619    0.6106139    -0.0000023    0.0000025    -0.0000023   -0.0000008    -0.1683773    0.7760094 
   0.290985500     0.5027245    0.5135444    -0.0000026    0.0000022    -0.0000027   -0.0000006    -0.0233068    0.7942708 
   0.292985400     0.6135418    0.3891258    -0.0000015    0.0000012    -0.0000014   -0.0000026     0.1220898    0.7862583 
   0.294985300     0.6932397    0.2444326    -0.0000004    0.0000018    -0.0000040   -0.0000026     0.2629482    0.7525631 
   0.296985200     0.7385715    0.0874290    -0.0000010    0.0000012    -0.0000011   -0.0000051     0.3951481    0.6943478 
   0.298985100     0.7486039   -0.0730933     0.0000005    0.0000009    -0.0000030   -0.0000046     0.5145454    0.6136686 
   0.300985000     0.7243849   -0.2279518     0.0000010   -0.0000019    -0.0000023   -0.0000058     0.6176278    0.5131537 
   0.302984900     0.6702486   -0.3707343     0.0000012   -0.0000004    -0.0000052   -0.0000073     0.7010408    0.3963402 
   0.304984800     0.5908093   -0.4952585     0.0000004   -0.0000009    -0.0000064   -0.0000067     0.7624325    0.2663200 
   0.306984700     0.4916134   -0.5984112    -0.0000009   -0.0000013    -0.0000074   -0.0000059     0.7999831    0.1271888 
   0.308984600     0.3792218   -0.6778283     0.0000003   -0.0000025    -0.0000099   -0.0000048     0.8118477   -0.0167447 
   0.310984500     0.2586531   -0.7335946    -0.0000004   -0.0000030    -0.0000082   -0.0000033     0.7981038   -0.1608045 
   0.312984400     0.1343058   -0.7660406    -0.0000013   -0.0000022    -0.0000094   -0.0000024     0.7584601   -0.3006814 
   0.314984300     0.0098685   -0.7764568    -0.0000016   -0.0000024    -0.0000101    0.0000002     0.6941895   -0.4317222 
