! MS46122B
! 2250307/22442219
! 2/13/2026 1:53:02 PM
! C:\USERS\SPARKY\DOCUMENTS\VNA_DATA\FEB13_2026\THRU_PORT5_300K.S2P
! CHANNEL.1
! TR.MEASUREMENT
! RAW.DATA
# GHZ S RI R 50.0
! FREQ.GHZ         S11RE         S11IM         S21RE         S21IM         S12RE         S12IM         S22RE         S22IM         
!; PortSelection: Port_12
   0.001000000     1.0470400   -0.0675121    -0.0002705   -0.0009278    -0.0002082   -0.0009354     0.8120021   -0.5566970 
   0.002999900     0.9629421   -0.1943997    -0.0200729   -0.0143891    -0.0210269   -0.0151133     0.0561476   -0.8685147 
   0.004999800     0.8799586   -0.3146147    -0.1201346    0.0022064    -0.1272505    0.0043855    -0.7116286   -0.4369582 
   0.006999700     0.7118279   -0.3905252    -0.2258874    0.2909879    -0.2230868    0.3121180    -0.4138827    0.6500354 
   0.008999600     0.6339478   -0.2999451     0.2354138    0.4945257     0.2457623    0.5005175     0.5042172   -0.0347270 
   0.010999500     0.6639694   -0.3199259     0.4743884    0.2223092     0.4911782    0.2300193    -0.0195738   -0.5120698 
   0.012999400     0.6468902   -0.3833377     0.5029697    0.0076275     0.5246554    0.0045803    -0.4249654   -0.3738600 
   0.014999300     0.6025957   -0.4418648     0.4799631   -0.1528943     0.4978064   -0.1668378    -0.5829262   -0.0990554 
   0.016999200     0.5440354   -0.4880511     0.4305953   -0.2892030     0.4388058   -0.3087988    -0.5662680    0.1671885 
   0.018999100     0.4768866   -0.5190635     0.3551719   -0.4112110     0.3539452   -0.4300025    -0.4340332    0.3680451 
   0.020999000     0.4045960   -0.5327234     0.2505750   -0.5174285     0.2419336   -0.5305964    -0.2368632    0.4765444 
   0.022998900     0.3340737   -0.5266434     0.1132026   -0.6001663     0.1028965   -0.6048993    -0.0218172    0.4834111 
   0.024998800     0.2698585   -0.4790463    -0.0235254   -0.6734658    -0.0686193   -0.6439477     0.1743288    0.4327262 
   0.026998700     0.2251259   -0.4604604    -0.2394404   -0.6390169    -0.2390085   -0.6346611     0.2846557    0.2394653 
   0.028998600     0.1987015   -0.4125826    -0.4229064   -0.5709261    -0.4173442   -0.5705882     0.3134507    0.0547547 
   0.030998500     0.1935566   -0.3677036    -0.5797719   -0.4445943    -0.5737637   -0.4503691     0.2510511   -0.1096161 
   0.032998400     0.2015000   -0.3202466    -0.7019287   -0.3201057    -0.6925359   -0.2768321     0.1399942   -0.2239936 
   0.034998300     0.2201179   -0.3192153    -0.7400423   -0.0834712    -0.7447652   -0.0927292    -0.0282912   -0.2340703 
   0.036998200     0.2335778   -0.3179027    -0.7349830    0.1069685    -0.7428228    0.1025161    -0.1596176   -0.1797665 
   0.038998100     0.2387781   -0.3254746    -0.6838555    0.2818986    -0.6915336    0.2827570    -0.2417491   -0.0774752 
   0.040998000     0.2356620   -0.3376847    -0.5953102    0.4348024    -0.5987819    0.4388282    -0.2670452    0.0446918 
   0.042997900     0.2228804   -0.3499171    -0.4766581    0.5593580    -0.4760448    0.5634517    -0.2357030    0.1607875 
   0.044997800     0.2006159   -0.3426508    -0.3825702    0.6611462    -0.3257935    0.6598711    -0.1737470    0.2682333 
   0.046997700     0.1777088   -0.3597608    -0.1803963    0.7133874    -0.1772170    0.7117438    -0.0554247    0.2941578 
   0.048997600     0.1532989   -0.3541301    -0.0156408    0.7390653    -0.0142643    0.7345758     0.0550250    0.2924003 
   0.050997500     0.1319905   -0.3422773     0.1517114    0.7281407     0.1496180    0.7229722     0.1535559    0.2457474 
   0.052997400     0.1163002   -0.3262133     0.3141409    0.6796029     0.3077968    0.6765336     0.2233171    0.1640291 
   0.054997300     0.1071756   -0.3091400     0.4657888    0.5917799     0.4532982    0.5957323     0.2535526    0.0610463 
   0.056997200     0.1041948   -0.2943301     0.5889721    0.4748701     0.5816996    0.4797831     0.2394910   -0.0423579 
   0.058997100     0.1061975   -0.2841744     0.6832355    0.3294585     0.6791940    0.3370245     0.1855548   -0.1306956 
   0.060997000     0.1101338   -0.2801743     0.7404525    0.1656494     0.7403824    0.1740274     0.1024317   -0.1879844 
   0.062996900     0.1128054   -0.2822226     0.7573864   -0.0054655     0.7605841    0.0014169     0.0056291   -0.2063820 
   0.064996800     0.1115395   -0.2889095     0.7348297   -0.1740233     0.7396210   -0.1695380    -0.0868648   -0.1845050 
   0.066996700     0.1046651   -0.2978088     0.6757460   -0.3310600     0.6801241   -0.3288538    -0.1597120   -0.1291353 
   0.068996600     0.0921561   -0.3060364     0.5850099   -0.4691129     0.5879763   -0.4677352    -0.2020868   -0.0522347 
   0.070996500     0.0747800   -0.3115164     0.4685472   -0.5838063     0.4703664   -0.5815817    -0.2093666    0.0317692 
   0.072996400     0.0539759   -0.3115302     0.3315736   -0.6703575     0.3329432   -0.6661044    -0.1833691    0.1082243 
   0.074996300     0.0321175   -0.3054964     0.1800093   -0.7258810     0.1835304   -0.7199684    -0.1309382    0.1656056 
   0.076996200     0.0119086   -0.2930650     0.0201524   -0.7489061     0.0267937   -0.7426448    -0.0623833    0.1959416 
   0.078996100    -0.0044841   -0.2752909    -0.1415529   -0.7379222    -0.1313335   -0.7329636     0.0102170    0.1962220 
   0.080996000    -0.0155423   -0.2538620    -0.2985796   -0.6924699    -0.2855003   -0.6911457     0.0744772    0.1679345 
   0.082995900    -0.0195765   -0.2312866    -0.4433885   -0.6134033    -0.4297006   -0.6174083     0.1204857    0.1171254 
   0.084995800    -0.0169164   -0.2099513    -0.5677899   -0.5040158    -0.5553444   -0.5127224     0.1404885    0.0540386 
   0.086995700    -0.0091490   -0.1924664    -0.6659438   -0.3686433    -0.6570011   -0.3811395     0.1322350   -0.0103317 
   0.088995600     0.0020984   -0.1808131    -0.7317210   -0.2143873    -0.7269182   -0.2287817     0.0981518   -0.0639830 
   0.090995500     0.0141018   -0.1751905    -0.7613569   -0.0492519    -0.7608501   -0.0633720     0.0453195   -0.0972157 
   0.092995400     0.0244096   -0.1751470    -0.7538031    0.1182547    -0.7560158    0.1056712    -0.0161769   -0.1046464 
   0.094995300     0.0311285   -0.1789447    -0.7088059    0.2783923    -0.7130883    0.2681645    -0.0746844   -0.0851112 
   0.096995200     0.0333953   -0.1848626    -0.6303405    0.4241301    -0.6357056    0.4160438    -0.1189569   -0.0428057 
   0.098995100     0.0310192   -0.1904818    -0.5231306    0.5486767    -0.5282351    0.5414060    -0.1412932    0.0136693 
   0.100995000     0.0233959   -0.1951166    -0.3909928    0.6481502    -0.3977491    0.6409180    -0.1375917    0.0753736 
   0.102994900     0.0151079   -0.1951755    -0.2431255    0.7153439    -0.2517059    0.7084033    -0.1101177    0.1291172 
   0.104994800     0.0063491   -0.1915087    -0.0851781    0.7495870    -0.0956736    0.7441454    -0.0634913    0.1672302 
   0.106994700    -0.0010618   -0.1843150     0.0763396    0.7499176     0.0635256    0.7471013    -0.0060715    0.1838137 
   0.108994600    -0.0056566   -0.1748568     0.2342047    0.7162216     0.2198501    0.7173011     0.0526799    0.1764728 
   0.110994500    -0.0067604   -0.1644439     0.3817651    0.6498890     0.3676116    0.6556801     0.1035578    0.1470693 
   0.112994400    -0.0043292   -0.1547370     0.5122520    0.5536495     0.5001689    0.5636150     0.1383317    0.1010641 
   0.114994300     0.0010272   -0.1469994     0.6192126    0.4313018     0.6104038    0.4443522     0.1519068    0.0461562 
   0.116994200     0.0081378   -0.1424127     0.6973506    0.2884285     0.6929913    0.3031488     0.1428789   -0.0086338 
   0.118994100     0.0154822   -0.1414140     0.7426487    0.1319002     0.7424732    0.1465153     0.1135594   -0.0538169 
   0.120994000     0.0218914   -0.1435932     0.7531411   -0.0302992     0.7564896   -0.0173590     0.0695364   -0.0823995 
   0.122993900     0.0257056   -0.1480823     0.7280225   -0.1907918     0.7335840   -0.1796716     0.0190728   -0.0900098 
   0.124993800     0.0266100   -0.1536900     0.6690492   -0.3415811     0.6758891   -0.3323404    -0.0287817   -0.0759627 
   0.126993700     0.0245688   -0.1591353     0.5794990   -0.4754616     0.5871501   -0.4674921    -0.0652241   -0.0436558 
   0.128993600     0.0200342   -0.1628399     0.4637448   -0.5864175     0.4728534   -0.5793465    -0.0839477   -0.0000077 
   0.130993500     0.0141534   -0.1645929     0.3279783   -0.6700429     0.3383835   -0.6641847    -0.0821657    0.0467205 
   0.132993400     0.0079762   -0.1639872     0.1781310   -0.7232540     0.1903132   -0.7190141    -0.0608793    0.0879116 
   0.134993300     0.0024779   -0.1612750     0.0208015   -0.7435636     0.0348113   -0.7419078    -0.0242051    0.1162091 
   0.136993200    -0.0015199   -0.1571841    -0.1371992   -0.7303119    -0.1219570   -0.7324305     0.0213631    0.1266664 
   0.138993100    -0.0035305   -0.1527792    -0.2887479   -0.6841803    -0.2737437   -0.6902913     0.0675295    0.1173456 
   0.140993000    -0.0037458   -0.1489761    -0.4269939   -0.6069188    -0.4136815   -0.6173642     0.1063666    0.0898498 
   0.142992900    -0.0028184   -0.1466124    -0.5456461   -0.5019624    -0.5358132   -0.5159222     0.1313242    0.0483818 
   0.144992800    -0.0016611   -0.1462124    -0.6396336   -0.3743032    -0.6338465   -0.3900637     0.1377888    0.0000365 
   0.146992700    -0.0013261   -0.1476342    -0.7035673   -0.2294590    -0.7022470   -0.2456966     0.1248033   -0.0474021 
   0.148992600    -0.0026975   -0.1504737    -0.7350441   -0.0746389    -0.7374983   -0.0899833     0.0941872   -0.0865775 
   0.150992500    -0.0063384   -0.1534921    -0.7320350    0.0824386    -0.7374815    0.0690681     0.0508334   -0.1107389 
   0.152992400    -0.0126059   -0.1559818    -0.6964329    0.2349998    -0.7038673    0.2238123     0.0013711   -0.1164775 
   0.154992300    -0.0210890   -0.1568249    -0.6295819    0.3758520    -0.6385842    0.3663355    -0.0462777   -0.1028178 
   0.156992200    -0.0310229   -0.1547487    -0.5351699    0.4988435    -0.5452935    0.4910320    -0.0844943   -0.0723763 
   0.158992100    -0.0412039   -0.1494127    -0.4177937    0.5990465    -0.4289196    0.5929241    -0.1078360   -0.0306193 
   0.160992000    -0.0504864   -0.1408171    -0.2823434    0.6724334    -0.2953164    0.6681488    -0.1133776    0.0157652 
   0.162991900    -0.0574812   -0.1292185    -0.1349034    0.7161185    -0.1494634    0.7143103    -0.1012796    0.0594265 
   0.164991800    -0.0614637   -0.1157983     0.0180735    0.7283777     0.0030430    0.7296146    -0.0744260    0.0939123 
   0.166991700    -0.0617692   -0.1015794     0.1704377    0.7085765     0.1556570    0.7137446    -0.0377149    0.1146245 
   0.168991600    -0.0583398   -0.0878210     0.3158261    0.6573313     0.3022600    0.6664192     0.0023013    0.1192725 
   0.170991500    -0.0516624   -0.0756603     0.4475300    0.5765595     0.4369455    0.5886803     0.0389151    0.1083566 
   0.172991400    -0.0424436   -0.0661563     0.5596457    0.4693940     0.5528472    0.4838882     0.0665873    0.0850000 
   0.174991300    -0.0318306   -0.0598312     0.6468108    0.3406398     0.6438155    0.3561961     0.0814610    0.0540776 
   0.176991200    -0.0209701   -0.0567096     0.7047671    0.1958941     0.7053176    0.2110459     0.0816442    0.0218254 
   0.178991100    -0.0109119   -0.0563957     0.7304503    0.0421739     0.7339637    0.0556003     0.0684877   -0.0057306 
   0.180991000    -0.0023434   -0.0582294     0.7227988   -0.1136925     0.7287652   -0.1016822     0.0454159   -0.0234371 
   0.182990900     0.0043587   -0.0613468     0.6817095   -0.2645447     0.6896920   -0.2536080     0.0175880   -0.0282404 
   0.184990800     0.0091412   -0.0647862     0.6097490   -0.4026701     0.6190303   -0.3937791    -0.0088582   -0.0196709 
   0.186990700     0.0125046   -0.0678751     0.5103696   -0.5219841     0.5207008   -0.5149187    -0.0281110    0.0002106 
   0.188990600     0.0164499   -0.0696996     0.4062276   -0.6051105     0.4149889   -0.6018873    -0.0373277    0.0263966 
   0.190990500     0.0176944   -0.0718554     0.2508959   -0.6836715     0.2642085   -0.6809205    -0.0309862    0.0560401 
   0.192990400     0.0204382   -0.0732310     0.0973980   -0.7211347     0.1119642   -0.7214363    -0.0125608    0.0806817 
   0.194990300     0.0241448   -0.0747395    -0.0574536   -0.7247764    -0.0427467   -0.7288166     0.0154658    0.0960145 
   0.196990200     0.0285914   -0.0771487    -0.2094654   -0.6955714    -0.1956134   -0.7032961     0.0489475    0.0987290 
   0.198990100     0.0334085   -0.0811018    -0.3518315   -0.6346552    -0.3399457   -0.6462275     0.0821350    0.0876139 
   0.200990000     0.0378455   -0.0870193    -0.4779358   -0.5449500    -0.4692238   -0.5592294     0.1093243    0.0637478 
   0.202989900     0.0410309   -0.0949465    -0.5817462   -0.4303666    -0.5770157   -0.4460682     0.1261190    0.0304387 
   0.204989800     0.0420757   -0.1045633    -0.6586040   -0.2967329    -0.6576211   -0.3120663     0.1294884   -0.0074703 
   0.206989700     0.0402563   -0.1152364    -0.7053108   -0.1500493    -0.7073928   -0.1647993     0.1185256   -0.0443475 
   0.208989600     0.0350507   -0.1257522    -0.7189729    0.0024332    -0.7240443   -0.0113687     0.0948580   -0.0749168 
   0.210989500     0.0263886   -0.1350640    -0.7002435    0.1537665    -0.7074770    0.1417938     0.0620081   -0.0947304 
   0.212989400     0.0145661   -0.1419681    -0.6502319    0.2969238    -0.6591063    0.2871925     0.0246881   -0.1013070 
   0.214989300     0.0005326   -0.1454542    -0.5715640    0.4256944    -0.5820648    0.4178014    -0.0115348   -0.0941446 
   0.216989200    -0.0146267   -0.1449324    -0.4685341    0.5345232    -0.4804147    0.5285022    -0.0415124   -0.0752146 
   0.218989100    -0.0295826   -0.1399888    -0.3457693    0.6191767    -0.3591278    0.6155984    -0.0616745   -0.0481391 
   0.220989000    -0.0430657   -0.1306340    -0.2084188    0.6765509    -0.2228380    0.6759041    -0.0702638   -0.0176961 
   0.222988900    -0.0536864   -0.1173877    -0.0625869    0.7042792    -0.0769090    0.7069918    -0.0673710    0.0115590 
   0.224988800    -0.0606615   -0.1015136     0.0857769    0.7014843     0.0726725    0.7072663    -0.0551501    0.0354902 
   0.226988700    -0.0629133   -0.0839386     0.2304344    0.6680855     0.2193412    0.6769251    -0.0369739    0.0512234 
   0.228988600    -0.0604259   -0.0662048     0.3653231    0.6052995     0.3564220    0.6166744    -0.0170104    0.0576348 
   0.230988500    -0.0532119   -0.0495953     0.4843783    0.5158133     0.4784060    0.5284733     0.0009237    0.0556843 
   0.232988400    -0.0416135   -0.0353038     0.5822185    0.4024539     0.5797512    0.4160086     0.0133671    0.0475725 
   0.234988300    -0.0267386   -0.0243275     0.6547722    0.2707283     0.6549934    0.2840647     0.0184403    0.0367933 
   0.236988200    -0.0094552   -0.0175282     0.6977016    0.1262538     0.7003812    0.1386233     0.0159508    0.0272789 
   0.238988100     0.0090721   -0.0152269     0.7090665   -0.0243167     0.7135771   -0.0132778     0.0076660    0.0226619 
   0.240988000     0.0276508   -0.0175141     0.6877728   -0.1745994     0.6942989   -0.1640593    -0.0032153    0.0253934 
   0.242987900     0.0452680   -0.0241730     0.6345653   -0.3167749     0.6433354   -0.3066700    -0.0126352    0.0362732 
   0.244987800     0.0609060   -0.0347852     0.5520282   -0.4441286     0.5632658   -0.4352467    -0.0165016    0.0541886 
   0.246987700     0.0738452   -0.0486157     0.4439665   -0.5505615     0.4577563   -0.5442435    -0.0113836    0.0762016 
   0.248987600     0.0835295   -0.0650715     0.3160260   -0.6310694     0.3313203   -0.6281302     0.0043146    0.0980290 
   0.250987500     0.0895921   -0.0833186     0.1738951   -0.6820388     0.1897953   -0.6830983     0.0304091    0.1149333 
   0.252987400     0.0919573   -0.1026575     0.0250096   -0.7011175     0.0401082   -0.7066001     0.0646326    0.1225100 
   0.254987300     0.0904374   -0.1223375    -0.1239290   -0.6878576    -0.1103123   -0.6974743     0.1032836    0.1175445 
   0.256987200     0.0851242   -0.1417321    -0.2655033   -0.6435843    -0.2548375   -0.6562994     0.1410205    0.0987113 
   0.258987100     0.0761430   -0.1601456    -0.3938275   -0.5711403    -0.3865017   -0.5855143     0.1726310    0.0665801 
   0.260987000     0.0634462   -0.1765658    -0.5028419   -0.4729679    -0.4997086   -0.4883947     0.1934939    0.0236007 
   0.262986900     0.0472198   -0.1909138    -0.5885159   -0.3552035    -0.5889235   -0.3700189     0.1998740   -0.0255468 
   0.264986800     0.0282059   -0.2019294    -0.6467639   -0.2231307    -0.6503473   -0.2361952     0.1902311   -0.0757803 
   0.266986700     0.0068282   -0.2092228    -0.6762080   -0.0827226    -0.6820153   -0.0937717     0.1649593   -0.1211725 
   0.268986600    -0.0160506   -0.2123273    -0.6758325    0.0597242    -0.6831341    0.0504265     0.1264532   -0.1567324 
   0.270986500    -0.0396378   -0.2110027    -0.6464000    0.1979047    -0.6547123    0.1900577     0.0790698   -0.1783890 
   0.272986400    -0.0626145   -0.2048233    -0.5895739    0.3264863    -0.5990386    0.3199614     0.0279712   -0.1841373 
   0.274986300    -0.0841951   -0.1939050    -0.5080170    0.4403175    -0.5190972    0.4350659    -0.0209365   -0.1739432 
   0.276986200    -0.1033246   -0.1785339    -0.4053828    0.5348819    -0.4179506    0.5315985    -0.0623736   -0.1498355 
   0.278986100    -0.1190444   -0.1590901    -0.2857354    0.6067002    -0.2991138    0.6060126    -0.0927906   -0.1157145 
   0.280986000    -0.1303865   -0.1364966    -0.1538175    0.6525440    -0.1670386    0.6549820    -0.1095379   -0.0765643 
   0.282985900    -0.1365303   -0.1120755    -0.0154522    0.6707161    -0.0271655    0.6759521    -0.1126699   -0.0373931 
   0.284985800    -0.1369461   -0.0870163     0.1243935    0.6600856     0.1145851    0.6677899    -0.1039181   -0.0028902 
   0.286985700    -0.1316179   -0.0626907     0.2597734    0.6205720     0.2522940    0.6300257    -0.0865855    0.0232151 
   0.288985600    -0.1208628   -0.0405783     0.3846798    0.5533960     0.3794256    0.5643768    -0.0649724    0.0393041 
   0.290985500    -0.1055186   -0.0221796     0.4934340    0.4609711     0.4901340    0.4728656    -0.0435036    0.0455787 
   0.292985400    -0.0865409   -0.0083395     0.5805736    0.3470573     0.5792239    0.3594282    -0.0261402    0.0437926 
   0.294985300    -0.0650293    0.0003946     0.6416624    0.2164497     0.6425937    0.2293414    -0.0154999    0.0372111 
   0.296985200    -0.0425228    0.0034333     0.6734175    0.0752639     0.6765653    0.0875610    -0.0124206    0.0298778 
   0.298985100    -0.0206556    0.0009585     0.6739733   -0.0701113     0.6794423   -0.0587129    -0.0156999    0.0258222 
   0.300985000    -0.0006908   -0.0068011     0.6426682   -0.2122766     0.6505628   -0.2025567    -0.0225500    0.0280284 
   0.302984900     0.0162752   -0.0190660     0.5812559   -0.3442314     0.5913439   -0.3362132    -0.0289500    0.0378874 
   0.304984800     0.0294954   -0.0348539     0.4926566   -0.4591957     0.5047650   -0.4538145    -0.0305853    0.0545855 
   0.306984700     0.0382914   -0.0529679     0.3814528   -0.5518224     0.3949139   -0.5495916    -0.0238337    0.0754171 
   0.308984600     0.0424603   -0.0722952     0.2539116   -0.6173986     0.2676956   -0.6191234    -0.0064588    0.0960013 
   0.310984500     0.0421110   -0.0918970     0.1161570   -0.6534961     0.1290700   -0.6587058     0.0215518    0.1112540 
   0.312984400     0.0374541   -0.1110470    -0.0248613   -0.6588370    -0.0139925   -0.6670942     0.0573432    0.1160413 
   0.314984300     0.0287765   -0.1285883    -0.1624140   -0.6339280    -0.1538552   -0.6444578     0.0966274    0.1068885 
