! MS46122B
! 2250307/22442219
! 2/13/2026 1:35:26 PM
! C:\USERS\SPARKY\DOCUMENTS\VNA_DATA\FEB13_2026\THRU_PORT1_300K.S2P
! CHANNEL.1
! TR.MEASUREMENT
! RAW.DATA
# GHZ S RI R 50.0
! FREQ.GHZ         S11RE         S11IM         S21RE         S21IM         S12RE         S12IM         S22RE         S22IM         
!; PortSelection: Port_12
   0.001000000     1.0468410   -0.0677039    -0.0002520   -0.0009237    -0.0001853   -0.0009370     0.8120751   -0.5568123 
   0.002999900     0.9628343   -0.1943433    -0.0199683   -0.0144775    -0.0209165   -0.0152116     0.0559778   -0.8684077 
   0.004999800     0.8796817   -0.3144372    -0.1200270    0.0020134    -0.1271672    0.0041463    -0.7116598   -0.4367038 
   0.006999700     0.7113965   -0.3895994    -0.2251714    0.2907287    -0.2223944    0.3119426    -0.4147550    0.6496726 
   0.008999600     0.6346918   -0.2986809     0.2355994    0.4922874     0.2460839    0.4984191     0.5014348   -0.0311950 
   0.010999500     0.6649663   -0.3192100     0.4728152    0.2203389     0.4897735    0.2280173    -0.0176419   -0.5062391 
   0.012999400     0.6479068   -0.3827080     0.5007002    0.0063280     0.5223446    0.0031985    -0.4190467   -0.3700363 
   0.014999300     0.6038864   -0.4412675     0.4770477   -0.1534647     0.4949107   -0.1674089    -0.5752970   -0.0984363 
   0.016999200     0.5456522   -0.4875276     0.4272358   -0.2889100     0.4354870   -0.3084171    -0.5584089    0.1640857 
   0.018999100     0.4789167   -0.5187308     0.3515140   -0.4097264     0.3504406   -0.4284718    -0.4276919    0.3614789 
   0.020999000     0.4070818   -0.5328236     0.2470246   -0.5145448     0.2387105   -0.5277618    -0.2335753    0.4673985 
   0.022998900     0.3371174   -0.5275452     0.1104186   -0.5957738     0.1003087   -0.6007007    -0.0224607    0.4732649 
   0.024998800     0.2729516   -0.4807771    -0.0251382   -0.6674831    -0.0699525   -0.6386507     0.1692275    0.4224373 
   0.026998700     0.2280881   -0.4635793    -0.2384182   -0.6324958    -0.2382276   -0.6286240     0.2763205    0.2328414 
   0.028998600     0.2008175   -0.4170585    -0.4194122   -0.5649234    -0.4143674   -0.5648507     0.3034405    0.0521534 
   0.030998500     0.1941618   -0.3730874    -0.5741150   -0.4400940    -0.5686564   -0.4459366     0.2414435   -0.1080126 
   0.032998400     0.2004021   -0.3257729    -0.6950489   -0.3176312    -0.6861094   -0.2744325     0.1319054   -0.2190241 
   0.034998300     0.2171902   -0.3243853    -0.7332512   -0.0838559    -0.7379720   -0.0926155    -0.0328315   -0.2278152 
   0.036998200     0.2290431   -0.3221666    -0.7290549    0.1046623    -0.7369449    0.1004367    -0.1614561   -0.1735267 
   0.038998100     0.2334586   -0.3283003    -0.6792637    0.2782799    -0.6867646    0.2791744    -0.2416563   -0.0721260 
   0.040998000     0.2296788   -0.3390820    -0.5919290    0.4304748    -0.5956944    0.4345379    -0.2658556    0.0488697 
   0.042997900     0.2169523   -0.3497910    -0.4748472    0.5547618    -0.4742992    0.5589899    -0.2340935    0.1638657 
   0.044997800     0.1950761   -0.3413177    -0.3816324    0.6566068    -0.3251825    0.6554638    -0.1720708    0.2706716 
   0.046997700     0.1725195   -0.3570262    -0.1805411    0.7091691    -0.1775552    0.7077787    -0.0539774    0.2959078 
   0.048997600     0.1488233   -0.3503503    -0.0164448    0.7352502    -0.0151642    0.7310120     0.0563815    0.2939534 
   0.050997500     0.1284021   -0.3376024     0.1504174    0.7247365     0.1482693    0.7198491     0.1548605    0.2472499 
   0.052997400     0.1137526   -0.3209105     0.3124353    0.6765096     0.3061709    0.6737512     0.2247395    0.1655094 
   0.054997300     0.1059032   -0.3033885     0.4635863    0.5890517     0.4512818    0.5933213     0.2552359    0.0625261 
   0.056997200     0.1041326   -0.2884437     0.5864670    0.4723634     0.5794292    0.4775289     0.2415159   -0.0410110 
   0.058997100     0.1073821   -0.2783902     0.6803014    0.3272934     0.6765488    0.3350688     0.1879914   -0.1295844 
   0.060997000     0.1124626   -0.2747416     0.7370005    0.1638317     0.7373247    0.1724641     0.1052397   -0.1872790 
   0.062996900     0.1162454   -0.2773719     0.7534775   -0.0065850     0.7570335    0.0002976     0.0088616   -0.2062700 
   0.064996800     0.1159344   -0.2848360     0.7306013   -0.1744124     0.7357339   -0.1699840    -0.0833971   -0.1852175 
   0.066996700     0.1097513   -0.2946210     0.6711866   -0.3305591     0.6760652   -0.3285483    -0.1562371   -0.1308241 
   0.068996600     0.0977765   -0.3039242     0.5804601   -0.4675594     0.5837572   -0.4665082    -0.1989337   -0.0549481 
   0.070996500     0.0807244   -0.3104510     0.4641867   -0.5812243     0.4663497   -0.5793329    -0.2068962    0.0280377 
   0.072996400     0.0601424   -0.3115910     0.3276964   -0.6666498     0.3292889   -0.6628730    -0.1819913    0.1036456 
   0.074996300     0.0382359   -0.3068599     0.1769775   -0.7211918     0.1805416   -0.7158340    -0.1309811    0.1605652 
   0.076996200     0.0177370   -0.2956415     0.0182272   -0.7434036     0.0247414   -0.7376425    -0.0640652    0.1908594 
   0.078996100     0.0008874   -0.2791149    -0.1421045   -0.7318389    -0.1321569   -0.7273766     0.0068947    0.1917161 
   0.080996000    -0.0109999   -0.2588654    -0.2975672   -0.6862839    -0.2848929   -0.6852640     0.0697102    0.1645679 
   0.082995900    -0.0162390   -0.2372446    -0.4407673   -0.6074777    -0.4275639   -0.6116226     0.1146674    0.1154743 
   0.084995800    -0.0148890   -0.2165652    -0.5636469   -0.4988896    -0.5516397   -0.5074812     0.1342540    0.0542897 
   0.086995700    -0.0086008   -0.1996454    -0.6605960   -0.3647103    -0.6520076   -0.3770005     0.1263489   -0.0079701 
   0.088995600     0.0009454   -0.1877329    -0.7255357   -0.2119781    -0.7209070   -0.2261986     0.0933608   -0.0597895 
   0.090995500     0.0113853   -0.1816447    -0.7546700   -0.0485005    -0.7543334   -0.0624989     0.0421031   -0.0916600 
   0.092995400     0.0203285   -0.1808534    -0.7473059    0.1172739    -0.7496014    0.1047404    -0.0174091   -0.0984388 
   0.094995300     0.0259987   -0.1836248    -0.7028847    0.2758346    -0.7072261    0.2656339    -0.0739317   -0.0788639 
   0.096995200     0.0274580   -0.1881291    -0.6254101    0.4203333    -0.6308320    0.4122581    -0.1163542   -0.0373105 
   0.098995100     0.0245963   -0.1923078    -0.5193870    0.5439231    -0.5246280    0.5367458    -0.1372849    0.0179717 
   0.100995000     0.0169052   -0.1955136    -0.3885122    0.6429145    -0.3954866    0.6358411    -0.1326925    0.0781652 
   0.102994900     0.0088169   -0.1942296    -0.2419233    0.7098901    -0.2505969    0.7031057    -0.1048497    0.1303899 
   0.104994800     0.0004288   -0.1892884    -0.0852196    0.7442337    -0.0960584    0.7388448    -0.0582880    0.1670632 
   0.106994700    -0.0061793   -0.1810540     0.0751560    0.7447389     0.0623060    0.7423937    -0.0013109    0.1823763 
   0.108994600    -0.0099163   -0.1706974     0.2321313    0.7115879     0.2179872    0.7131410     0.0567629    0.1739858 
   0.110994500    -0.0100199   -0.1596485     0.3789789    0.6458831     0.3650098    0.6520530     0.1068616    0.1438500 
   0.112994400    -0.0065011   -0.1493790     0.5088140    0.5503379     0.4970423    0.5606467     0.1407351    0.0973390 
   0.114994300    -0.0000133   -0.1414523     0.6152381    0.4287828     0.6068820    0.4420085     0.1534201    0.0420864 
   0.116994200     0.0081864   -0.1369767     0.6930577    0.2865801     0.6890641    0.3014209     0.1435497   -0.0128214 
   0.118994100     0.0166042   -0.1361995     0.7381080    0.1309298     0.7384307    0.1455467     0.1133756   -0.0580107 
   0.120994000     0.0239203   -0.1387505     0.7485022   -0.0304312     0.7522119   -0.0176403     0.0685727   -0.0865319 
   0.122993900     0.0286198   -0.1438760     0.7233974   -0.1900928     0.7292489   -0.1791846     0.0173853   -0.0939247 
   0.124993800     0.0302094   -0.1501398     0.6645449   -0.3399559     0.6716522   -0.3310548    -0.0311805   -0.0796594 
   0.126993700     0.0286980   -0.1564339     0.5753484   -0.4729620     0.5831317   -0.4653626    -0.0683240   -0.0469602 
   0.128993600     0.0244802   -0.1611156     0.4601188   -0.5830218     0.4691983   -0.5763577    -0.0877328   -0.0028582 
   0.130993500     0.0187666   -0.1637807     0.3250611   -0.6659241     0.3353336   -0.6603559    -0.0866608    0.0444624 
   0.132993400     0.0125508   -0.1641366     0.1761042   -0.7184904     0.1881147   -0.7144939    -0.0660689    0.0864900 
   0.134993300     0.0068972   -0.1623430     0.0197896   -0.7383573     0.0335779   -0.7368877    -0.0299745    0.1158134 
   0.136993200     0.0024562   -0.1590197    -0.1370221   -0.7249341    -0.1220831   -0.7269610     0.0151560    0.1275193 
   0.138993100    -0.0001658   -0.1552797    -0.2873544   -0.6788540    -0.2726608   -0.6849265     0.0612437    0.1196977 
   0.140993000    -0.0010542   -0.1519977    -0.4243480   -0.6019414    -0.4113241   -0.6123002     0.1003705    0.0938412 
   0.142992900    -0.0009172   -0.1499719    -0.5419491   -0.4976060    -0.5322198   -0.5115241     0.1259877    0.0540699 
   0.144992800    -0.0004805   -0.1497906    -0.6350153   -0.3709791    -0.6292871   -0.3866870     0.1337692    0.0072308 
   0.146992700    -0.0008889   -0.1512122    -0.6982738   -0.2272543    -0.6969724   -0.2435316     0.1225151   -0.0389706 
   0.148992600    -0.0029326   -0.1537360    -0.7292715   -0.0738261    -0.7318983   -0.0891323     0.0940659   -0.0773993 
   0.150992500    -0.0071436   -0.1564155    -0.7264047    0.0820604    -0.7319086    0.0686212     0.0531136   -0.1013866 
   0.152992400    -0.0138530   -0.1585907    -0.6910490    0.2333615    -0.6987402    0.2221256     0.0060457   -0.1076979 
   0.154992300    -0.0226221   -0.1589812    -0.6247724    0.3731203    -0.6340243    0.3635266    -0.0393968   -0.0952350 
   0.156992200    -0.0326786   -0.1564448    -0.5311092    0.4952741    -0.5415488    0.4873882    -0.0757756   -0.0665787 
   0.158992100    -0.0429048   -0.1507068    -0.4146472    0.5946748    -0.4260906    0.5887076    -0.0977871   -0.0271074 
   0.160992000    -0.0521581   -0.1417831    -0.2802148    0.6675097    -0.2934330    0.6635107    -0.1026515    0.0167687 
   0.162991900    -0.0590827   -0.1299556    -0.1338588    0.7109395    -0.1484617    0.7093936    -0.0906052    0.0577872 
   0.164991800    -0.0629701   -0.1163576     0.0179435    0.7231345     0.0030005    0.7247905    -0.0644084    0.0898197 
   0.166991700    -0.0632137   -0.1020101     0.1693678    0.7034358     0.1546354    0.7090117    -0.0288563    0.1083352 
   0.168991600    -0.0597428   -0.0881797     0.3136725    0.6525379     0.3003616    0.6619703     0.0094101    0.1111835 
   0.170991500    -0.0530694   -0.0759731     0.4444667    0.5722515     0.4342194    0.5846757     0.0440111    0.0989347 
   0.172991400    -0.0439150   -0.0664310     0.5556411    0.4658571     0.5492915    0.4804774     0.0695303    0.0747362 
   0.174991300    -0.0333937   -0.0600399     0.6421223    0.3380477     0.6395457    0.3535480     0.0820848    0.0435233 
   0.176991200    -0.0226420   -0.0567954     0.6996877    0.1942727     0.7005605    0.2092885     0.0801230    0.0114104 
   0.178991100    -0.0127014   -0.0563122     0.7249744    0.0417475     0.7288613    0.0549419     0.0648633   -0.0155447 
   0.180991000    -0.0043177   -0.0579231     0.7173349   -0.1128980     0.7235312   -0.1011861     0.0399087   -0.0323166 
   0.182990900     0.0022973   -0.0607589     0.6765897   -0.2625638     0.6845765   -0.2519938     0.0103870   -0.0358661 
   0.184990800     0.0070785   -0.0638796     0.6053482   -0.3995557     0.6142617   -0.3907804    -0.0174291   -0.0258426 
   0.186990700     0.0104410   -0.0665971     0.5065525   -0.5180361     0.5168836   -0.5111535    -0.0377687   -0.0042712 
   0.188990600     0.0144543   -0.0681160     0.4033579   -0.6004678     0.4120100   -0.5973850    -0.0477538    0.0234827 
   0.190990500     0.0159034   -0.0697938     0.2493063   -0.6784760     0.2624183   -0.6758859    -0.0418844    0.0553790 
   0.192990400     0.0189034   -0.0707519     0.0969881   -0.7157007     0.1114875   -0.7161667    -0.0236423    0.0822453 
   0.194990300     0.0229605   -0.0718770    -0.0567052   -0.7195132    -0.0420829   -0.7235817     0.0046601    0.0997929 
   0.196990200     0.0278660   -0.0739188    -0.2075886   -0.6905823    -0.1937201   -0.6984677     0.0387611    0.1047565 
   0.198990100     0.0332221   -0.0775682    -0.3488200   -0.6305020    -0.3371000   -0.6419583     0.0731587    0.0957316 
   0.200990000     0.0382772   -0.0832733    -0.4742312   -0.5414446    -0.4655267   -0.5558202     0.1020310    0.0738659 
   0.202989900     0.0421768   -0.0911307    -0.5774601   -0.4279458    -0.5727839   -0.4436149     0.1208657    0.0422102 
   0.204989800     0.0439754   -0.1008134    -0.6539594   -0.2950785    -0.6530920   -0.3106863     0.1268272    0.0053933 
   0.206989700     0.0430113   -0.1116923    -0.7005498   -0.1495554    -0.7028525   -0.1644104     0.1187518   -0.0308531 
   0.208989600     0.0385878   -0.1226043    -0.7144977    0.0022310    -0.7196319   -0.0119025     0.0980936   -0.0614974 
   0.210989500     0.0307341   -0.1325046    -0.6959276    0.1524671    -0.7034165    0.1404003     0.0682444   -0.0820883 
   0.212989400     0.0195673   -0.1402221    -0.6462811    0.2948273    -0.6555166    0.2851113     0.0337487   -0.0902006 
   0.214989300     0.0060395   -0.1446526    -0.5680431    0.4230231    -0.5789322    0.4151758    -0.0001916   -0.0852549 
   0.216989200    -0.0087693   -0.1452050    -0.4656756    0.5312359    -0.4778226    0.5254351    -0.0284352   -0.0689787 
   0.218989100    -0.0236159   -0.1415340    -0.3434997    0.6153940    -0.3571396    0.6121381    -0.0474827   -0.0449507 
   0.220989000    -0.0372823   -0.1334831    -0.2069348    0.6723966    -0.2214532    0.6720988    -0.0556595   -0.0177068 
   0.222988900    -0.0483832   -0.1215724    -0.0619660    0.6998333    -0.0762395    0.7029436    -0.0531554    0.0083786 
   0.224988800    -0.0560356   -0.1068625     0.0854382    0.6968759     0.0726003    0.7030738    -0.0420019    0.0293258 
   0.226988700    -0.0593990   -0.0904172     0.2292441    0.6635378     0.2183696    0.6726450    -0.0255298    0.0424172 
   0.228988600    -0.0582235   -0.0735278     0.3630993    0.6010057     0.3545882    0.6126136    -0.0077537    0.0467448 
   0.230988500    -0.0525576   -0.0575129     0.4812534    0.5119312     0.4755881    0.5247682     0.0076292    0.0431498 
   0.232988400    -0.0426952   -0.0434761     0.5782726    0.3994738     0.5760715    0.4129654     0.0172442    0.0340328 
   0.234988300    -0.0295984   -0.0323867     0.6500933    0.2686951     0.6506154    0.2818742     0.0193857    0.0228620 
   0.236988200    -0.0141078   -0.0249932     0.6926644    0.1254041     0.6955384    0.1374199     0.0140629    0.0135716 
   0.238988100     0.0027281   -0.0217528     0.7038676   -0.0241154     0.7085681   -0.0131972     0.0031311    0.0096621 
   0.240988000     0.0199152   -0.0226897     0.6828235   -0.1730106     0.6894440   -0.1627259    -0.0102361    0.0136081 
   0.242987900     0.0363710   -0.0276906     0.6302106   -0.3139342     0.6389894   -0.3042025    -0.0217251    0.0261151 
   0.244987800     0.0512782   -0.0363600     0.5484318   -0.4404654     0.5597117   -0.4318630    -0.0274079    0.0459922 
   0.246987700     0.0639027   -0.0481161     0.4414290   -0.5462196     0.4551661   -0.5401536    -0.0236930    0.0702526 
   0.248987600     0.0737537   -0.0624405     0.3146894   -0.6264441     0.3298821   -0.6237036    -0.0088695    0.0946465 
   0.250987500     0.0804496   -0.0785904     0.1737490   -0.6774917     0.1894361   -0.6786304     0.0167481    0.1141808 
   0.252987400     0.0838144   -0.0959534     0.0257698   -0.6968018     0.0408373   -0.7023826     0.0509827    0.1244967 
   0.254987300     0.0838324   -0.1140162    -0.1221659   -0.6842046    -0.1087296   -0.6936886     0.0901472    0.1223185 
   0.256987200     0.0803342   -0.1320433    -0.2632028   -0.6404632    -0.2526148   -0.6532268     0.1291257    0.1060232 
   0.258987100     0.0734472   -0.1496019    -0.3912759   -0.5686464    -0.3838841   -0.5830917     0.1623857    0.0761948 
   0.260987000     0.0629571   -0.1656175    -0.5001504   -0.4711115    -0.4968555   -0.4866775     0.1853982    0.0352414 
   0.262986900     0.0491458   -0.1798421    -0.5854734   -0.3539299    -0.5860369   -0.3688952     0.1943769   -0.0124458 
   0.264986800     0.0323143   -0.1915224    -0.6439232   -0.2222332    -0.6475794   -0.2355133     0.1875707   -0.0616833 
   0.266986700     0.0130283   -0.1997820    -0.6733205   -0.0822401    -0.6793464   -0.0934965     0.1653146   -0.1068585 
   0.268986600    -0.0079094   -0.2043064    -0.6729677    0.0598348    -0.6805186    0.0504294     0.1297930   -0.1427466 
   0.270986500    -0.0296718   -0.2046726    -0.6434231    0.1976881    -0.6521068    0.1898193     0.0853039   -0.1654933 
   0.272986400    -0.0516628   -0.2007373    -0.5866249    0.3257563    -0.5962973    0.3193642     0.0368780   -0.1728642 
   0.274986300    -0.0725357   -0.1921108    -0.5049451    0.4392223    -0.5162916    0.4341226    -0.0099030   -0.1648793 
   0.276986200    -0.0914258   -0.1791764    -0.4023168    0.5331590    -0.4151489    0.5301740    -0.0497005   -0.1434099 
   0.278986100    -0.1073261   -0.1623540    -0.2828892    0.6042051    -0.2963773    0.6038610    -0.0790976   -0.1122223 
   0.280986000    -0.1193751   -0.1421205    -0.1514511    0.6493830    -0.1645890    0.6522280    -0.0955539   -0.0761216 
   0.282985900    -0.1269240   -0.1198662    -0.0135789    0.6668630    -0.0252267    0.6724669    -0.0990787   -0.0399619 
   0.284985800    -0.1290869   -0.0967790     0.1254209    0.6555915     0.1157485    0.6636374    -0.0914480   -0.0083526 
   0.286985700    -0.1259536   -0.0740041     0.2597771    0.6157951     0.2524957    0.6254461    -0.0758028    0.0153006 
   0.288985600    -0.1176783   -0.0530634     0.3835080    0.5484914     0.3784457    0.5596851    -0.0563682    0.0295004 
   0.290985500    -0.1050236   -0.0351278     0.4909073    0.4563931     0.4878770    0.4683643    -0.0373836    0.0343840 
   0.292985400    -0.0888288   -0.0212168     0.5768605    0.3431332     0.5759041    0.3555125    -0.0226821    0.0318333 
   0.294985300    -0.0702270   -0.0119204     0.6370697    0.2135292     0.6382821    0.2264186    -0.0146431    0.0251583 
   0.296985200    -0.0502040   -0.0074911     0.6681048    0.0737219     0.6715837    0.0858569    -0.0140023    0.0182848 
   0.298985100    -0.0304996   -0.0081212     0.6686089   -0.0702918     0.6741327   -0.0590774    -0.0194724    0.0151282 
   0.300985000    -0.0122619   -0.0135252     0.6374113   -0.2110134     0.6454465   -0.2014755    -0.0281077    0.0186021 
   0.302984900     0.0035398   -0.0230706     0.5765567   -0.3417080     0.5867736   -0.3339621    -0.0359886    0.0299093 
   0.304984800     0.0161789   -0.0359528     0.4889176   -0.4556962     0.5009909   -0.4505696    -0.0387386    0.0483306 
   0.306984700     0.0251030   -0.0511690     0.3788351   -0.5476506     0.3921974   -0.5457309    -0.0327871    0.0708966 
   0.308984600     0.0300909   -0.0677722     0.2523567   -0.6131880     0.2660635   -0.6149585    -0.0159122    0.0932696 
   0.310984500     0.0311203   -0.0848915     0.1156635   -0.6492307     0.1284832   -0.6545333     0.0118924    0.1103569 
   0.312984400     0.0283163   -0.1018582    -0.0245293   -0.6549256    -0.0136643   -0.6631678     0.0478871    0.1170402 
   0.314984300     0.0218505   -0.1180067    -0.1614819   -0.6304155    -0.1528599   -0.6409389     0.0875943    0.1096594 
