! MS46122B
! 2250307/22442219
! 2/13/2026 1:51:09 PM
! C:\USERS\SPARKY\DOCUMENTS\VNA_DATA\FEB13_2026\THRU_PORT4_300K.S2P
! CHANNEL.1
! TR.MEASUREMENT
! RAW.DATA
# GHZ S RI R 50.0
! FREQ.GHZ         S11RE         S11IM         S21RE         S21IM         S12RE         S12IM         S22RE         S22IM         
!; PortSelection: Port_12
   0.001000000     1.0469900   -0.0674462    -0.0002674   -0.0009263    -0.0002012   -0.0009379     0.8120637   -0.5568884 
   0.002999900     0.9628541   -0.1943438    -0.0200682   -0.0143826    -0.0210124   -0.0151086     0.0560933   -0.8684749 
   0.004999800     0.8798804   -0.3145416    -0.1201262    0.0021914    -0.1272501    0.0043508    -0.7116597   -0.4367574 
   0.006999700     0.7118114   -0.3903319    -0.2257491    0.2910382    -0.2229589    0.3121763    -0.4137174    0.6500235 
   0.008999600     0.6341455   -0.2997286     0.2356090    0.4941561     0.2459534    0.5000688     0.5037139   -0.0347685 
   0.010999500     0.6641517   -0.3198935     0.4741251    0.2219013     0.4908548    0.2296196    -0.0197797   -0.5112382 
   0.012999400     0.6469611   -0.3833990     0.5025975    0.0073994     0.5242401    0.0043637    -0.4243455   -0.3731401 
   0.014999300     0.6027763   -0.4419017     0.4795365   -0.1529065     0.4973059   -0.1668642    -0.5820568   -0.0986103 
   0.016999200     0.5441709   -0.4881233     0.4301808   -0.2891637     0.4383418   -0.3086236    -0.5652859    0.1672030 
   0.018999100     0.4769976   -0.5191644     0.3547750   -0.4110145     0.3535250   -0.4297353    -0.4330572    0.3675824 
   0.020999000     0.4046631   -0.5329073     0.2502102   -0.5171784     0.2415571   -0.5302512    -0.2361079    0.4757184 
   0.022998900     0.3340985   -0.5268683     0.1128941   -0.5997996     0.1026508   -0.6044410    -0.0214110    0.4824003 
   0.024998800     0.2698656   -0.4792496    -0.0237541   -0.6729871    -0.0688774   -0.6435159     0.1743369    0.4315205 
   0.026998700     0.2249837   -0.4606765    -0.2394880   -0.6385113    -0.2390249   -0.6341334     0.2842844    0.2384100 
   0.028998600     0.1984811   -0.4127924    -0.4228992   -0.5704190    -0.4172562   -0.5700320     0.3127360    0.0539323 
   0.030998500     0.1932452   -0.3678620    -0.5796077   -0.4441316    -0.5735536   -0.4498928     0.2502303   -0.1101359 
   0.032998400     0.2010989   -0.3202635    -0.7017123   -0.3196071    -0.6922532   -0.2764329     0.1390460   -0.2242378 
   0.034998300     0.2196913   -0.3191024    -0.7397389   -0.0830598    -0.7442904   -0.0922233    -0.0291720   -0.2339377 
   0.036998200     0.2331416   -0.3176749    -0.7345852    0.1073698    -0.7423905    0.1028762    -0.1603811   -0.1794354 
   0.038998100     0.2384609   -0.3250880    -0.6834252    0.2822323    -0.6909890    0.2830165    -0.2422517   -0.0769846 
   0.040998000     0.2352716   -0.3372097    -0.5945498    0.4351360    -0.5981564    0.4390320    -0.2673748    0.0452304 
   0.042997900     0.2227548   -0.3492705    -0.4760309    0.5594890    -0.4754079    0.5636455    -0.2358164    0.1613484 
   0.044997800     0.2006228   -0.3420113    -0.3817994    0.6612840    -0.3249889    0.6598478    -0.1737065    0.2686879 
   0.046997700     0.1779078   -0.3590651    -0.1795347    0.7131928    -0.1764391    0.7115426    -0.0553044    0.2944058 
   0.048997600     0.1536731   -0.3534602    -0.0147978    0.7386934    -0.0134493    0.7342191     0.0551267    0.2925220 
   0.050997500     0.1325629   -0.3416843     0.1525501    0.7274910     0.1503854    0.7223513     0.1536115    0.2457093 
   0.052997400     0.1170444   -0.3257675     0.3149100    0.6787130     0.3084958    0.6756513     0.2231704    0.1639288 
   0.054997300     0.1080879   -0.3089144     0.4661673    0.5907512     0.4537397    0.5946994     0.2532835    0.0610171 
   0.056997200     0.1051397   -0.2943076     0.5891384    0.4736084     0.5818965    0.4785421     0.2390532   -0.0422682 
   0.058997100     0.1071564   -0.2844397     0.6830302    0.3281992     0.6789892    0.3357291     0.1850764   -0.1303955 
   0.060997000     0.1109895   -0.2806820     0.7399328    0.1644410     0.7398058    0.1728273     0.1020140   -0.1874109 
   0.062996900     0.1135382   -0.2829846     0.7565544   -0.0064471     0.7597126    0.0003756     0.0053944   -0.2056493 
   0.064996800     0.1121196   -0.2898090     0.7337888   -0.1747492     0.7385231   -0.1703033    -0.0868239   -0.1836288 
   0.066996700     0.1049838   -0.2988217     0.6745587   -0.3315060     0.6788903   -0.3293413    -0.1593476   -0.1282212 
   0.068996600     0.0922032   -0.3071190     0.5837685   -0.4692324     0.5867109   -0.4678899    -0.2014508   -0.0514551 
   0.070996500     0.0745253   -0.3125205     0.4672692   -0.5836900     0.4691300   -0.5813891    -0.2084537    0.0323058 
   0.072996400     0.0534670   -0.3125026     0.3303921   -0.6699930     0.3318065   -0.6656484    -0.1823327    0.1084627 
   0.074996300     0.0314065   -0.3063506     0.1789695   -0.7252800     0.1825608   -0.7193673    -0.1299228    0.1655588 
   0.076996200     0.0110150   -0.2937237     0.0192608   -0.7481237     0.0259574   -0.7418794    -0.0614742    0.1956071 
   0.078996100    -0.0054762   -0.2757647    -0.1422282   -0.7369729    -0.1319939   -0.7320762     0.0109995    0.1956206 
   0.080996000    -0.0166549   -0.2541063    -0.2990951   -0.6914259    -0.2859111   -0.6901616     0.0750025    0.1671895 
   0.082995900    -0.0207681   -0.2312610    -0.4436505   -0.6123362    -0.4299669   -0.6163646     0.1207638    0.1163626 
   0.084995800    -0.0180674   -0.2096656    -0.5678834   -0.5029383    -0.5554113   -0.5116071     0.1405293    0.0532605 
   0.086995700    -0.0102133   -0.1919215    -0.6658831   -0.3675454    -0.6569431   -0.3800525     0.1320712   -0.0110117 
   0.088995600     0.0011525   -0.1800269    -0.7314715   -0.2132587    -0.7266756   -0.2277199     0.0978486   -0.0645158 
   0.090995500     0.0133368   -0.1741467    -0.7608294   -0.0481753    -0.7603751   -0.0623109     0.0448910   -0.0975840 
   0.092995400     0.0238763   -0.1739791    -0.7531372    0.1192408    -0.7553425    0.1066280    -0.0166026   -0.1048076 
   0.094995300     0.0308311   -0.1776438    -0.7079052    0.2792941    -0.7122093    0.2689918    -0.0750289   -0.0851413 
   0.096995200     0.0333875   -0.1834918    -0.6292499    0.4248349    -0.6346326    0.4167831    -0.1191429   -0.0427051 
   0.098995100     0.0312943   -0.1890624    -0.5219548    0.5491490    -0.5268951    0.5419671    -0.1413221    0.0137928 
   0.100995000     0.0240418   -0.1937801    -0.3896550    0.6483547    -0.3964602    0.6412488    -0.1374978    0.0754567 
   0.102994900     0.0160300   -0.1940059    -0.2416583    0.7152623    -0.2502517    0.7084717    -0.1099145    0.1290901 
   0.104994800     0.0075519   -0.1905151    -0.0836540    0.7492592    -0.0941515    0.7438276    -0.0632403    0.1670034 
   0.106994700     0.0003890   -0.1835892     0.0777264    0.7491176     0.0649921    0.7464656    -0.0058651    0.1833863 
   0.108994600    -0.0040523   -0.1744708     0.2355309    0.7152074     0.2213038    0.7163594     0.0527421    0.1758627 
   0.110994500    -0.0050717   -0.1644283     0.3828392    0.6485304     0.3687753    0.6542997     0.1033709    0.1463251 
   0.112994400    -0.0026248   -0.1551215     0.5130380    0.5520152     0.5009714    0.5619869     0.1378718    0.1003273 
   0.114994300     0.0026373   -0.1477671     0.6195275    0.4295201     0.6108322    0.4425196     0.1511566    0.0455206 
   0.116994200     0.0095656   -0.1435495     0.6972378    0.2865157     0.6929538    0.3012283     0.1418780   -0.0090112 
   0.118994100     0.0165954   -0.1428717     0.7420866    0.1300386     0.7419348    0.1446501     0.1124062   -0.0538936 
   0.120994000     0.0226717   -0.1452906     0.7521633   -0.0318843     0.7554818   -0.0190685     0.0683398   -0.0821235 
   0.122993900     0.0260749   -0.1499301     0.7266653   -0.1922607     0.7321869   -0.1810950     0.0180131   -0.0893534 
   0.124993800     0.0265369   -0.1556319     0.6673512   -0.3426248     0.6741756   -0.3333773    -0.0296419   -0.0750250 
   0.126993700     0.0240686   -0.1609725     0.5776576   -0.4761153     0.5853082   -0.4680713    -0.0657818   -0.0425189 
   0.128993600     0.0191419   -0.1645224     0.4618715   -0.5866366     0.4709230   -0.5796037    -0.0841429    0.0011812 
   0.130993500     0.0129376   -0.1660397     0.3262250   -0.6698247     0.3365728   -0.6639004    -0.0820391    0.0478884 
   0.132993400     0.0064569   -0.1651369     0.1764223   -0.7226536     0.1886770   -0.7183840    -0.0605187    0.0889513 
   0.134993300     0.0007265   -0.1620542     0.0193097   -0.7426095     0.0334001   -0.7409785    -0.0236582    0.1170923 
   0.136993200    -0.0033955   -0.1575813    -0.1384570   -0.7291200    -0.1231647   -0.7312559     0.0220519    0.1273330 
   0.138993100    -0.0054692   -0.1527512    -0.2897162   -0.6827905    -0.2746976   -0.6889452     0.0682545    0.1178115 
   0.140993000    -0.0056363   -0.1485373    -0.4276091   -0.6054000    -0.4143918   -0.6158569     0.1070850    0.0901386 
   0.142992900    -0.0046271   -0.1457603    -0.5459995   -0.5001650    -0.5362737   -0.5142994     0.1319800    0.0485927 
   0.144992800    -0.0032568   -0.1449593    -0.6396669   -0.3726904    -0.6339604   -0.3884391     0.1384060    0.0001712 
   0.146992700    -0.0026232   -0.1461004    -0.7033045   -0.2278496    -0.7021713   -0.2440425     0.1253770   -0.0473088 
   0.148992600    -0.0036563   -0.1486278    -0.7344084   -0.0731228    -0.7370399   -0.0884362     0.0947803   -0.0864817 
   0.150992500    -0.0068860   -0.1515426    -0.7312320    0.0838929    -0.7367357    0.0705796     0.0514477   -0.1106507 
   0.152992400    -0.0127250   -0.1539615    -0.6953319    0.2363060    -0.7028627    0.2251576     0.0020567   -0.1164201 
   0.154992300    -0.0208114   -0.1546769    -0.6282796    0.3770043    -0.6373057    0.3675137    -0.0454658   -0.1028207 
   0.156992200    -0.0303181   -0.1527374    -0.5336202    0.4997851    -0.5437379    0.4919674    -0.0835820   -0.0725185 
   0.158992100    -0.0400477   -0.1476247    -0.4160409    0.5996441    -0.4271356    0.5935941    -0.1068039   -0.0309578 
   0.160992000    -0.0489231   -0.1392320    -0.2804355    0.6726640    -0.2934072    0.6684620    -0.1123182    0.0151874 
   0.162991900    -0.0556384   -0.1280559    -0.1329292    0.7159719    -0.1473442    0.7141363    -0.1002377    0.0585492 
   0.164991800    -0.0593870   -0.1150542     0.0200301    0.7277988     0.0050897    0.7290562    -0.0735116    0.0926868 
   0.166991700    -0.0595369   -0.1013013     0.1723835    0.7074976     0.1576456    0.7127509    -0.0370563    0.1130890 
   0.168991600    -0.0560891   -0.0880477     0.3175021    0.6558593     0.3039955    0.6649533     0.0025749    0.1174996 
   0.170991500    -0.0494984   -0.0763654     0.4489334    0.5746325     0.4383647    0.5868225     0.0387286    0.1064384 
   0.172991400    -0.0404559   -0.0673556     0.5606341    0.4672379     0.5537213    0.4816818     0.0658900    0.0830782 
   0.174991300    -0.0301376   -0.0614633     0.6471123    0.3383507     0.6441764    0.3537731     0.0802255    0.0523320 
   0.176991200    -0.0196639   -0.0586751     0.7046412    0.1934124     0.7051232    0.2085205     0.0799558    0.0203944 
   0.178991100    -0.0100626   -0.0586149     0.7297186    0.0397560     0.7331588    0.0532320     0.0664590   -0.0066856 
   0.180991000    -0.0020259   -0.0606155     0.7214868   -0.1158181     0.7274445   -0.1037883     0.0431620   -0.0238605 
   0.182990900     0.0041514   -0.0637125     0.6799462   -0.2662431     0.6879034   -0.2553140     0.0152874   -0.0280760 
   0.184990800     0.0084219   -0.0670101     0.6076472   -0.4039520     0.6168447   -0.3948089    -0.0110481   -0.0189696 
   0.186990700     0.0113278   -0.0698902     0.5080115   -0.5227994     0.5183976   -0.5156487    -0.0300312    0.0013901 
   0.188990600     0.0149400   -0.0714473     0.4038069   -0.6054296     0.4126778   -0.6021272    -0.0389383    0.0279212 
   0.190990500     0.0158276   -0.0731866     0.2485144   -0.6833274     0.2619465   -0.6806335    -0.0321385    0.0578462 
   0.192990400     0.0183407   -0.0741229     0.0951246   -0.7203016     0.1099069   -0.7207695    -0.0132827    0.0826366 
   0.194990300     0.0219343   -0.0751593    -0.0595299   -0.7234835    -0.0446563   -0.7276977     0.0151985    0.0979898 
   0.196990200     0.0263924   -0.0771075    -0.2111086   -0.6940280    -0.1971879   -0.7018947     0.0490553    0.1006585 
   0.198990100     0.0312659   -0.0806020    -0.3530997   -0.6328566    -0.3412739   -0.6445034     0.0825669    0.0894212 
   0.200990000     0.0358711   -0.0860892    -0.4788483   -0.5429426    -0.4701798   -0.5573233     0.1100480    0.0654355 
   0.202989900     0.0393188   -0.0936479    -0.5822223   -0.4281958    -0.5776071   -0.4439964     0.1270625    0.0319734 
   0.204989800     0.0406732   -0.1029495    -0.6586810   -0.2945812    -0.6578226   -0.3099384     0.1306770   -0.0061412 
   0.206989700     0.0392053   -0.1133684    -0.7049137   -0.1479367    -0.7071626   -0.1626640     0.1199191   -0.0431987 
   0.208989600     0.0344087   -0.1237324    -0.7183092    0.0045440    -0.7234017   -0.0092683     0.0964584   -0.0739970 
   0.210989500     0.0261478   -0.1329485    -0.6991430    0.1557011    -0.7064249    0.1437895     0.0637806   -0.0940501 
   0.212989400     0.0147901   -0.1398763    -0.6488307    0.2985695    -0.6577030    0.2889557     0.0266460   -0.1009191 
   0.214989300     0.0011554   -0.1434347    -0.5696887    0.4271610    -0.5802757    0.4192864    -0.0094669   -0.0941222 
   0.216989200    -0.0135811   -0.1430311    -0.4664770    0.5355576    -0.4783323    0.5296157    -0.0393894   -0.0755638 
   0.218989100    -0.0281845   -0.1383370    -0.3434572    0.6197692    -0.3568308    0.6163079    -0.0595840   -0.0489350 
   0.220989000    -0.0413535   -0.1292770    -0.2060137    0.6767240    -0.2203398    0.6760967    -0.0682602   -0.0189603 
   0.222988900    -0.0517420   -0.1164419    -0.0600840    0.7039504    -0.0744027    0.7066776    -0.0655985    0.0098221 
   0.224988800    -0.0585029   -0.1009655     0.0882138    0.7005602     0.0751433    0.7063934    -0.0537077    0.0333527 
   0.226988700    -0.0607513   -0.0838762     0.2326814    0.6666611     0.2215787    0.6754910    -0.0360308    0.0486893 
   0.228988600    -0.0582869   -0.0665834     0.3671533    0.6034110     0.3583599    0.6147547    -0.0166650    0.0548998 
   0.230988500    -0.0511823   -0.0504292     0.4858334    0.5135017     0.4798687    0.5260987     0.0006211    0.0528609 
   0.232988400    -0.0398249   -0.0365499     0.5831746    0.3998810     0.5806791    0.4133353     0.0123728    0.0448256 
   0.234988300    -0.0252588   -0.0259350     0.6550720    0.2679444     0.6552827    0.2812204     0.0167869    0.0343210 
   0.236988200    -0.0083563   -0.0193997     0.6974639    0.1235614     0.7000707    0.1356815     0.0137429    0.0252582 
   0.238988100     0.0097490   -0.0172781     0.7081133   -0.0271367     0.7126088   -0.0159560     0.0050637    0.0212142 
   0.240988000     0.0278845   -0.0196502     0.6862011   -0.1769994     0.6927484   -0.1665568    -0.0060781    0.0246162 
   0.242987900     0.0450275   -0.0263160     0.6325150   -0.3187479     0.6412960   -0.3086959    -0.0155683    0.0361763 
   0.244987800     0.0602494   -0.0367863     0.5495802   -0.4456010     0.5609134   -0.4367633    -0.0192367    0.0547477 
   0.246987700     0.0727802   -0.0504283     0.4411867   -0.5514259     0.4551028   -0.5451897    -0.0138981    0.0773325 
   0.248987600     0.0821271   -0.0665851     0.3132236   -0.6313366     0.3285633   -0.6284804     0.0022394    0.0996364 
   0.250987500     0.0879307   -0.0844868     0.1711101   -0.6817160     0.1870947   -0.6829070     0.0287476    0.1168535 
   0.252987400     0.0900973   -0.1034409     0.0223727   -0.7002708     0.0375318   -0.7058446     0.0634348    0.1246358 
   0.254987300     0.0885203   -0.1227313    -0.1261775   -0.6866137    -0.1126996   -0.6962042     0.1025609    0.1197706 
   0.256987200     0.0831785   -0.1417219    -0.2675272   -0.6418193    -0.2569392   -0.6546102     0.1407325    0.1009082 
   0.258987100     0.0742802   -0.1597463    -0.3954908   -0.5689598    -0.3881815   -0.5834572     0.1727129    0.0687140 
   0.260987000     0.0617135   -0.1758368    -0.5040738   -0.4705139    -0.5010440   -0.4860002     0.1938982    0.0256363 
   0.262986900     0.0457270   -0.1898297    -0.5890207   -0.3526329    -0.5895970   -0.3673793     0.2005712   -0.0236141 
   0.264986800     0.0269396   -0.2006210    -0.6469058   -0.2204690    -0.6505709   -0.2335121     0.1911959   -0.0739735 
   0.266986700     0.0057955   -0.2076734    -0.6757875   -0.0801502    -0.6817236   -0.0910923     0.1662085   -0.1195291 
   0.268986600    -0.0167042   -0.2106903    -0.6750004    0.0623235    -0.6823046    0.0530403     0.1279674   -0.1552613 
   0.270986500    -0.0399056   -0.2092906    -0.6450076    0.2002334    -0.6533965    0.1924869     0.0808275   -0.1771739 
   0.272986400    -0.0625785   -0.2030966    -0.5877557    0.3285531    -0.5972368    0.3221203     0.0300316   -0.1831918 
   0.274986300    -0.0838298   -0.1922270    -0.5057484    0.4420029    -0.5167801    0.4368754    -0.0186437   -0.1733541 
   0.276986200    -0.1026800   -0.1769785    -0.4027984    0.5361843    -0.4153723    0.5328922    -0.0599184   -0.1496759 
   0.278986100    -0.1180814   -0.1576848    -0.2829135    0.6073620    -0.2962632    0.6067520    -0.0902459   -0.1160753 
   0.280986000    -0.1291659   -0.1353613    -0.1509113    0.6526287    -0.1640055    0.6551496    -0.1069778   -0.0775012 
   0.282985900    -0.1351103   -0.1111748    -0.0124794    0.6702116    -0.0241330    0.6754282    -0.1102996   -0.0389268 
   0.284985800    -0.1353768   -0.0864219     0.1272390    0.6588653     0.1175004    0.6665987    -0.1018671   -0.0049931 
   0.286985700    -0.1299873   -0.0624195     0.2623527    0.6187870     0.2549152    0.6281961    -0.0850308    0.0206199 
   0.288985600    -0.1192246   -0.0406103     0.3869160    0.5510125     0.3816070    0.5619960    -0.0640580    0.0363327 
   0.290985500    -0.1039451   -0.0225530     0.4951116    0.4581389     0.4917618    0.4700238    -0.0433306    0.0423962 
   0.292985400    -0.0850815   -0.0090536     0.5815022    0.3439685     0.5802449    0.3562182    -0.0267719    0.0405988 
   0.294985300    -0.0637637   -0.0005637     0.6419513    0.2130630     0.6428510    0.2260397    -0.0169071    0.0342549 
   0.296985200    -0.0414918    0.0022386     0.6729022    0.0719213     0.6760777    0.0842749    -0.0144627    0.0273784 
   0.298985100    -0.0199049   -0.0003939     0.6728099   -0.0732515     0.6782278   -0.0618295    -0.0182801    0.0239259 
   0.300985000    -0.0002343   -0.0082488     0.6407412   -0.2150506     0.6487214   -0.2053207    -0.0254463    0.0268660 
   0.302984900     0.0164447   -0.0205342     0.5787246   -0.3464581     0.5888947   -0.3385425    -0.0319604    0.0374373 
   0.304984800     0.0293707   -0.0362875     0.4897677   -0.4608214     0.5019112   -0.4555255    -0.0334599    0.0548889 
   0.306984700     0.0379123   -0.0542928     0.3781747   -0.5527499     0.3917638   -0.5506431    -0.0264322    0.0762983 
   0.308984600     0.0418438   -0.0735058     0.2505912   -0.6177277     0.2644169   -0.6194426    -0.0086440    0.0973647 
   0.310984500     0.0413180   -0.0929062     0.1129928   -0.6530162     0.1258318   -0.6583064     0.0198269    0.1129048 
   0.312984400     0.0365068   -0.1118930    -0.0279627   -0.6577840    -0.0171089   -0.6660904     0.0560839    0.1178922 
   0.314984300     0.0277224   -0.1292362    -0.1652555   -0.6323007    -0.1566519   -0.6428720     0.0957424    0.1087936 
