! MS46122B
! 2250307/22442219
! 2/13/2026 1:46:57 PM
! C:\USERS\SPARKY\DOCUMENTS\VNA_DATA\FEB13_2026\THRU_PORT3_300K.S2P
! CHANNEL.1
! TR.MEASUREMENT
! RAW.DATA
# GHZ S RI R 50.0
! FREQ.GHZ         S11RE         S11IM         S21RE         S21IM         S12RE         S12IM         S22RE         S22IM         
!; PortSelection: Port_12
   0.001000000     1.0468000   -0.0675010    -0.0002647   -0.0009265    -0.0002085   -0.0009398     0.8119676   -0.5568583 
   0.002999900     0.9628693   -0.1943936    -0.0200601   -0.0144075    -0.0210115   -0.0151236     0.0558020   -0.8685219 
   0.004999800     0.8798586   -0.3145977    -0.1201135    0.0022360    -0.1272562    0.0043740    -0.7118129   -0.4365188 
   0.006999700     0.7117887   -0.3903141    -0.2256608    0.2910133    -0.2228529    0.3121190    -0.4138296    0.6500803 
   0.008999600     0.6341779   -0.2997341     0.2355250    0.4939628     0.2459040    0.4999226     0.5036196   -0.0341418 
   0.010999500     0.6642306   -0.3198839     0.4739740    0.2218219     0.4908035    0.2295107    -0.0192010   -0.5107441 
   0.012999400     0.6469240   -0.3833510     0.5023818    0.0073564     0.5240410    0.0043004    -0.4235847   -0.3730595 
   0.014999300     0.6028397   -0.4418964     0.4792997   -0.1529180     0.4971000   -0.1668291    -0.5812443   -0.0990075 
   0.016999200     0.5442926   -0.4881677     0.4299065   -0.2889904     0.4381025   -0.3085718    -0.5645937    0.1664131 
   0.018999100     0.4771611   -0.5192494     0.3545552   -0.4107175     0.3533249   -0.4294501    -0.4328578    0.3665161 
   0.020999000     0.4048947   -0.5330431     0.2500792   -0.5167493     0.2414323   -0.5298750    -0.2363992    0.4745681 
   0.022998900     0.3342907   -0.5270743     0.1128990   -0.5992016     0.1025983   -0.6039137    -0.0222459    0.4813592 
   0.024998800     0.2700060   -0.4796086    -0.0235699   -0.6723588    -0.0687652   -0.6430723     0.1730508    0.4307952 
   0.026998700     0.2251211   -0.4611458    -0.2389513   -0.6380036    -0.2385694   -0.6336647     0.2828524    0.2383879 
   0.028998600     0.1983992   -0.4133261    -0.4221034   -0.5701472    -0.4166168   -0.5697514     0.3114674    0.0544905 
   0.030998500     0.1929729   -0.3684012    -0.5787235   -0.4441729    -0.5727510   -0.4499546     0.2493351   -0.1091430 
   0.032998400     0.2007011   -0.3206907    -0.7008224   -0.3199681    -0.6915101   -0.2767569     0.1385193   -0.2229425 
   0.034998300     0.2192008   -0.3193846    -0.7391563   -0.0837654    -0.7437863   -0.0929308    -0.0291787   -0.2328205 
   0.036998200     0.2325880   -0.3177512    -0.7342291    0.1065241    -0.7420658    0.1020170    -0.1600336   -0.1785217 
   0.038998100     0.2379681   -0.3250083    -0.6832976    0.2813354    -0.6909261    0.2821936    -0.2418139   -0.0762883 
   0.040998000     0.2348560   -0.3370317    -0.5947339    0.4342276    -0.5983555    0.4382248    -0.2669059    0.0456917 
   0.042997900     0.2224527   -0.3490352    -0.4763959    0.5587342    -0.4757707    0.5628662    -0.2353990    0.1616811 
   0.044997800     0.2004250   -0.3417243    -0.3823023    0.6605086    -0.3255091    0.6592403    -0.1733165    0.2690143 
   0.046997700     0.1778503   -0.3587788    -0.1802866    0.7126957    -0.1771708    0.7110699    -0.0550204    0.2947632 
   0.048997600     0.1537278   -0.3532061    -0.0156586    0.7383481    -0.0142443    0.7338619     0.0555487    0.2929175 
   0.050997500     0.1326635   -0.3414649     0.1515422    0.7273568     0.1494739    0.7222434     0.1541090    0.2462107 
   0.052997400     0.1171564   -0.3256308     0.3138001    0.6788455     0.3074860    0.6757790     0.2238632    0.1644075 
   0.054997300     0.1082010   -0.3088672     0.4651729    0.5911190     0.4527873    0.5949949     0.2542172    0.0614167 
   0.056997200     0.1052630   -0.2943080     0.5882298    0.4741915     0.5810142    0.4791327     0.2402139   -0.0420460 
   0.058997100     0.1072499   -0.2844549     0.6823043    0.3290273     0.6782539    0.3365391     0.1863938   -0.1304730 
   0.060997000     0.1110375   -0.2806793     0.7393479    0.1654635     0.7392997    0.1738142     0.1033887   -0.1879024 
   0.062996900     0.1135684   -0.2829786     0.7562142   -0.0053107     0.7594448    0.0015140     0.0067525   -0.2065465 
   0.064996800     0.1120446   -0.2898094     0.7337722   -0.1735785     0.7385088   -0.1691466    -0.0857318   -0.1849918 
   0.066996700     0.1049597   -0.2987735     0.6747415   -0.3303476     0.6791848   -0.3281717    -0.1586383   -0.1299578 
   0.068996600     0.0922076   -0.3070652     0.5842671   -0.4681195     0.5872338   -0.4668047    -0.2012329   -0.0534107 
   0.070996500     0.0745890   -0.3125015     0.4680640   -0.5826798     0.4699268   -0.5805067    -0.2088429    0.0303109 
   0.072996400     0.0535432   -0.3124533     0.3314043   -0.6691465     0.3327655   -0.6649476    -0.1833127    0.1066312 
   0.074996300     0.0314817   -0.3063484     0.1801404   -0.7246248     0.1836340   -0.7188067    -0.1313443    0.1640213 
   0.076996200     0.0111170   -0.2937460     0.0205608   -0.7477313     0.0271561   -0.7415529    -0.0632687    0.1945087 
   0.078996100    -0.0054249   -0.2757526    -0.1408697   -0.7368805    -0.1306830   -0.7320309     0.0089349    0.1951216 
   0.080996000    -0.0165965   -0.2541021    -0.2976654   -0.6916582    -0.2846481   -0.6903676     0.0728966    0.1672309 
   0.082995900    -0.0207064   -0.2312560    -0.4423094   -0.6128229    -0.4286998   -0.6168661     0.1187758    0.1169488 
   0.084995800    -0.0179908   -0.2096565    -0.5666109   -0.5037507    -0.5542393   -0.5124027     0.1387997    0.0542980 
   0.086995700    -0.0101559   -0.1919210    -0.6647926   -0.3686874    -0.6558595   -0.3811230     0.1307163   -0.0095957 
   0.088995600     0.0012334   -0.1799926    -0.7306355   -0.2147030    -0.7259022   -0.2290396     0.0969581   -0.0628684 
   0.090995500     0.0134435   -0.1741302    -0.7603573   -0.0497498    -0.7599291   -0.0638708     0.0444477   -0.0958684 
   0.092995400     0.0240673   -0.1739701    -0.7529666    0.1175637    -0.7552008    0.1049864    -0.0166405   -0.1031552 
   0.094995300     0.0310663   -0.1776716    -0.7081477    0.2775357    -0.7124470    0.2673378    -0.0747204   -0.0835548 
   0.096995200     0.0336641   -0.1835878    -0.6299180    0.4231894    -0.6352927    0.4151664    -0.1186320   -0.0413884 
   0.098995100     0.0316251   -0.1892441    -0.5229679    0.5476497    -0.5279404    0.5404721    -0.1406724    0.0149151 
   0.100995000     0.0243337   -0.1941051    -0.3910568    0.6471263    -0.3977660    0.6399806    -0.1367332    0.0764013 
   0.102994900     0.0162698   -0.1944322    -0.2432962    0.7143629    -0.2517675    0.7074509    -0.1091230    0.1298960 
   0.104994800     0.0076814   -0.1910480    -0.0855221    0.7486634    -0.0961000    0.7431130    -0.0623999    0.1677734 
   0.106994700     0.0003759   -0.1842082     0.0757983    0.7490443     0.0630331    0.7462560    -0.0049467    0.1841184 
   0.108994600    -0.0041862   -0.1750935     0.2334648    0.7154388     0.2192670    0.7165776     0.0537906    0.1765201 
   0.110994500    -0.0053899   -0.1650656     0.3808885    0.6492562     0.3667867    0.6550031     0.1046336    0.1469237 
   0.112994400    -0.0031457   -0.1556935     0.5112175    0.5532099     0.4991401    0.5631416     0.1393352    0.1007808 
   0.114994300     0.0019682   -0.1482522     0.6180492    0.4310754     0.6092513    0.4441102     0.1528465    0.0457057 
   0.116994200     0.0087604   -0.1438543     0.6961141    0.2884686     0.6917521    0.3031918     0.1437396   -0.0092002 
   0.118994100     0.0157443   -0.1429597     0.7414704    0.1322550     0.7412307    0.1468864     0.1143483   -0.0545519 
   0.120994000     0.0217810   -0.1451704     0.7519972   -0.0295796     0.7553329   -0.0167106     0.0702320   -0.0833196 
   0.122993900     0.0252118   -0.1495896     0.7270228   -0.1899484     0.7326208   -0.1787290     0.0196221   -0.0911031 
   0.124993800     0.0257676   -0.1551057     0.6682476   -0.3404581     0.6751031   -0.3311832    -0.0284503   -0.0772704 
   0.126993700     0.0234281   -0.1602710     0.5790866   -0.4741047     0.5867083   -0.4661729    -0.0652003   -0.0450582 
   0.128993600     0.0186401   -0.1637081     0.4636272   -0.5850398     0.4727578   -0.5779449    -0.0842795   -0.0014892 
   0.130993500     0.0126099   -0.1651198     0.3282782   -0.6686456     0.3386199   -0.6628101    -0.0828818    0.0452774 
   0.132993400     0.0063371   -0.1641671     0.1787394   -0.7219861     0.1909204   -0.7177330    -0.0619982    0.0866672 
   0.134993300     0.0007824   -0.1610680     0.0217060   -0.7424320     0.0357334   -0.7408135    -0.0257037    0.1152798 
   0.136993200    -0.0031026   -0.1566043    -0.1360363   -0.7294778    -0.1208535   -0.7315785     0.0196196    0.1261018 
   0.138993100    -0.0049814   -0.1518326    -0.2874523   -0.6836596    -0.2724928   -0.6897246     0.0656659    0.1172920 
   0.140993000    -0.0049627   -0.1477232    -0.4255808   -0.6067514    -0.4123733   -0.6170928     0.1045277    0.0903029 
   0.142992900    -0.0037556   -0.1450719    -0.5442970   -0.5020936    -0.5344685   -0.5160034     0.1296182    0.0493372 
   0.144992800    -0.0022529   -0.1443976    -0.6381668   -0.3748891    -0.6325317   -0.3904977     0.1364044    0.0014113 
   0.146992700    -0.0014623   -0.1457789    -0.7024830   -0.2301775    -0.7012553   -0.2462869     0.1237967   -0.0457111 
   0.148992600    -0.0024441   -0.1485404    -0.7341495   -0.0755237    -0.7365797   -0.0908841     0.0936727   -0.0846681 
   0.150992500    -0.0056228   -0.1517173    -0.7314256    0.0813978    -0.7367923    0.0680479     0.0507848   -0.1087673 
   0.152992400    -0.0114862   -0.1543972    -0.6960520    0.2337548    -0.7034720    0.2227170     0.0018189   -0.1145612 
   0.154992300    -0.0196275   -0.1554380    -0.6294482    0.3747755    -0.6384291    0.3652102    -0.0454099   -0.1010856 
   0.156992200    -0.0292883   -0.1537635    -0.5352531    0.4977557    -0.5453038    0.4899326    -0.0832373   -0.0709295 
   0.158992100    -0.0392637   -0.1488632    -0.4180581    0.5980313    -0.4291305    0.5918950    -0.1063084   -0.0295346 
   0.160992000    -0.0483931   -0.1406977    -0.2827828    0.6714673    -0.2957290    0.6671556    -0.1116927    0.0164696 
   0.162991900    -0.0554283   -0.1295978    -0.1354906    0.7152386    -0.1500448    0.7133961    -0.0995034    0.0597286 
   0.164991800    -0.0595326   -0.1166504     0.0172680    0.7276193     0.0023232    0.7288166    -0.0726565    0.0938068 
   0.166991700    -0.0600398   -0.1028597     0.1695351    0.7079244     0.1547895    0.7130752    -0.0360546    0.1141588 
   0.168991600    -0.0569325   -0.0894769     0.3148164    0.6568375     0.3012042    0.6659018     0.0037696    0.1185090 
   0.170991500    -0.0506491   -0.0775912     0.4464588    0.5762176     0.4358191    0.5883905     0.0401893    0.1073204 
   0.172991400    -0.0418819   -0.0682986     0.5585744    0.4693618     0.5515780    0.4838213     0.0676299    0.0837529 
   0.174991300    -0.0317552   -0.0620859     0.6454899    0.3408488     0.6425277    0.3564130     0.0822306    0.0526773 
   0.176991200    -0.0213957   -0.0589360     0.7035757    0.1963666     0.7040457    0.2115270     0.0821368    0.0203043 
   0.178991100    -0.0118070   -0.0584940     0.7292663    0.0429502     0.7328051    0.0564176     0.0686936   -0.0073153 
   0.180991000    -0.0037238   -0.0601377     0.7217984   -0.1126213     0.7277763   -0.1005485     0.0453234   -0.0250777 
   0.182990900     0.0026082   -0.0628887     0.6812043   -0.2629632     0.6889101   -0.2522984     0.0171945   -0.0298928 
   0.184990800     0.0071018   -0.0659002     0.6093654   -0.4011494     0.6185672   -0.3921457    -0.0095927   -0.0212822 
   0.186990700     0.0102528   -0.0685336     0.5103270   -0.5204296     0.5207241   -0.5133610    -0.0292061   -0.0012772 
   0.188990600     0.0141210   -0.0699266     0.4065060   -0.6034455     0.4153369   -0.6002960    -0.0387525    0.0250745 
   0.190990500     0.0153716   -0.0715168     0.2517545   -0.6822096     0.2649755   -0.6794702    -0.0327487    0.0550659 
   0.192990400     0.0182196   -0.0723852     0.0985262   -0.7199032     0.1130928   -0.7202387    -0.0146003    0.0801293 
   0.194990300     0.0221439   -0.0734373    -0.0560715   -0.7239024    -0.0413691   -0.7279209     0.0132715    0.0959426 
   0.196990200     0.0269298   -0.0754242    -0.2079451   -0.6949587    -0.1940256   -0.7027599     0.0466890    0.0991904 
   0.198990100     0.0321323   -0.0790298    -0.3501613   -0.6345789    -0.3382989   -0.6460854     0.0800050    0.0886031 
   0.200990000     0.0370408   -0.0846950    -0.4763297   -0.5450901    -0.4676789   -0.5594553     0.1074879    0.0652743 
   0.202989900     0.0407373   -0.0925082    -0.5803009   -0.4311281    -0.5755466   -0.4466781     0.1246243    0.0324230 
   0.204989800     0.0423017   -0.1020912    -0.6573225   -0.2975287    -0.6563802   -0.3130105     0.1285177   -0.0051597 
   0.206989700     0.0410627   -0.1128366    -0.7041948   -0.1513720    -0.7064169   -0.1659788     0.1181251   -0.0418700 
   0.208989600     0.0363489   -0.1235673    -0.7183809    0.0011007    -0.7233676   -0.0126569     0.0950732   -0.0723805 
   0.210989500     0.0281200   -0.1331989    -0.6999527    0.1523805    -0.7071214    0.1404016     0.0628045   -0.0922901 
   0.212989400     0.0166827   -0.1405300    -0.6502322    0.2955377    -0.6591337    0.2857537     0.0260677   -0.0991385 
   0.214989300     0.0029273   -0.1444875    -0.5717805    0.4244200    -0.5822918    0.4164837    -0.0097297   -0.0923670 
   0.216989200    -0.0120517   -0.1444835    -0.4690960    0.5332908    -0.4809119    0.5272550    -0.0393724   -0.0739032 
   0.218989100    -0.0269591   -0.1401196    -0.3463378    0.6181619    -0.3598112    0.6145121    -0.0593229   -0.0473410 
   0.220989000    -0.0405138   -0.1313365    -0.2092783    0.6756496    -0.2236920    0.6749513    -0.0678162   -0.0174582 
   0.222988900    -0.0513608   -0.1186145    -0.0635011    0.7035681    -0.0779165    0.7062387    -0.0649557    0.0112849 
   0.224988800    -0.0585799   -0.1032094     0.0846883    0.7009014     0.0715367    0.7066866    -0.0528575    0.0347337 
   0.226988700    -0.0612711   -0.0860973     0.2291916    0.6677040     0.2180734    0.6765453    -0.0349111    0.0499905 
   0.228988600    -0.0592926   -0.0686525     0.3639222    0.6052361     0.3550911    0.6165279    -0.0152452    0.0560554 
   0.230988500    -0.0526150   -0.0522463     0.4830173    0.5159607     0.4770186    0.5286068     0.0023303    0.0537860 
   0.232988400    -0.0416275   -0.0380475     0.5808874    0.4029644     0.5783948    0.4164644     0.0143563    0.0454247 
   0.234988300    -0.0273312   -0.0270037     0.6534923    0.2715138     0.6537247    0.2847929     0.0189917    0.0345047 
   0.236988200    -0.0106143   -0.0200205     0.6966192    0.1273541     0.6992729    0.1396044     0.0160368    0.0249032 
   0.238988100     0.0073689   -0.0174162     0.7081973   -0.0229671     0.7127153   -0.0119945     0.0073133    0.0202542 
   0.240988000     0.0255365   -0.0192862     0.6871566   -0.1730912     0.6937038   -0.1625882    -0.0040811    0.0230706 
   0.242987900     0.0428048   -0.0254652     0.6344390   -0.3150503     0.6431658   -0.3050963    -0.0140051    0.0341212 
   0.244987800     0.0582299   -0.0355169     0.5521941   -0.4424239     0.5634941   -0.4336843    -0.0183230    0.0522940 
   0.246987700     0.0710761   -0.0487434     0.4445354   -0.5489404     0.4583887   -0.5426747    -0.0136337    0.0746948 
   0.248987600     0.0808154   -0.0646381     0.3170726   -0.6296695     0.3322877   -0.6267607     0.0017592    0.0970041 
   0.250987500     0.0870586   -0.0823064     0.1753401   -0.6810483     0.1911088   -0.6819847     0.0275829    0.1144738 
   0.252987400     0.0896054   -0.1010761     0.0264775   -0.7003416     0.0416423   -0.7058707     0.0617186    0.1226985 
   0.254987300     0.0885733   -0.1204010    -0.1222173   -0.6877050    -0.1086399   -0.6971145     0.1003811    0.1184316 
   0.256987200     0.0837252   -0.1394691    -0.2637790   -0.6438806    -0.2530922   -0.6564264     0.1383670    0.1002553 
   0.258987100     0.0752411   -0.1576019    -0.3922696   -0.5715853    -0.3849179   -0.5859823     0.1703530    0.0687027 
   0.260987000     0.0630845   -0.1739322    -0.5015162   -0.4738150    -0.4984468   -0.4891748     0.1917460    0.0262502 
   0.262986900     0.0474080   -0.1882536    -0.5874112   -0.3562598    -0.5878311   -0.3710777     0.1987773   -0.0225275 
   0.264986800     0.0289263   -0.1994049    -0.6460031   -0.2243397    -0.6495564   -0.2374360     0.1898453   -0.0725349 
   0.266986700     0.0080441   -0.2069291    -0.6757510   -0.0840257    -0.6815461   -0.0951226     0.1653172   -0.1179380 
   0.268986600    -0.0143732   -0.2103195    -0.6756634    0.0583869    -0.6829641    0.0490757     0.1275531   -0.1536606 
   0.270986500    -0.0375772   -0.2093954    -0.6464550    0.1966404    -0.6548058    0.1888008     0.0807956   -0.1756683 
   0.272986400    -0.0602931   -0.2036852    -0.5898656    0.3252993    -0.5993764    0.3188130     0.0302901   -0.1818895 
   0.274986300    -0.0817611   -0.1932554    -0.5084670    0.4393338    -0.5195858    0.4339873    -0.0181794   -0.1722587 
   0.276986200    -0.1007924   -0.1784165    -0.4060315    0.5339379    -0.4185934    0.5306809    -0.0593568   -0.1488244 
   0.278986100    -0.1164656   -0.1595842    -0.2865429    0.6058152    -0.2998879    0.6051933    -0.0896399   -0.1153978 
   0.280986000    -0.1280085   -0.1374640    -0.1548423    0.6518558    -0.1679198    0.6542996    -0.1063934   -0.0769126 
   0.282985900    -0.1344135   -0.1134565    -0.0164785    0.6702119    -0.0282054    0.6754344    -0.1097468   -0.0384069 
   0.284985800    -0.1351556   -0.0888119     0.1233040    0.6596974     0.1135275    0.6674253    -0.1013020   -0.0044768 
   0.286985700    -0.1302491   -0.0648055     0.2586114    0.6204112     0.2511273    0.6298264    -0.0844022    0.0211239 
   0.288985600    -0.1199650   -0.0428994     0.3835258    0.5534216     0.3781878    0.5644069    -0.0632695    0.0368234 
   0.290985500    -0.1051320   -0.0246593     0.4921637    0.4612568     0.4888794    0.4731435    -0.0423745    0.0428257 
   0.292985400    -0.0867076   -0.0108146     0.5794497    0.3476013     0.5779934    0.3599842    -0.0255924    0.0408669 
   0.294985300    -0.0656902   -0.0019980     0.6406101    0.2172268     0.6414747    0.2301839    -0.0155390    0.0342445 
   0.296985200    -0.0436569    0.0012307     0.6725405    0.0763594     0.6756053    0.0886600    -0.0130128    0.0269528 
   0.298985100    -0.0222252   -0.0009625     0.6732742   -0.0687819     0.6787335   -0.0573991    -0.0168479    0.0230632 
   0.300985000    -0.0025795   -0.0083245     0.6422976   -0.2108458     0.6501809   -0.2010055    -0.0242369    0.0255463 
   0.302984900     0.0141229   -0.0201721     0.5812464   -0.3426287     0.5912469   -0.3346781    -0.0311165    0.0357063 
   0.304984800     0.0271846   -0.0354611     0.4931099   -0.4575431     0.5051265   -0.4522504    -0.0331389    0.0528762 
   0.306984700     0.0359368   -0.0531004     0.3821875   -0.5503404     0.3956668   -0.5481567    -0.0267686    0.0742051 
   0.308984600     0.0401849   -0.0719584     0.2550022   -0.6162348     0.2687728   -0.6178834    -0.0096398    0.0954316 
   0.310984500     0.0399713   -0.0911045     0.1174686   -0.6526051     0.1304209   -0.6577801     0.0182506    0.1113497 
   0.312984400     0.0355550   -0.1098797    -0.0233750   -0.6583389    -0.0124249   -0.6665190     0.0540795    0.1168614 
   0.314984300     0.0271597   -0.1270947    -0.1609031   -0.6338065    -0.1522492   -0.6443058     0.0935261    0.1084726 
