! MS46122B
! 2250307/22442219
! 2/13/2026 1:57:16 PM
! C:\USERS\SPARKY\DOCUMENTS\VNA_DATA\FEB13_2026\THRU_PORT6_300K.S2P
! CHANNEL.1
! TR.MEASUREMENT
! RAW.DATA
# GHZ S RI R 50.0
! FREQ.GHZ         S11RE         S11IM         S21RE         S21IM         S12RE         S12IM         S22RE         S22IM         
!; PortSelection: Port_12
   0.001000000     1.0466570   -0.0675443    -0.0001901   -0.0009134    -0.0001328   -0.0009235     0.8122434   -0.5567389 
   0.002999900     0.9625550   -0.1942809    -0.0196322   -0.0148048    -0.0205928   -0.0155202     0.0564181   -0.8679867 
   0.004999800     0.8786703   -0.3140253    -0.1198605    0.0013922    -0.1269922    0.0035115    -0.7113222   -0.4371108 
   0.006999700     0.7100063   -0.3865559    -0.2226939    0.2908367    -0.2199882    0.3118405    -0.4160499    0.6476385 
   0.008999600     0.6376628   -0.2955753     0.2365673    0.4843778     0.2470229    0.4907691     0.4905199   -0.0224945 
   0.010999500     0.6680641   -0.3181020     0.4674181    0.2142838     0.4843232    0.2217780    -0.0128014   -0.4879119 
   0.012999400     0.6508263   -0.3820855     0.4931584    0.0030568     0.5145270   -0.0000106    -0.4016456   -0.3580874 
   0.014999300     0.6071066   -0.4408756     0.4683187   -0.1543523     0.4859461   -0.1678877    -0.5522730   -0.0970602 
   0.016999200     0.5494274   -0.4874660     0.4176397   -0.2870427     0.4259500   -0.3060331    -0.5355326    0.1541510 
   0.018999100     0.4834283   -0.5193617     0.3415462   -0.4046495     0.3409999   -0.4227616    -0.4099735    0.3414785 
   0.020999000     0.4124064   -0.5345548     0.2379580   -0.5056882     0.2305224   -0.5188002    -0.2250796    0.4405595 
   0.022998900     0.3429285   -0.5310860     0.1037740   -0.5828880     0.0943617   -0.5883144    -0.0256140    0.4440644 
   0.024998800     0.2787890   -0.4865786    -0.0281701   -0.6510043    -0.0712880   -0.6237932     0.1537214    0.3940089 
   0.026998700     0.2326032   -0.4723042    -0.2345340   -0.6154622    -0.2348358   -0.6129745     0.2524589    0.2149693 
   0.028998600     0.2026056   -0.4281458    -0.4093288   -0.5497423    -0.4053093   -0.5504836     0.2753001    0.0454012 
   0.030998500     0.1920780   -0.3854161    -0.5589781   -0.4292877    -0.5549731   -0.4352412     0.2148546   -0.1036115 
   0.032998400     0.1944306   -0.3375802    -0.6770567   -0.3116960    -0.6695105   -0.2691713     0.1091574   -0.2058408 
   0.034998300     0.2070978   -0.3339086    -0.7160977   -0.0849154    -0.7210222   -0.0927697    -0.0460901   -0.2110876 
   0.036998200     0.2164133   -0.3283022    -0.7140877    0.0990659    -0.7220407    0.0953295    -0.1676161   -0.1564483 
   0.038998100     0.2196009   -0.3306744    -0.6673867    0.2696665    -0.6746891    0.2707967    -0.2426309   -0.0568171 
   0.040998000     0.2159744   -0.3376006    -0.5833809    0.4200253    -0.5868732    0.4242129    -0.2635162    0.0612882 
   0.042997900     0.2041046   -0.3448579    -0.4688680    0.5437109    -0.4685262    0.5479472    -0.2302354    0.1734599 
   0.044997800     0.1843290   -0.3339715    -0.3773524    0.6451145    -0.3218296    0.6442385    -0.1674798    0.2787716 
   0.046997700     0.1639459   -0.3470029    -0.1789460    0.6980137    -0.1761065    0.6968459    -0.0497386    0.3017112 
   0.048997600     0.1430253   -0.3388082    -0.0167208    0.7241571    -0.0156763    0.7202368     0.0603205    0.2989029 
   0.050997500     0.1255793   -0.3252217     0.1484828    0.7137982     0.1461271    0.7094600     0.1585995    0.2519022 
   0.052997400     0.1138618   -0.3085074     0.3084505    0.6658793     0.3022345    0.6637288     0.2285390    0.1703219 
   0.054997300     0.1086281   -0.2915956     0.4576190    0.5789579     0.4456594    0.5836908     0.2596436    0.0675943 
   0.056997200     0.1093933   -0.2778876     0.5783389    0.4633021     0.5716298    0.4688637     0.2470891   -0.0357177 
   0.058997100     0.1145495   -0.2695133     0.6700932    0.3198229     0.6668428    0.3277972     0.1952755   -0.1245489 
   0.060997000     0.1210387   -0.2677627     0.7250679    0.1585318     0.7258837    0.1672584     0.1146354   -0.1831871 
   0.062996900     0.1257028   -0.2724440     0.7402700   -0.0093299     0.7442759   -0.0023275     0.0202972   -0.2041908 
   0.064996800     0.1259056   -0.2818379     0.7167222   -0.1740913     0.7223921   -0.1697135    -0.0704954   -0.1861326 
   0.066996700     0.1200082   -0.2935347     0.6573170   -0.3270113     0.6628718   -0.3251851    -0.1429222   -0.1355073 
   0.068996600     0.1076957   -0.3046471     0.5675347   -0.4609998     0.5714007   -0.4602067    -0.1864773   -0.0636845 
   0.070996500     0.0903360   -0.3129280     0.4527858   -0.5717205     0.4552685   -0.5701209    -0.1967617    0.0154921 
   0.072996400     0.0690994   -0.3156718     0.3184764   -0.6544268     0.3206164   -0.6515297    -0.1755365    0.0880094 
   0.074996300     0.0463797   -0.3125500     0.1706470   -0.7070469     0.1744519   -0.7025946    -0.1291691    0.1430983 
   0.076996200     0.0248264   -0.3028818     0.0152389   -0.7278152     0.0217159   -0.7230702    -0.0674858    0.1731678 
   0.078996100     0.0065342   -0.2876847    -0.1413351   -0.7155002    -0.1318858   -0.7121928    -0.0016529    0.1755092 
   0.080996000    -0.0069473   -0.2686732    -0.2929991   -0.6704452    -0.2810669   -0.6701748     0.0566167    0.1515152 
   0.082995900    -0.0144670   -0.2479428    -0.4324156   -0.5930222    -0.4201007   -0.5974867     0.0982660    0.1068642 
   0.084995800    -0.0153978   -0.2274836    -0.5517430   -0.4865559    -0.5408598   -0.4952398     0.1163397    0.0508873 
   0.086995700    -0.0114250   -0.2104767    -0.6461505   -0.3557400    -0.6383328   -0.3677593     0.1086075   -0.0057357 
   0.088995600    -0.0043201   -0.1976718    -0.7092804   -0.2067930    -0.7052739   -0.2204481     0.0775121   -0.0525264 
   0.090995500     0.0039938   -0.1900296    -0.7377212   -0.0474552    -0.7378417   -0.0610006     0.0297199   -0.0806312 
   0.092995400     0.0114441   -0.1873891    -0.7308081    0.1142440    -0.7334478    0.1022075    -0.0255796   -0.0849312 
   0.094995300     0.0159950   -0.1878917    -0.6878620    0.2692089    -0.6924655    0.2592379    -0.0776758   -0.0644705 
   0.096995200     0.0169557   -0.1900471    -0.6126592    0.4105356    -0.6180162    0.4026117    -0.1158350   -0.0235996 
   0.098995100     0.0142315   -0.1920182    -0.5094070    0.5318025    -0.5149903    0.5248077    -0.1333864    0.0298301 
   0.100995000     0.0072012   -0.1930426    -0.3814276    0.6292814    -0.3887079    0.6226019    -0.1263613    0.0874639 
   0.102994900    -0.0000877   -0.1899704    -0.2380525    0.6953754    -0.2468869    0.6892071    -0.0972148    0.1370448 
   0.104994800    -0.0069598   -0.1836839    -0.0844514    0.7296473    -0.0954356    0.7249095    -0.0504029    0.1711469 
   0.106994700    -0.0121513   -0.1743951     0.0729467    0.7306986     0.0600280    0.7289161     0.0062743    0.1843695 
   0.108994600    -0.0143805   -0.1633278     0.2271243    0.6984095     0.2131169    0.7005761     0.0636170    0.1743788 
   0.110994500    -0.0129651   -0.1518878     0.3713994    0.6341810     0.3579828    0.6409147     0.1128081    0.1432324 
   0.112994400    -0.0080857   -0.1413282     0.4991220    0.5404649     0.4878882    0.5509410     0.1459058    0.0961285 
   0.114994300    -0.0002901   -0.1335361     0.6037841    0.4210003     0.5961832    0.4345652     0.1580311    0.0405608 
   0.116994200     0.0091861   -0.1293535     0.6803805    0.2813421     0.6769989    0.2962488     0.1478801   -0.0145943 
   0.118994100     0.0188407   -0.1290957     0.7247224    0.1284141     0.7256873    0.1428437     0.1176727   -0.0600857 
   0.120994000     0.0271653   -0.1321133     0.7348209   -0.0301216     0.7390548   -0.0175983     0.0729254   -0.0892192 
   0.122993900     0.0329151   -0.1379366     0.7099825   -0.1870806     0.7165573   -0.1765247     0.0217547   -0.0975294 
   0.124993800     0.0353723   -0.1449954     0.6522469   -0.3340881     0.6596823   -0.3259340    -0.0270852   -0.0844822 
   0.126993700     0.0346022   -0.1521049     0.5643003   -0.4648158     0.5724595   -0.4578558    -0.0650260   -0.0531009 
   0.128993600     0.0310678   -0.1579481     0.4508858   -0.5727484     0.4602240   -0.5668163    -0.0857757   -0.0102295 
   0.130993500     0.0258187   -0.1617879     0.3180844   -0.6539336     0.3283745   -0.6491890    -0.0866178    0.0362144 
   0.132993400     0.0198975   -0.1633862     0.1717230   -0.7052488     0.1835341   -0.7020141    -0.0682691    0.0778890 
   0.134993300     0.0142970   -0.1629486     0.0182442   -0.7242878     0.0316700   -0.7235168    -0.0347299    0.1075994 
   0.136993200     0.0097841   -0.1610529    -0.1355477   -0.7107499    -0.1211845   -0.7132170     0.0079492    0.1206216 
   0.138993100     0.0066117   -0.1585402    -0.2828279   -0.6651919    -0.2688853   -0.6714299     0.0519280    0.1149066 
   0.140993000     0.0049200   -0.1564043    -0.4169105   -0.5894210    -0.4045452   -0.5998393     0.0896532    0.0918112 
   0.142992900     0.0041059   -0.1553721    -0.5319061   -0.4868018    -0.5226603   -0.5004377     0.1148335    0.0553885 
   0.144992800     0.0034692   -0.1559919    -0.6227335   -0.3627205    -0.6174604   -0.3781733     0.1232503    0.0118802 
   0.146992700     0.0018498   -0.1578887    -0.6843406   -0.2218973    -0.6835037   -0.2377783     0.1136671   -0.0312191 
   0.148992600    -0.0014611   -0.1607520    -0.7145994   -0.0714959    -0.7173418   -0.0866912     0.0878634   -0.0671615 
   0.150992500    -0.0068869   -0.1634453    -0.7115546    0.0810427    -0.7172761    0.0676425     0.0502351   -0.0897283 
   0.152992400    -0.0147911   -0.1655962    -0.6767829    0.2290218    -0.6847697    0.2178637     0.0068983   -0.0956545 
   0.154992300    -0.0245742   -0.1655795    -0.6118433    0.3657859    -0.6214589    0.3563766    -0.0351118   -0.0841151 
   0.156992200    -0.0355751   -0.1627048    -0.5201418    0.4853707    -0.5310034    0.4776875    -0.0684794   -0.0573807 
   0.158992100    -0.0467961   -0.1563723    -0.4061166    0.5826140    -0.4179578    0.5770878    -0.0882295   -0.0205889 
   0.160992000    -0.0568983   -0.1468720    -0.2745093    0.6539480    -0.2880082    0.6505140    -0.0919300    0.0200731 
   0.162991900    -0.0647048   -0.1345209    -0.1312452    0.6964763    -0.1458914    0.6957315    -0.0798377    0.0578679 
   0.164991800    -0.0693122   -0.1198865     0.0173790    0.7084510     0.0026426    0.7109950    -0.0544241    0.0869389 
   0.166991700    -0.0702634   -0.1045811     0.1656451    0.6892758     0.1512927    0.6956315    -0.0204946    0.1030433 
   0.168991600    -0.0673980   -0.0895684     0.3069251    0.6395578     0.2943105    0.6496829     0.0156270    0.1042254 
   0.170991500    -0.0611258   -0.0760455     0.4351794    0.5611110     0.4256582    0.5739580     0.0479563    0.0910950 
   0.172991400    -0.0521526   -0.0650426     0.5441934    0.4570971     0.5385997    0.4719227     0.0712698    0.0666684 
   0.174991300    -0.0415492   -0.0570314     0.6290026    0.3319940     0.6272773    0.3475194     0.0818556    0.0358330 
   0.176991200    -0.0303465   -0.0521396     0.6858195    0.1912706     0.6874279    0.2061014     0.0783134    0.0044541 
   0.178991100    -0.0196187   -0.0500543     0.7109433    0.0417078     0.7154272    0.0546691     0.0618726   -0.0214975 
   0.180991000    -0.0100664   -0.0502070     0.7038318   -0.1098200     0.7104371   -0.0986164     0.0360958   -0.0372830 
   0.182990900    -0.0019749   -0.0517564     0.6642630   -0.2566637     0.6724604   -0.2468299     0.0060053   -0.0399474 
   0.184990800     0.0046255   -0.0539633     0.5946430   -0.3913854     0.6036984   -0.3832427    -0.0222111   -0.0290978 
   0.186990700     0.0100378   -0.0562284     0.4979275   -0.5079244     0.5081685   -0.5017333    -0.0429393   -0.0067977 
   0.188990600     0.0158450   -0.0576661     0.3966002   -0.5891596     0.4052356   -0.5867335    -0.0532289    0.0215626 
   0.190990500     0.0196397   -0.0598047     0.2454838   -0.6661286     0.2582658   -0.6640226    -0.0478710    0.0544108 
   0.192990400     0.0246482   -0.0616435     0.0956579   -0.7028642     0.1098455   -0.7037665    -0.0300231    0.0823278 
   0.194990300     0.0304706   -0.0640110    -0.0553720   -0.7068815    -0.0411651   -0.7111635    -0.0020412    0.1011045 
   0.196990200     0.0368078   -0.0676776    -0.2038177   -0.6785274    -0.1903661   -0.6864772     0.0319568    0.1075698 
   0.198990100     0.0432619   -0.0731577    -0.3427802   -0.6194190    -0.3313366   -0.6308536     0.0666890    0.1002338 
   0.200990000     0.0490608   -0.0808913    -0.4659936   -0.5317103    -0.4576054   -0.5460988     0.0963817    0.0800779 
   0.202989900     0.0532284   -0.0908542    -0.5675138   -0.4201386    -0.5629968   -0.4357260     0.1165510    0.0500644 
   0.204989800     0.0549126   -0.1026823    -0.6426432   -0.2895907    -0.6419057   -0.3050646     0.1243737    0.0146731 
   0.206989700     0.0534537   -0.1155966    -0.6882300   -0.1462759    -0.6906222   -0.1612789     0.1186417   -0.0207418 
   0.208989600     0.0481640   -0.1284414    -0.7017157    0.0029553    -0.7071548   -0.0113539     0.1006721   -0.0511783 
   0.210989500     0.0391172   -0.1400038    -0.6831405    0.1503170    -0.6910256    0.1383195     0.0736003   -0.0723451 
   0.212989400     0.0265294   -0.1493297    -0.6341508    0.2900718    -0.6438515    0.2804462     0.0417989   -0.0819021 
   0.214989300     0.0113040   -0.1550833    -0.5570431    0.4157456    -0.5685162    0.4081931     0.0099643   -0.0792016 
   0.216989200    -0.0055111   -0.1565695    -0.4564821    0.5217352    -0.4691227    0.5164270    -0.0168642   -0.0656781 
   0.218989100    -0.0224734   -0.1532460    -0.3363179    0.6041718    -0.3503912    0.6013206    -0.0352892   -0.0447737 
   0.220989000    -0.0383436   -0.1453915    -0.2023976    0.6597394    -0.2170954    0.6601730    -0.0437577   -0.0207039 
   0.222988900    -0.0518589   -0.1334370    -0.0601325    0.6865467    -0.0744503    0.6903450    -0.0424072    0.0024923 
   0.224988800    -0.0618175   -0.1181293     0.0842939    0.6833948     0.0716092    0.6902924    -0.0331613    0.0209261 
   0.226988700    -0.0673478   -0.1005397     0.2250278    0.6506106     0.2146312    0.6603435    -0.0191340    0.0322088 
   0.228988600    -0.0680380   -0.0820896     0.3559964    0.5894332     0.3482216    0.6013607    -0.0041244    0.0354937 
   0.230988500    -0.0640190   -0.0640567     0.4718234    0.5021974     0.4669365    0.5151927     0.0084037    0.0316392 
   0.232988400    -0.0554724   -0.0477254     0.5669894    0.3919622     0.5653903    0.4055298     0.0152937    0.0229577 
   0.234988300    -0.0432503   -0.0340587     0.6376156    0.2639927     0.6387871    0.2770558     0.0151178    0.0128652 
   0.236988200    -0.0280402   -0.0238359     0.6796457    0.1236571     0.6830613    0.1353900     0.0079135    0.0049957 
   0.238988100    -0.0109668   -0.0177221     0.6909650   -0.0229137     0.6960780   -0.0124103    -0.0044960    0.0027761 
   0.240988000     0.0071043   -0.0158419     0.6706286   -0.1691945     0.6775698   -0.1593380    -0.0186860    0.0085296 
   0.242987900     0.0250385   -0.0182270     0.6194160   -0.3078363     0.6282458   -0.2985443    -0.0307884    0.0228274 
   0.244987800     0.0420042   -0.0246051     0.5393698   -0.4323055     0.5507225   -0.4241964    -0.0367210    0.0444094 
   0.246987700     0.0571901   -0.0345992     0.4345016   -0.5366445     0.4481637   -0.5309933    -0.0330718    0.0703014 
   0.248987600     0.0699217   -0.0477004     0.3098994   -0.6159686     0.3249304   -0.6135097    -0.0180174    0.0963219 
   0.250987500     0.0797313   -0.0633146     0.1712291   -0.6665418     0.1867320   -0.6678267     0.0079659    0.1174840 
   0.252987400     0.0862328   -0.0807388     0.0253835   -0.6857706     0.0402802   -0.6912736     0.0428151    0.1293620 
   0.254987300     0.0891871   -0.0994365    -0.1205444   -0.6734973    -0.1072256   -0.6830227     0.0827704    0.1287069 
   0.256987200     0.0886209   -0.1188359    -0.2596541   -0.6304559    -0.2491484   -0.6431308     0.1228775    0.1139343 
   0.258987100     0.0842250   -0.1383827    -0.3859941   -0.5592251    -0.3785978   -0.5738552     0.1576255    0.0855145 
   0.260987000     0.0757951   -0.1567689    -0.4932613   -0.4628155    -0.4900178   -0.4786302     0.1823958    0.0457514 
   0.262986900     0.0635373   -0.1736295    -0.5771912   -0.3469850    -0.5777315   -0.3620648     0.1935841   -0.0011283 
   0.264986800     0.0477153   -0.1883238    -0.6342651   -0.2168769    -0.6381570   -0.2304906     0.1892460   -0.0499120 
   0.266986700     0.0288355   -0.1997747    -0.6626930   -0.0786612    -0.6690238   -0.0903031     0.1696861   -0.0953564 
   0.268986600     0.0075409   -0.2073317    -0.6616495    0.0612671    -0.6696185    0.0516134     0.1369599   -0.1320456 
   0.270986500    -0.0150813   -0.2106427    -0.6316674    0.1967522    -0.6409832    0.1888716     0.0949982   -0.1564276 
   0.272986400    -0.0384685   -0.2094365    -0.5750189    0.3223861    -0.5853574    0.3161440     0.0487903   -0.1660619 
   0.274986300    -0.0612293   -0.2032561    -0.4940616    0.4334614    -0.5059355    0.4287416     0.0036465   -0.1609951 
   0.276986200    -0.0824494   -0.1923734    -0.3926791    0.5249494    -0.4059943    0.5225404    -0.0352834   -0.1428894 
   0.278986100    -0.1010479   -0.1771728    -0.2750314    0.5939645    -0.2888182    0.5942213    -0.0647614   -0.1152901 
   0.280986000    -0.1161442   -0.1580139    -0.1460470    0.6373845    -0.1591944    0.6409189    -0.0822569   -0.0826612 
   0.282985900    -0.1267884   -0.1362431    -0.0109227    0.6537550    -0.0224384    0.6600157    -0.0877548   -0.0496736 
   0.284985800    -0.1323391   -0.1129546     0.1250882    0.6420031     0.1157533    0.6506091    -0.0828551   -0.0204987 
   0.286985700    -0.1324003   -0.0894369     0.2562409    0.6024540     0.2494526    0.6126656    -0.0705387    0.0015470 
   0.288985600    -0.1272240   -0.0670294     0.3770038    0.5363453     0.3724975    0.5477062    -0.0546445    0.0150568 
   0.290985500    -0.1172612   -0.0468790     0.4817640    0.4460066     0.4791442    0.4580880    -0.0392506    0.0201811 
   0.292985400    -0.1033733   -0.0302776     0.5656937    0.3351780     0.5651738    0.3475681    -0.0277180    0.0188501 
   0.294985300    -0.0864106   -0.0178710     0.6243627    0.2085288     0.6260487    0.2212080    -0.0223293    0.0140253 
   0.296985200    -0.0676209   -0.0099874     0.6546956    0.0717710     0.6586257    0.0836390    -0.0236050    0.0095527 
   0.298985100    -0.0480172   -0.0068579     0.6552933   -0.0692155     0.6612112   -0.0582542    -0.0302613    0.0089719 
   0.300985000    -0.0290708   -0.0085911     0.6250448   -0.2070682     0.6332001   -0.1978050    -0.0394032    0.0150319 
   0.302984900    -0.0118907   -0.0146656     0.5656551   -0.3352320     0.5759553   -0.3278958    -0.0472563    0.0287109 
   0.304984800     0.0028270   -0.0244371     0.4798932   -0.4473543     0.4920126   -0.4425363    -0.0495367    0.0492507 
   0.306984700     0.0145098   -0.0372388     0.3719323   -0.5379734     0.3853569   -0.5362591    -0.0428422    0.0736110 
   0.308984600     0.0226890   -0.0520491     0.2478014   -0.6024885     0.2613547   -0.6045314    -0.0251261    0.0975547 
   0.310984500     0.0271612   -0.0681277     0.1132122   -0.6382461     0.1260328   -0.6435830     0.0036673    0.1160366 
   0.312984400     0.0278816   -0.0847956    -0.0248957   -0.6438560    -0.0138710   -0.6522861     0.0407311    0.1239322 
   0.314984300     0.0248608   -0.1013980    -0.1599333   -0.6196687    -0.1511819   -0.6303044     0.0815169    0.1177636 
