! MS46122B
! 2250307/22442219
! 2/13/2026 1:43:55 PM
! C:\USERS\SPARKY\DOCUMENTS\VNA_DATA\FEB13_2026\THRU_PORT2_300K.S2P
! CHANNEL.1
! TR.MEASUREMENT
! RAW.DATA
# GHZ S RI R 50.0
! FREQ.GHZ         S11RE         S11IM         S21RE         S21IM         S12RE         S12IM         S22RE         S22IM         
!; PortSelection: Port_12
   0.001000000     1.0469400   -0.0674684    -0.0002535   -0.0009230    -0.0001889   -0.0009366     0.8119557   -0.5570261 
   0.002999900     0.9628422   -0.1943101    -0.0199541   -0.0144991    -0.0209097   -0.0152231     0.0554694   -0.8682021 
   0.004999800     0.8796271   -0.3143733    -0.1200523    0.0020254    -0.1271565    0.0041950    -0.7117226   -0.4361847 
   0.006999700     0.7113776   -0.3892331    -0.2248104    0.2909528    -0.2219813    0.3119987    -0.4139872    0.6495799 
   0.008999600     0.6351495   -0.2985798     0.2359379    0.4913392     0.2462809    0.4973803     0.5000420   -0.0312450 
   0.010999500     0.6653451   -0.3194134     0.4722155    0.2197444     0.4889989    0.2273229    -0.0176788   -0.5045478 
   0.012999400     0.6480550   -0.3830266     0.4999045    0.0061294     0.5213931    0.0030814    -0.4177830   -0.3688549 
   0.014999300     0.6040549   -0.4416647     0.4763100   -0.1533409     0.4939711   -0.1671337    -0.5734337   -0.0982282 
   0.016999200     0.5457194   -0.4880202     0.4266063   -0.2884876     0.4347433   -0.3078209    -0.5566803    0.1633075 
   0.018999100     0.4788533   -0.5193041     0.3510518   -0.4091358     0.3499879   -0.4276926    -0.4265355    0.3600039 
   0.020999000     0.4068739   -0.5334373     0.2467748   -0.5138249     0.2384422   -0.5268362    -0.2331301    0.4655220 
   0.022998900     0.3365811   -0.5281433     0.1104540   -0.5949332     0.1004948   -0.5998140    -0.0228749    0.4713853 
   0.024998800     0.2722754   -0.4813524    -0.0248467   -0.6667445    -0.0694307   -0.6378728     0.1681513    0.4208484 
   0.026998700     0.2270206   -0.4640260    -0.2379651   -0.6320441    -0.2376400   -0.6280744     0.2748970    0.2319473 
   0.028998600     0.1994569   -0.4170853    -0.4189195   -0.5647298    -0.4136387   -0.5645646     0.3018576    0.0518207 
   0.030998500     0.1927289   -0.3726672    -0.5736977   -0.4400919    -0.5681115   -0.4459078     0.2400685   -0.1078723 
   0.032998400     0.1991025   -0.3248444    -0.6947968   -0.3175973    -0.6857128   -0.2745954     0.1305188   -0.2185677 
   0.034998300     0.2160919   -0.3229664    -0.7330498   -0.0837946    -0.7376657   -0.0926535    -0.0338993   -0.2271109 
   0.036998200     0.2283804   -0.3203790    -0.7289428    0.1048958    -0.7366754    0.1004582    -0.1622558   -0.1726138 
   0.038998100     0.2333411   -0.3262987    -0.6790698    0.2786028    -0.6863921    0.2793756    -0.2421871   -0.0710196 
   0.040998000     0.2301001   -0.3370257    -0.5914451    0.4308040    -0.5950391    0.4347448    -0.2660781    0.0500155 
   0.042997900     0.2179676   -0.3478132    -0.4740779    0.5550231    -0.4735426    0.5590828    -0.2339947    0.1649738 
   0.044997800     0.1965331   -0.3396312    -0.3805667    0.6566951    -0.3242299    0.6553375    -0.1716220    0.2716928 
   0.046997700     0.1745483   -0.3557126    -0.1794665    0.7089022    -0.1765323    0.7072890    -0.0533949    0.2966097 
   0.048997600     0.1512783   -0.3495264    -0.0154365    0.7345604    -0.0141975    0.7301615     0.0569828    0.2944140 
   0.050997500     0.1311506   -0.3373920     0.1511945    0.7236534     0.1489997    0.7186041     0.1554098    0.2474768 
   0.052997400     0.1165848   -0.3213975     0.3128955    0.6750994     0.3064992    0.6722249     0.2251342    0.1656909 
   0.054997300     0.1086102   -0.3046548     0.4635659    0.5874890     0.4511584    0.5916032     0.2555336    0.0627566 
   0.056997200     0.1064906   -0.2904108     0.5858462    0.4708771     0.5786861    0.4759299     0.2417500   -0.0406242 
   0.058997100     0.1092559   -0.2809768     0.6792114    0.3260609     0.6752650    0.3337088     0.1883771   -0.1290556 
   0.060997000     0.1136257   -0.2777974     0.7355967    0.1631066     0.7356481    0.1715648     0.1059753   -0.1866605 
   0.062996900     0.1165728   -0.2806876     0.7518832   -0.0068893     0.7551872    0.0000217     0.0099015   -0.2057523 
   0.064996800     0.1154217   -0.2881795     0.7290562   -0.1741795     0.7339431   -0.1696939    -0.0820261   -0.1850054 
   0.066996700     0.1084915   -0.2977754     0.6698828   -0.3298703     0.6745189   -0.3277454    -0.1547335   -0.1310473 
   0.068996600     0.0957148   -0.3067015     0.5794711   -0.4666021     0.5826081   -0.4652945    -0.1974434   -0.0556696 
   0.070996500     0.0780807   -0.3127424     0.4636094   -0.5801103     0.4656437   -0.5779152    -0.2056083    0.0268851 
   0.072996400     0.0569588   -0.3132867     0.3274454   -0.6654698     0.3291024   -0.6614760    -0.1810610    0.1021158 
   0.074996300     0.0346841   -0.3077733     0.1771255   -0.7201754     0.1807468   -0.7145397    -0.1304878    0.1587973 
   0.076996200     0.0140691   -0.2957521     0.0186141   -0.7425684     0.0252345   -0.7366603    -0.0640679    0.1890556 
   0.078996100    -0.0028405   -0.2783945    -0.1415793   -0.7311848    -0.1315093   -0.7266754     0.0065158    0.1899927 
   0.080996000    -0.0145343   -0.2572359    -0.2970529   -0.6859235    -0.2842103   -0.6847746     0.0689199    0.1630013 
   0.082995900    -0.0193281   -0.2348683    -0.4403334   -0.6073787    -0.4269181   -0.6114142     0.1136632    0.1141915 
   0.084995800    -0.0174240   -0.2134321    -0.5633211   -0.4987456    -0.5511581   -0.5073717     0.1330369    0.0531973 
   0.086995700    -0.0103650   -0.1958337    -0.6603981   -0.3646711    -0.6515938   -0.3769566     0.1249127   -0.0087877 
   0.088995600     0.0001310   -0.1836680    -0.7253967   -0.2119049    -0.7207421   -0.2260617     0.0918103   -0.0602836 
   0.090995500     0.0115723   -0.1774468    -0.7546305   -0.0482608    -0.7541822   -0.0622471     0.0404725   -0.0918871 
   0.092995400     0.0215184   -0.1767364    -0.7471812    0.1176240    -0.7493357    0.1051018    -0.0190753   -0.0982954 
   0.094995300     0.0280618   -0.1797770    -0.7026109    0.2762947    -0.7068456    0.2660725    -0.0755700   -0.0783868 
   0.096995200     0.0303597   -0.1849138    -0.6248662    0.4207875    -0.6302328    0.4126725    -0.1178349   -0.0364723 
   0.098995100     0.0282156   -0.1897940    -0.5186715    0.5442646    -0.5237858    0.5368964    -0.1385176    0.0190979 
   0.100995000     0.0210284   -0.1939229    -0.3875815    0.6430092    -0.3944468    0.6358076    -0.1336274    0.0794846 
   0.102994900     0.0132314   -0.1936081    -0.2408947    0.7097383    -0.2493940    0.7028228    -0.1054869    0.1318212 
   0.104994800     0.0049338   -0.1896965    -0.0841342    0.7437220    -0.0947396    0.7383989    -0.0586631    0.1685079 
   0.106994700    -0.0018800   -0.1824892     0.0761689    0.7440220     0.0633413    0.7413936    -0.0014266    0.1838224 
   0.108994600    -0.0060242   -0.1730932     0.2328607    0.7105262     0.2185770    0.7117112     0.0567974    0.1753975 
   0.110994500    -0.0067527   -0.1628787     0.3793328    0.6445428     0.3652955    0.6504623     0.1070673    0.1452317 
   0.112994400    -0.0040248   -0.1534206     0.5087590    0.5489479     0.4967659    0.5589299     0.1411200    0.0987423 
   0.114994300     0.0014754   -0.1458957     0.6147496    0.4273967     0.6061736    0.4404939     0.1540210    0.0435268 
   0.116994200     0.0086174   -0.1416426     0.6921853    0.2854778     0.6878811    0.3001893     0.1444127   -0.0113938 
   0.118994100     0.0159086   -0.1408506     0.7369611    0.1301091     0.7369358    0.1447205     0.1145689   -0.0566221 
   0.120994000     0.0222393   -0.1431616     0.7471832   -0.0307471     0.7505791   -0.0179735     0.0701608   -0.0852884 
   0.122993900     0.0259149   -0.1477167     0.7220485   -0.1901375     0.7277219   -0.1790314     0.0193406   -0.0929664 
   0.124993800     0.0267023   -0.1532893     0.6633099   -0.3395974     0.6702855   -0.3304649    -0.0289282   -0.0791555 
   0.126993700     0.0246005   -0.1587015     0.5744370   -0.4722807     0.5821018   -0.4645001    -0.0659198   -0.0469490 
   0.128993600     0.0200131   -0.1622989     0.4594330   -0.5821624     0.4685560   -0.5753629    -0.0853246   -0.0034268 
   0.130993500     0.0141767   -0.1639491     0.3246845   -0.6650319     0.3349794   -0.6593352    -0.0843880    0.0433641 
   0.132993400     0.0080571   -0.1632129     0.1759679   -0.7176981     0.1880391   -0.7136059    -0.0640327    0.0848939 
   0.134993300     0.0026526   -0.1604251     0.0198805   -0.7376259     0.0337578   -0.7361242    -0.0283353    0.1138148 
   0.136993200    -0.0011810   -0.1562368    -0.1368372   -0.7243552    -0.1218197   -0.7263894     0.0164003    0.1251929 
   0.138993100    -0.0030005   -0.1517766    -0.2871386   -0.6784440    -0.2724198   -0.6844709     0.0619733    0.1171678 
   0.140993000    -0.0030272   -0.1479651    -0.4241876   -0.6016487    -0.4111296   -0.6119857     0.1005922    0.0911743 
   0.142992900    -0.0018715   -0.1456262    -0.5418632   -0.4973969    -0.5321012   -0.5111710     0.1257201    0.0514005 
   0.144992800    -0.0004641   -0.1452543    -0.6349626   -0.3706886    -0.6291598   -0.3863279     0.1329672    0.0046131 
   0.146992700     0.0001417   -0.1468108    -0.6982580   -0.2269367    -0.6969270   -0.2430313     0.1211658   -0.0414098 
   0.148992600    -0.0009854   -0.1498247    -0.7293537   -0.0732451    -0.7317570   -0.0885483     0.0922296   -0.0795595 
   0.150992500    -0.0043615   -0.1531143    -0.7262359    0.0826454    -0.7315794    0.0692691     0.0508215   -0.1031365 
   0.152992400    -0.0104027   -0.1559490    -0.6907060    0.2339612    -0.6981808    0.2228122     0.0034243   -0.1089559 
   0.154992300    -0.0187040   -0.1572198    -0.6242604    0.3737730    -0.6332708    0.3641636    -0.0422315   -0.0959558 
   0.156992200    -0.0285216   -0.1556824    -0.5303323    0.4956885    -0.5405636    0.4878143    -0.0786742   -0.0667204 
   0.158992100    -0.0387575   -0.1508793    -0.4137063    0.5950103    -0.4248920    0.5888768    -0.1006684   -0.0266796 
   0.160992000    -0.0481539   -0.1429296    -0.2791220    0.6675716    -0.2920427    0.6633675    -0.1053766    0.0177453 
   0.162991900    -0.0555366   -0.1319581    -0.1327460    0.7106539    -0.1472398    0.7089038    -0.0930705    0.0592617 
   0.164991800    -0.0599932   -0.1190597     0.0191281    0.7225425     0.0042215    0.7239720    -0.0665826    0.0916904 
   0.166991700    -0.0609384   -0.1053097     0.1701827    0.7025489     0.1554716    0.7079143    -0.0306884    0.1105764 
   0.168991600    -0.0583242   -0.0918878     0.3142793    0.6514327     0.3008461    0.6606420     0.0079672    0.1137453 
   0.170991500    -0.0525527   -0.0798588     0.4447128    0.5710369     0.4343204    0.5832425     0.0430207    0.1017545 
   0.172991400    -0.0443091   -0.0703007     0.5555987    0.4646038     0.5490086    0.4791322     0.0690192    0.0778011 
   0.174991300    -0.0346786   -0.0636476     0.6417690    0.3368753     0.6389565    0.3523997     0.0821640    0.0467171 
   0.176991200    -0.0247444   -0.0599400     0.6990305    0.1932320     0.6996850    0.2083528     0.0807805    0.0146498 
   0.178991100    -0.0154532   -0.0588627     0.7242084    0.0408603     0.7278562    0.0543294     0.0662212   -0.0123827 
   0.180991000    -0.0075263   -0.0596902     0.7164187   -0.1134038     0.7225208   -0.1015227     0.0419326   -0.0293839 
   0.182990900    -0.0012461   -0.0616718     0.6756279   -0.2627871     0.6834465   -0.2520974     0.0130929   -0.0333333 
   0.184990800     0.0035143   -0.0639018     0.6043558   -0.3996139     0.6133363   -0.3906907    -0.0142132   -0.0238336 
   0.186990700     0.0070952   -0.0657721     0.5057569   -0.5179141     0.5160551   -0.5109574    -0.0341068   -0.0029269 
   0.188990600     0.0114136   -0.0665584     0.4025060   -0.6001846     0.4113208   -0.5971451    -0.0437932    0.0241899 
   0.190990500     0.0134579   -0.0675518     0.2486798   -0.6782163     0.2617814   -0.6755549    -0.0378383    0.0551781 
   0.192990400     0.0171604   -0.0680128     0.0963590   -0.7153709     0.1108602   -0.7158262    -0.0196507    0.0811820 
   0.194990300     0.0219825   -0.0688262    -0.0572640   -0.7191473    -0.0427047   -0.7231550     0.0084163    0.0978945 
   0.196990200     0.0276875   -0.0707944    -0.2080670   -0.6902855    -0.1943269   -0.6979409     0.0421217    0.1020998 
   0.198990100     0.0338116   -0.0745398    -0.3494510   -0.6298503    -0.3376841   -0.6413060     0.0759720    0.0924215 
   0.200990000     0.0396075   -0.0805499    -0.4747294   -0.5407726    -0.4660714   -0.5550045     0.1041355    0.0699835 
   0.202989900     0.0441008   -0.0888998    -0.5778614   -0.4269037    -0.5731980   -0.4425826     0.1221783    0.0379293 
   0.204989800     0.0463449   -0.0991847    -0.6542274   -0.2940634    -0.6532211   -0.3095052     0.1272262    0.0008988 
   0.206989700     0.0456754   -0.1107414    -0.7006625   -0.1484040    -0.7026813   -0.1631553     0.1181885   -0.0354247 
   0.208989600     0.0413656   -0.1223779    -0.7141612    0.0033843    -0.7191692   -0.0106291     0.0966040   -0.0658494 
   0.210989500     0.0333975   -0.1329811    -0.6953672    0.1536113    -0.7025869    0.1415593     0.0658971   -0.0860604 
   0.212989400     0.0220057   -0.1413403    -0.6454909    0.2957852    -0.6544212    0.2860444     0.0305519   -0.0936729 
   0.214989300     0.0080617   -0.1463462    -0.5668904    0.4237692    -0.5775784    0.4158214    -0.0039493   -0.0879754 
   0.216989200    -0.0072726   -0.1473645    -0.4643654    0.5316939    -0.4763514    0.5257002    -0.0326209   -0.0709128 
   0.218989100    -0.0227615   -0.1439521    -0.3419904    0.6155765    -0.3556348    0.6120407    -0.0519729   -0.0460041 
   0.220989000    -0.0370675   -0.1360129    -0.2055237    0.6721014    -0.2200158    0.6716226    -0.0602720   -0.0178689 
   0.222988900    -0.0488239   -0.1240922    -0.0606537    0.6992538    -0.0749639    0.7021455    -0.0577235    0.0090648 
   0.224988800    -0.0571652   -0.1091186     0.0867401    0.6959823     0.0735848    0.7020013    -0.0463538    0.0308756 
   0.226988700    -0.0610863   -0.0923525     0.2300775    0.6624460     0.2190775    0.6714435    -0.0295736    0.0447745 
   0.228988600    -0.0603176   -0.0749365     0.3637058    0.5997624     0.3549925    0.6113000    -0.0113000    0.0498390 
   0.230988500    -0.0549477   -0.0583187     0.4814536    0.5107700     0.4757418    0.5234603     0.0047106    0.0469189 
   0.232988400    -0.0452185   -0.0435942     0.5782184    0.3981360     0.5759580    0.4117172     0.0151096    0.0383783 
   0.234988300    -0.0321201   -0.0318419     0.6498423    0.2674910     0.6502714    0.2807190     0.0181065    0.0276049 
   0.236988200    -0.0163901   -0.0237750     0.6922186    0.1242464     0.6950215    0.1363575     0.0137302    0.0185374 
   0.238988100     0.0008143   -0.0199354     0.7032998   -0.0249730     0.7079446   -0.0140879     0.0038036    0.0147075 
   0.240988000     0.0185098   -0.0203739     0.6821097   -0.1738848     0.6886619   -0.1634928    -0.0085290    0.0184644 
   0.242987900     0.0356285   -0.0250495     0.6293548   -0.3147537     0.6380997   -0.3049095    -0.0190888    0.0306068 
   0.244987800     0.0512570   -0.0335622     0.5475060   -0.4410829     0.5586999   -0.4324454    -0.0238090    0.0498899 
   0.246987700     0.0646217   -0.0453504     0.4402494   -0.5467603     0.4539990   -0.5406224    -0.0193348    0.0733734 
   0.248987600     0.0751855   -0.0598894     0.3133943   -0.6267209     0.3285536   -0.6239056    -0.0039504    0.0968326 
   0.250987500     0.0825284   -0.0764846     0.1723267   -0.6775045     0.1880360   -0.6785987     0.0220665    0.1153156 
   0.252987400     0.0864128   -0.0944042     0.0243404   -0.6965767     0.0393422   -0.7020101     0.0564928    0.1244986 
   0.254987300     0.0868289   -0.1131738    -0.1237270   -0.6834787    -0.1101737   -0.6929391     0.0955743    0.1211449 
   0.256987200     0.0835088   -0.1320213    -0.2645217   -0.6396413    -0.2539567   -0.6520641     0.1341575    0.1037605 
   0.258987100     0.0765719   -0.1503110    -0.3923026   -0.5673087    -0.3849617   -0.5816159     0.1668519    0.0729435 
   0.260987000     0.0658923   -0.1670819    -0.5008247   -0.4694158    -0.4975462   -0.4849140     0.1890791    0.0311047 
   0.262986900     0.0516131   -0.1820571    -0.5859390   -0.3521193    -0.5862260   -0.3669271     0.1970635   -0.0171640 
   0.264986800     0.0342642   -0.1942878    -0.6436938   -0.2204960    -0.6472417   -0.2335575     0.1892233   -0.0668517 
   0.266986700     0.0143119   -0.2030159    -0.6726335   -0.0804592    -0.6785038   -0.0916929     0.1658713   -0.1121615 
   0.268986600    -0.0074818   -0.2077486    -0.6718380    0.0613780    -0.6792024    0.0519767     0.1293153   -0.1479681 
   0.270986500    -0.0301256   -0.2081915    -0.6419911    0.1989058    -0.6504772    0.1909725     0.0837892   -0.1704169 
   0.272986400    -0.0529563   -0.2040558    -0.5849118    0.3266472    -0.5944825    0.3200622     0.0344583   -0.1773106 
   0.274986300    -0.0745847   -0.1951280    -0.5031855    0.4394805    -0.5144196    0.4343162    -0.0130317   -0.1687395 
   0.276986200    -0.0942156   -0.1816596    -0.4005999    0.5331334    -0.4133076    0.5299172    -0.0534556   -0.1465355 
   0.278986100    -0.1106349   -0.1641452    -0.2812499    0.6037868    -0.2947082    0.6032190    -0.0833278   -0.1145923 
   0.280986000    -0.1231366   -0.1431395    -0.1500146    0.6485549    -0.1631836    0.6512356    -0.1001047   -0.0776810 
   0.282985900    -0.1308725   -0.1199668    -0.0124852    0.6658320    -0.0241324    0.6712449    -0.1038200   -0.0406586 
   0.284985800    -0.1330319   -0.0959227     0.1262597    0.6543912     0.1165233    0.6622800    -0.0962232   -0.0081192 
   0.286985700    -0.1296512   -0.0722414     0.2602608    0.6145090     0.2529384    0.6240685    -0.0804426    0.0164065 
   0.288985600    -0.1209718   -0.0504082     0.3838920    0.5472861     0.3786153    0.5582960    -0.0607381    0.0314162 
   0.290985500    -0.1076202   -0.0316920     0.4910224    0.4551670     0.4877909    0.4670890    -0.0413362    0.0371255 
   0.292985400    -0.0906018   -0.0171854     0.5767702    0.3419613     0.5756699    0.3542742    -0.0260148    0.0353376 
   0.294985300    -0.0710330   -0.0075021     0.6368418    0.2123756     0.6378371    0.2252429    -0.0172997    0.0292126 
   0.296985200    -0.0499178   -0.0028892     0.6677033    0.0725743     0.6710089    0.0847587    -0.0157752    0.0228310 
   0.298985100    -0.0291351   -0.0036531     0.6679019   -0.0713597     0.6734191   -0.0601143    -0.0203051    0.0199664 
   0.300985000    -0.0098468   -0.0094202     0.6366130   -0.2120524     0.6445171   -0.2024568    -0.0280307    0.0235250 
   0.302984900     0.0069200   -0.0196231     0.5754983   -0.3426411     0.5855339   -0.3348002    -0.0349011    0.0347554 
   0.304984800     0.0203311   -0.0333597     0.4875749   -0.4564743     0.4996168   -0.4512409    -0.0366825    0.0528118 
   0.306984700     0.0297658   -0.0495908     0.3772039   -0.5482835     0.3905895   -0.5461032    -0.0298728    0.0748626 
   0.308984600     0.0350826   -0.0673541     0.2506418   -0.6132117     0.2642704   -0.6149322    -0.0122327    0.0965530 
   0.310984500     0.0361006   -0.0856305     0.1138004   -0.6488521     0.1266313   -0.6541020     0.0161903    0.1127788 
   0.312984400     0.0330218   -0.1037373    -0.0262366   -0.6540033    -0.0153351   -0.6621925     0.0524589    0.1184771 
   0.314984300     0.0259841   -0.1208541    -0.1630248   -0.6289763    -0.1542946   -0.6394883     0.0922616    0.1101304 
