! MS46122B
! 2250307/22442219
! 2/18/2026 2:07:39 PM
! C:\USERS\SPARKY\DOCUMENTS\VNA_DATA\FEB18_2026\7K2\LOAD.S2P
! CHANNEL.1
! TR.MEASUREMENT
! RAW.DATA
# GHZ S RI R 50.0
! FREQ.GHZ         S11RE         S11IM         S21RE         S21IM         S12RE         S12IM         S22RE         S22IM         
!; PortSelection: Port_12
   0.001000000     1.0453020   -0.0676899     0.0000046   -0.0000001     0.0000006    0.0000024     0.8074961   -0.5589577 
   0.002999900     0.9549358   -0.1913464    -0.0000056   -0.0000017    -0.0000053   -0.0000041     0.0555696   -0.8127419 
   0.004999800     0.8750558   -0.2832295     0.0000010   -0.0000019     0.0000052   -0.0000020    -0.4354368   -0.4508569 
   0.006999700     0.7890667   -0.3495309    -0.0000007   -0.0000014    -0.0000017   -0.0000044    -0.4739025   -0.1001556 
   0.008999600     0.7068134   -0.3952629    -0.0000008    0.0000022    -0.0000026   -0.0000004    -0.3812931    0.0712231 
   0.010999500     0.6318688   -0.4246413     0.0000004    0.0000024    -0.0000007   -0.0000058    -0.2893900    0.1390767 
   0.012999400     0.5653960   -0.4425195    -0.0000021    0.0000003    -0.0000018    0.0000025    -0.2190029    0.1605755 
   0.014999300     0.5077670   -0.4515276     0.0000005    0.0000015    -0.0000017   -0.0000023    -0.1674317    0.1621776 
   0.016999200     0.4580171   -0.4541248     0.0000011    0.0000017     0.0000020    0.0000013    -0.1293429    0.1552896 
   0.018999100     0.4155053   -0.4525806    -0.0000030   -0.0000013    -0.0000001   -0.0000002    -0.1005507    0.1451391 
   0.020999000     0.3793928   -0.4477431     0.0000001    0.0000023     0.0000004   -0.0000033    -0.0780856    0.1341714 
   0.022998900     0.3482408   -0.4407876     0.0000023   -0.0000010     0.0000010   -0.0000012    -0.0602212    0.1234943 
   0.024998800     0.3166371   -0.4113458    -0.0000018   -0.0000019    -0.0000017   -0.0000032    -0.0475616    0.1239176 
   0.026998700     0.2976815   -0.4232116     0.0000034    0.0000025     0.0000028   -0.0000022    -0.0340059    0.1047910 
   0.028998600     0.2768857   -0.4131616    -0.0000019   -0.0000006     0.0000011   -0.0000007    -0.0243001    0.0969797 
   0.030998500     0.2582402   -0.4027763    -0.0000014   -0.0000027     0.0000000   -0.0000003    -0.0162627    0.0901828 
   0.032998400     0.2382474   -0.3750164    -0.0000003   -0.0000030    -0.0000018   -0.0000025    -0.0085828    0.0935258 
   0.034998300     0.2252077   -0.3818844     0.0000009   -0.0000011    -0.0000011    0.0000000    -0.0039692    0.0787853 
   0.036998200     0.2106059   -0.3719593     0.0000006   -0.0000007     0.0000003   -0.0000019     0.0006121    0.0740564 
   0.038998100     0.1971818   -0.3611624    -0.0000009   -0.0000026    -0.0000053   -0.0000011     0.0044794    0.0697840 
   0.040998000     0.1858537   -0.3509654     0.0000009    0.0000008    -0.0000004    0.0000002     0.0076079    0.0658430 
   0.042997900     0.1756021   -0.3417217     0.0000050    0.0000021     0.0000016    0.0000008     0.0102155    0.0621418 
   0.044997800     0.1645329   -0.3193338    -0.0000002    0.0000011    -0.0000018    0.0000006     0.0152523    0.0668496 
   0.046997700     0.1559255   -0.3257282    -0.0000040    0.0000025    -0.0000012   -0.0000001     0.0142258    0.0550568 
   0.048997600     0.1475441   -0.3184681    -0.0000010    0.0000031     0.0000000    0.0000011     0.0153411    0.0517271 
   0.050997500     0.1396704   -0.3118906     0.0000010   -0.0000008     0.0000011    0.0000000     0.0160361    0.0483420 
   0.052997400     0.1324583   -0.3058484     0.0000063   -0.0000028     0.0000011    0.0000084     0.0162819    0.0450610 
   0.054997300     0.1253942   -0.3006023     0.0000053    0.0000049    -0.0000080    0.0000044     0.0164130    0.0415429 
   0.056997200     0.1184479   -0.2961015     0.0000003   -0.0000004    -0.0000001    0.0000007     0.0158809    0.0382676 
   0.058997100     0.1118756   -0.2920276     0.0000016   -0.0000028    -0.0000017   -0.0000017     0.0151952    0.0349272 
   0.060997000     0.1054615   -0.2884877    -0.0000001    0.0000009    -0.0000006   -0.0000007     0.0141804    0.0316032 
   0.062996900     0.0989361   -0.2853027     0.0000033    0.0000017     0.0000004   -0.0000005     0.0128643    0.0284605 
   0.064996800     0.0922680   -0.2824202     0.0000004   -0.0000006     0.0000013    0.0000025     0.0112313    0.0255338 
   0.066996700     0.0857145   -0.2795711    -0.0000011   -0.0000005     0.0000012    0.0000005     0.0092937    0.0229885 
   0.068996600     0.0790756   -0.2767797     0.0000020   -0.0000002    -0.0000012    0.0000020     0.0071320    0.0207551 
   0.070996500     0.0723921   -0.2741208    -0.0000008   -0.0000001     0.0000024    0.0000012     0.0047144    0.0189665 
   0.072996400     0.0655326   -0.2709486     0.0000015   -0.0000045    -0.0000001   -0.0000046     0.0022269    0.0176918 
   0.074996300     0.0586070   -0.2674212     0.0000003    0.0000003     0.0000006    0.0000004    -0.0003872    0.0169621 
   0.076996200     0.0516840   -0.2634983     0.0000017   -0.0000014    -0.0000007    0.0000003    -0.0029373    0.0168180 
   0.078996100     0.0448290   -0.2591112    -0.0000007   -0.0000009     0.0000003   -0.0000023    -0.0054401    0.0172486 
   0.080996000     0.0380282   -0.2542210    -0.0000029   -0.0000002    -0.0000006   -0.0000012    -0.0076722    0.0181984 
   0.082995900     0.0313083   -0.2487927     0.0000012   -0.0000013    -0.0000028   -0.0000024    -0.0097329    0.0197022 
   0.084995800     0.0251324   -0.2425578     0.0000002   -0.0000019    -0.0000016    0.0000000    -0.0114580    0.0217669 
   0.086995700     0.0191584   -0.2360050     0.0000003   -0.0000013     0.0000007    0.0000006    -0.0128442    0.0242515 
   0.088995600     0.0139617   -0.2291102    -0.0000003   -0.0000029    -0.0000012   -0.0000004    -0.0137534    0.0270432 
   0.090995500     0.0093655   -0.2218734    -0.0000032    0.0000015    -0.0000015   -0.0000033    -0.0140764    0.0301285 
   0.092995400     0.0056055   -0.2145704    -0.0000026   -0.0000027    -0.0000052   -0.0000003    -0.0138507    0.0332916 
   0.094995300     0.0025693   -0.2068832    -0.0000040    0.0000015    -0.0000020    0.0000027    -0.0129814    0.0365198 
   0.096995200     0.0002632   -0.1990627    -0.0000013   -0.0000003    -0.0000020    0.0000012    -0.0115164    0.0396776 
   0.098995100    -0.0012350   -0.1913495    -0.0000009    0.0000004     0.0000006    0.0000027    -0.0093976    0.0426035 
   0.100995000    -0.0032687   -0.1851085    -0.0000023    0.0000013    -0.0000015    0.0000003    -0.0057884    0.0450856 
   0.102994900    -0.0030175   -0.1781855     0.0000000    0.0000028     0.0000005    0.0000039    -0.0025871    0.0473140 
   0.104994800    -0.0019967   -0.1717522     0.0000005    0.0000023     0.0000009    0.0000008     0.0010321    0.0490604 
   0.106994700    -0.0003503   -0.1658882     0.0000009   -0.0000009     0.0000021    0.0000002     0.0050119    0.0501642 
   0.108994600     0.0018336   -0.1608102    -0.0000009   -0.0000010     0.0000011   -0.0000004     0.0092736    0.0506345 
   0.110994500     0.0044315   -0.1566022     0.0000010   -0.0000002     0.0000009   -0.0000019     0.0136571    0.0504150 
   0.112994400     0.0072915   -0.1532072     0.0000016   -0.0000014     0.0000000   -0.0000001     0.0180430    0.0494887 
   0.114994300     0.0102444   -0.1507206     0.0000003   -0.0000017     0.0000001   -0.0000017     0.0222995    0.0478729 
   0.116994200     0.0131461   -0.1491644     0.0000021    0.0000005     0.0000017   -0.0000016     0.0263534    0.0455420 
   0.118994100     0.0158271   -0.1484599    -0.0000008   -0.0000002     0.0000008   -0.0000010     0.0300380    0.0426206 
   0.120994000     0.0184051   -0.1484375     0.0000005   -0.0000015    -0.0000002   -0.0000009     0.0332402    0.0391243 
   0.122993900     0.0202185   -0.1491710    -0.0000011   -0.0000009     0.0000002   -0.0000010     0.0358689    0.0351575 
   0.124993800     0.0214371   -0.1504751    -0.0000007   -0.0000006     0.0000003   -0.0000001     0.0378397    0.0307963 
   0.126993700     0.0219337   -0.1523307    -0.0000008   -0.0000019    -0.0000004   -0.0000008     0.0390029    0.0261981 
   0.128993600     0.0215967   -0.1542654     0.0000000   -0.0000008     0.0000010   -0.0000031     0.0395474    0.0214992 
   0.130993500     0.0205680   -0.1564050     0.0000000   -0.0000002    -0.0000021   -0.0000018     0.0393364    0.0167624 
   0.132993400     0.0186850   -0.1585248    -0.0000023    0.0000006     0.0000003   -0.0000014     0.0383288    0.0121460 
   0.134993300     0.0160480   -0.1604255     0.0000003   -0.0000014    -0.0000017   -0.0000015     0.0366102    0.0078113 
   0.136993200     0.0127050   -0.1620084    -0.0000012   -0.0000015    -0.0000007   -0.0000008     0.0342258    0.0038816 
   0.138993100     0.0086789   -0.1631183    -0.0000005    0.0000017     0.0000003    0.0000006     0.0312235    0.0004187 
   0.140993000     0.0040024   -0.1635521     0.0000011    0.0000004    -0.0000002    0.0000005     0.0277080   -0.0024124 
   0.142992900    -0.0010380   -0.1633658    -0.0000003    0.0000008     0.0000000    0.0000002     0.0238195   -0.0045697 
   0.144992800    -0.0062612   -0.1625836    -0.0000015   -0.0000012    -0.0000002   -0.0000003     0.0196074   -0.0060178 
   0.146992700    -0.0116681   -0.1608469    -0.0000008   -0.0000001     0.0000003    0.0000004     0.0152911   -0.0066876 
   0.148992600    -0.0170803   -0.1582793    -0.0000004   -0.0000009    -0.0000015   -0.0000002     0.0109720   -0.0065632 
   0.150992500    -0.0221742   -0.1547476     0.0000003   -0.0000004    -0.0000008   -0.0000006     0.0067748   -0.0056388 
   0.152992400    -0.0271625   -0.1504261    -0.0000016   -0.0000001    -0.0000005   -0.0000014     0.0028667   -0.0040305 
   0.154992300    -0.0315553   -0.1454717    -0.0000005    0.0000005    -0.0000011   -0.0000005    -0.0006767   -0.0017629 
   0.156992200    -0.0353387   -0.1398784    -0.0000020   -0.0000004     0.0000009   -0.0000002    -0.0037090    0.0010649 
   0.158992100    -0.0384472   -0.1338236    -0.0000011    0.0000015    -0.0000003   -0.0000002    -0.0060916    0.0044159 
   0.160992000    -0.0407917   -0.1273672    -0.0000010   -0.0000012     0.0000002   -0.0000001    -0.0078692    0.0080975 
   0.162991900    -0.0422806   -0.1206464     0.0000007   -0.0000001     0.0000002   -0.0000004    -0.0089178    0.0120211 
   0.164991800    -0.0428529   -0.1138232    -0.0000009   -0.0000006    -0.0000003   -0.0000007    -0.0091486    0.0160722 
   0.166991700    -0.0424918   -0.1070379    -0.0000010   -0.0000001     0.0000010   -0.0000010    -0.0086773    0.0200820 
   0.168991600    -0.0412453   -0.1004821     0.0000007    0.0000000     0.0000007   -0.0000008    -0.0074798    0.0239070 
   0.170991500    -0.0391820   -0.0942387     0.0000006   -0.0000003    -0.0000008   -0.0000006    -0.0056148    0.0274637 
   0.172991400    -0.0363296   -0.0884873    -0.0000010   -0.0000005     0.0000002   -0.0000002    -0.0031550    0.0306253 
   0.174991300    -0.0328145   -0.0833567    -0.0000038    0.0000011     0.0000001    0.0000014    -0.0001576    0.0332711 
   0.176991200    -0.0287557   -0.0789029     0.0000002   -0.0000008    -0.0000003   -0.0000011     0.0032402    0.0353195 
   0.178991100    -0.0242726   -0.0752112    -0.0000012    0.0000000     0.0000012   -0.0000016     0.0069196    0.0367385 
   0.180991000    -0.0195120   -0.0723676    -0.0000017    0.0000008     0.0000001    0.0000001     0.0108028    0.0374460 
   0.182990900    -0.0145938   -0.0703394    -0.0000027    0.0000000     0.0000009   -0.0000001     0.0146840    0.0374940 
   0.184990800    -0.0096754   -0.0692105    -0.0000018    0.0000003    -0.0000003    0.0000002     0.0185939    0.0368813 
   0.186990700    -0.0049013   -0.0688706    -0.0000015   -0.0000002     0.0000013   -0.0000008     0.0221948    0.0356013 
   0.188990600     0.0009427   -0.0691206    -0.0000002   -0.0000005     0.0000014   -0.0000017     0.0241758    0.0344678 
   0.190990500     0.0038300   -0.0702592    -0.0000006    0.0000006     0.0000014   -0.0000024     0.0283583    0.0314466 
   0.192990400     0.0072182   -0.0719100    -0.0000002   -0.0000002     0.0000013   -0.0000039     0.0309428    0.0285264 
   0.194990300     0.0102060   -0.0739605     0.0000004   -0.0000010     0.0000011   -0.0000013     0.0327345    0.0254340 
   0.196990200     0.0125720   -0.0763326    -0.0000006   -0.0000014     0.0000003   -0.0000011     0.0339154    0.0221453 
   0.198990100     0.0142819   -0.0788960    -0.0000010   -0.0000010     0.0000001   -0.0000029     0.0344435    0.0187920 
   0.200990000     0.0153676   -0.0815440    -0.0000018   -0.0000009    -0.0000004   -0.0000024     0.0343172    0.0154915 
   0.202989900     0.0158154   -0.0841079    -0.0000018   -0.0000016    -0.0000010   -0.0000020     0.0335738    0.0123679 
   0.204989800     0.0157062   -0.0864999    -0.0000022    0.0000016    -0.0000016   -0.0000026     0.0323066    0.0095678 
   0.206989700     0.0151586   -0.0886890    -0.0000015   -0.0000001    -0.0000016   -0.0000017     0.0305234    0.0071450 
   0.208989600     0.0141892   -0.0904800    -0.0000011    0.0000005    -0.0000012   -0.0000017     0.0283641    0.0052171 
   0.210989500     0.0129955   -0.0918331    -0.0000023    0.0000002     0.0000008   -0.0000001     0.0259360    0.0038383 
   0.212989400     0.0115502   -0.0928017    -0.0000004    0.0000014     0.0000008   -0.0000010     0.0232954    0.0030609 
   0.214989300     0.0100501   -0.0933055    -0.0000016    0.0000015     0.0000017   -0.0000002     0.0206587    0.0029056 
   0.216989200     0.0086256   -0.0933930     0.0000007    0.0000000     0.0000024   -0.0000025     0.0181020    0.0033460 
   0.218989100     0.0073565   -0.0931013     0.0000013    0.0000006     0.0000021   -0.0000015     0.0157904    0.0043810 
   0.220989000     0.0062885   -0.0924663     0.0000007   -0.0000003     0.0000031   -0.0000032     0.0137544    0.0059279 
   0.222988900     0.0055178   -0.0915592     0.0000009   -0.0000005     0.0000017   -0.0000050     0.0121667    0.0079667 
   0.224988800     0.0050878   -0.0905073     0.0000009    0.0000007     0.0000015   -0.0000043     0.0111232    0.0103573 
   0.226988700     0.0050722   -0.0893893    -0.0000003   -0.0000007     0.0000015   -0.0000043     0.0106446    0.0129775 
   0.228988600     0.0054858   -0.0883143    -0.0000002    0.0000005     0.0000009   -0.0000029     0.0107874    0.0157342 
   0.230988500     0.0063011   -0.0874117     0.0000018   -0.0000011     0.0000017   -0.0000034     0.0116015    0.0184977 
   0.232988400     0.0074991   -0.0866830    -0.0000019   -0.0000028     0.0000004   -0.0000041     0.0130696    0.0211431 
   0.234988300     0.0089533   -0.0863533    -0.0000014   -0.0000017     0.0000002   -0.0000044     0.0151976    0.0235203 
   0.236988200     0.0106439   -0.0864616    -0.0000020   -0.0000005     0.0000009   -0.0000065     0.0178537    0.0255202 
   0.238988100     0.0124493   -0.0870343    -0.0000008   -0.0000015     0.0000000   -0.0000037     0.0210400    0.0270471 
   0.240988000     0.0143231   -0.0881735    -0.0000024   -0.0000011    -0.0000002   -0.0000061     0.0245944    0.0279625 
   0.242987900     0.0161224   -0.0898460    -0.0000018   -0.0000001    -0.0000007   -0.0000050     0.0284010    0.0282335 
   0.244987800     0.0176975   -0.0920643    -0.0000017   -0.0000006     0.0000014   -0.0000046     0.0323602    0.0277890 
   0.246987700     0.0189279   -0.0947714    -0.0000010   -0.0000010     0.0000008   -0.0000056     0.0363346    0.0265781 
   0.248987600     0.0196737   -0.0979379    -0.0000038    0.0000003    -0.0000022   -0.0000056     0.0401702    0.0246339 
   0.250987500     0.0198852   -0.1014386    -0.0000032   -0.0000006    -0.0000001   -0.0000043     0.0437533    0.0219901 
   0.252987400     0.0194798   -0.1052509    -0.0000020   -0.0000001    -0.0000005   -0.0000043     0.0469611    0.0186606 
   0.254987300     0.0184586   -0.1091836    -0.0000027    0.0000022     0.0000000   -0.0000048     0.0495980    0.0147481 
   0.256987200     0.0167535   -0.1131625    -0.0000011    0.0000018     0.0000011   -0.0000038     0.0516459    0.0103357 
   0.258987100     0.0143268   -0.1171310    -0.0000019    0.0000010     0.0000011   -0.0000053     0.0529099    0.0055718 
   0.260987000     0.0111634   -0.1207470    -0.0000025    0.0000012     0.0000008   -0.0000045     0.0534104    0.0005796 
   0.262986900     0.0072951   -0.1239526    -0.0000005    0.0000012     0.0000005   -0.0000042     0.0530904   -0.0045290 
   0.264986800     0.0028214   -0.1266637    -0.0000004    0.0000011    -0.0000011   -0.0000045     0.0519008   -0.0095675 
   0.266986700    -0.0022455   -0.1289596    -0.0000019   -0.0000011    -0.0000004   -0.0000050     0.0498866   -0.0144192 
   0.268986600    -0.0075969   -0.1304348    -0.0000005    0.0000004     0.0000000   -0.0000052     0.0470884   -0.0188886 
   0.270986500    -0.0131088   -0.1310207    -0.0000012    0.0000011    -0.0000006   -0.0000060     0.0435784   -0.0229321 
   0.272986400    -0.0187454   -0.1308239    -0.0000006    0.0000023    -0.0000005   -0.0000064     0.0394225   -0.0263585 
   0.274986300    -0.0243050   -0.1298792    -0.0000008   -0.0000005     0.0000011   -0.0000060     0.0348087   -0.0290000 
   0.276986200    -0.0297908   -0.1280849    -0.0000009    0.0000015     0.0000015   -0.0000062     0.0297817   -0.0308870 
   0.278986100    -0.0350240   -0.1255795     0.0000008   -0.0000005    -0.0000007   -0.0000061     0.0246203   -0.0318798 
   0.280986000    -0.0397912   -0.1223605    -0.0000008   -0.0000002    -0.0000012   -0.0000074     0.0194090   -0.0319946 
   0.282985900    -0.0439252   -0.1184946    -0.0000007   -0.0000008    -0.0000005   -0.0000078     0.0143537   -0.0312070 
   0.284985800    -0.0473373   -0.1141727    -0.0000003   -0.0000002    -0.0000013   -0.0000057     0.0095601   -0.0295394 
   0.286985700    -0.0499617   -0.1095437    -0.0000002   -0.0000010    -0.0000018   -0.0000071     0.0052172   -0.0271094 
   0.288985600    -0.0516911   -0.1048481     0.0000006   -0.0000014    -0.0000023   -0.0000068     0.0014351   -0.0240179 
   0.290985500    -0.0525579   -0.1002314    -0.0000018    0.0000002    -0.0000008   -0.0000092    -0.0016909   -0.0203033 
   0.292985400    -0.0525666   -0.0958400    -0.0000015   -0.0000012    -0.0000025   -0.0000078    -0.0040147   -0.0161728 
   0.294985300    -0.0518409   -0.0918008    -0.0000007   -0.0000013    -0.0000037   -0.0000086    -0.0054990   -0.0117770 
   0.296985200    -0.0504715   -0.0881424    -0.0000006   -0.0000011    -0.0000032   -0.0000070    -0.0061031   -0.0072671 
   0.298985100    -0.0486138   -0.0850842    -0.0000009    0.0000000    -0.0000043   -0.0000076    -0.0058268   -0.0027565 
   0.300985000    -0.0464214   -0.0828082    -0.0000034   -0.0000016    -0.0000047   -0.0000064    -0.0047008    0.0014694 
   0.302984900    -0.0439894   -0.0814715    -0.0000025   -0.0000013    -0.0000051   -0.0000080    -0.0027567    0.0053482 
   0.304984800    -0.0415601   -0.0811166    -0.0000032   -0.0000017    -0.0000063   -0.0000066    -0.0001273    0.0086721 
   0.306984700    -0.0393616   -0.0817033    -0.0000037    0.0000003    -0.0000078   -0.0000044     0.0031317    0.0113910 
   0.308984600    -0.0375827   -0.0832741    -0.0000043    0.0000027    -0.0000075   -0.0000039     0.0068308    0.0133037 
   0.310984500    -0.0364836   -0.0857146    -0.0000014    0.0000031    -0.0000060   -0.0000020     0.0108403    0.0144579 
   0.312984400    -0.0363353   -0.0887653    -0.0000023    0.0000040    -0.0000059   -0.0000003     0.0149991    0.0146477 
   0.314984300    -0.0373445   -0.0923474    -0.0000003    0.0000033    -0.0000047   -0.0000003     0.0191124    0.0139753 
