! MS46122B
! 2250307/22442219
! 2/18/2026 2:12:37 PM
! C:\USERS\SPARKY\DOCUMENTS\VNA_DATA\FEB18_2026\7K2\OPEN.S2P
! CHANNEL.1
! TR.MEASUREMENT
! RAW.DATA
# GHZ S RI R 50.0
! FREQ.GHZ         S11RE         S11IM         S21RE         S21IM         S12RE         S12IM         S22RE         S22IM         
!; PortSelection: Port_12
   0.001000000     1.0452950   -0.0677656     0.0000038   -0.0000017     0.0000054   -0.0000031     0.8083597   -0.5596875 
   0.002999900     0.9560366   -0.2078609     0.0000025    0.0000002    -0.0000055    0.0000010     0.0190905   -0.8698174 
   0.004999800     0.7548813   -0.4504959    -0.0000013   -0.0000035     0.0000002   -0.0000044    -0.7542185   -0.4094676 
   0.006999700     0.9567192    0.1128922    -0.0000007   -0.0000011     0.0000014   -0.0000054    -0.7823156    0.5169174 
   0.008999600     0.9387529   -0.1965700    -0.0000023    0.0000003    -0.0000014   -0.0000009    -0.0373136    0.9879103 
   0.010999500     0.8932003   -0.3138111     0.0000022    0.0000009     0.0000023   -0.0000024     0.6552112    0.7298581 
   0.012999400     0.8488725   -0.4013747     0.0000002    0.0000019    -0.0000035   -0.0000017     0.9304127    0.2141869 
   0.014999300     0.8035349   -0.4775749     0.0000002    0.0000026     0.0000002   -0.0000019     0.9010623   -0.2524053 
   0.016999200     0.7549295   -0.5477437    -0.0000014    0.0000020     0.0000018   -0.0000006     0.7149328   -0.5912692 
   0.018999100     0.7010943   -0.6132070     0.0000021    0.0000015    -0.0000015   -0.0000018     0.4603672   -0.8046703 
   0.020999000     0.6412846   -0.6737429     0.0000010    0.0000013    -0.0000005   -0.0000017     0.1877501   -0.9108781 
   0.022998900     0.5744558   -0.7290362    -0.0000008    0.0000005     0.0000005    0.0000003    -0.0761669   -0.9300402 
   0.024998800     0.4951227   -0.7435368    -0.0000020   -0.0000003    -0.0000009   -0.0000036    -0.3181688   -0.9516599 
   0.026998700     0.4140393   -0.8216110     0.0000015    0.0000007    -0.0000025   -0.0000027    -0.5159335   -0.7792612 
   0.028998600     0.3182732   -0.8549834    -0.0000019   -0.0000030    -0.0000021   -0.0000028    -0.6777056   -0.6404073 
   0.030998500     0.2119846   -0.8770109     0.0000007    0.0000003     0.0000002   -0.0000004    -0.7970917   -0.4770912 
   0.032998400     0.1049724   -0.8533608     0.0000020    0.0000009    -0.0000008   -0.0000004    -0.9326800   -0.3368436 
   0.034998300    -0.0349154   -0.8724445    -0.0000017    0.0000017    -0.0000015   -0.0000005    -0.9121920   -0.1182439 
   0.036998200    -0.1726682   -0.8355912    -0.0000002   -0.0000027    -0.0000039    0.0000030    -0.9142435    0.0607679 
   0.038998100    -0.3157212   -0.7683938    -0.0000001   -0.0000026    -0.0000039    0.0000010    -0.8833477    0.2317118 
   0.040998000    -0.4573965   -0.6630368    -0.0000005   -0.0000015     0.0000002   -0.0000023    -0.8235359    0.3903948 
   0.042997900    -0.5857453   -0.5135057    -0.0000028   -0.0000008    -0.0000025    0.0000003    -0.7388102    0.5334077 
   0.044997800    -0.6580786   -0.3171641    -0.0000020   -0.0000002    -0.0000020   -0.0000008    -0.6911731    0.7002897 
   0.046997700    -0.7288755   -0.0705716    -0.0000020    0.0000025    -0.0000032    0.0000024    -0.5061598    0.7603974 
   0.048997600    -0.6925901    0.2008412    -0.0000035    0.0000028     0.0000000    0.0000024    -0.3646429    0.8393345 
   0.050997500    -0.5566639    0.4635012     0.0000064    0.0000032     0.0000035    0.0000032    -0.2125163    0.8924694 
   0.052997400    -0.3252335    0.6688133    -0.0000015   -0.0000063     0.0000013   -0.0000003    -0.0536184    0.9178215 
   0.054997300    -0.0313930    0.7747991    -0.0000065    0.0000008    -0.0000066    0.0000002     0.1111087    0.9143624 
   0.056997200     0.2712446    0.7651667    -0.0000013   -0.0000013     0.0000000   -0.0000002     0.2701169    0.8819684 
   0.058997100     0.5326092    0.6578720    -0.0000010   -0.0000004    -0.0000018    0.0000020     0.4228301    0.8208228 
   0.060997000     0.7265130    0.4877478    -0.0000003    0.0000004     0.0000012    0.0000012     0.5634500    0.7319682 
   0.062996900     0.8488979    0.2902088    -0.0000015   -0.0000003    -0.0000010    0.0000012     0.6868801    0.6180218 
   0.064996800     0.9083584    0.0905557    -0.0000010    0.0000010     0.0000032    0.0000005     0.7888998    0.4812321 
   0.066996700     0.9179771   -0.0966840    -0.0000006    0.0000014    -0.0000013    0.0000008     0.8646256    0.3267918 
   0.068996600     0.8911617   -0.2649250    -0.0000021   -0.0000017     0.0000003    0.0000009     0.9108803    0.1586835 
   0.070996500     0.8382781   -0.4117660    -0.0000003    0.0000001     0.0000019   -0.0000027     0.9246553   -0.0170276 
   0.072996400     0.7655045   -0.5369458     0.0000008   -0.0000022     0.0000001   -0.0000029     0.9043300   -0.1950724 
   0.074996300     0.6785839   -0.6416523    -0.0000003   -0.0000024    -0.0000009   -0.0000040     0.8499245   -0.3669575 
   0.076996200     0.5820346   -0.7270516     0.0000019   -0.0000015    -0.0000039   -0.0000007     0.7619683   -0.5266786 
   0.078996100     0.4783705   -0.7952117    -0.0000009   -0.0000042     0.0000012   -0.0000024     0.6430802   -0.6666735 
   0.080996000     0.3696160   -0.8459201     0.0000011   -0.0000032    -0.0000023   -0.0000026     0.4979309   -0.7813509 
   0.082995900     0.2565032   -0.8808820    -0.0000026   -0.0000054     0.0000007   -0.0000031     0.3324086   -0.8646097 
   0.084995800     0.1413700   -0.8989534    -0.0000007   -0.0000016     0.0000002   -0.0000004     0.1532567   -0.9131642 
   0.086995700     0.0251625   -0.9024990    -0.0000002   -0.0000036    -0.0000004   -0.0000045    -0.0320345   -0.9247128 
   0.088995600    -0.0915029   -0.8901944    -0.0000001   -0.0000034    -0.0000039   -0.0000060    -0.2151783   -0.8994839 
   0.090995500    -0.2070856   -0.8621461    -0.0000037   -0.0000006    -0.0000021   -0.0000050    -0.3887171   -0.8380650 
   0.092995400    -0.3209800   -0.8187908    -0.0000040   -0.0000007    -0.0000057    0.0000020    -0.5456058   -0.7441814 
   0.094995300    -0.4300750   -0.7566829     0.0000017    0.0000003    -0.0000004    0.0000024    -0.6805571   -0.6229069 
   0.096995200    -0.5330771   -0.6759993    -0.0000026    0.0000008    -0.0000025    0.0000033    -0.7880296   -0.4786903 
   0.098995100    -0.6262997   -0.5770886    -0.0000017   -0.0000001    -0.0000026    0.0000011    -0.8648841   -0.3180232 
   0.100995000    -0.7086203   -0.4569483    -0.0000039    0.0000044    -0.0000031    0.0000024    -0.9104123   -0.1462324 
   0.102994900    -0.7704890   -0.3195363     0.0000000    0.0000063    -0.0000012    0.0000051    -0.9212707    0.0279554 
   0.104994800    -0.8094879   -0.1645600     0.0000025    0.0000030     0.0000017    0.0000038    -0.8998913    0.1994497 
   0.106994700    -0.8184884    0.0045008     0.0000022    0.0000014     0.0000023    0.0000018    -0.8474138    0.3622444 
   0.108994600    -0.7923152    0.1823850     0.0000026    0.0000005     0.0000033    0.0000007    -0.7668778    0.5110614 
   0.110994500    -0.7254742    0.3606425     0.0000034    0.0000007     0.0000026    0.0000003    -0.6614782    0.6415578 
   0.112994400    -0.6145614    0.5275678     0.0000031    0.0000007     0.0000030    0.0000013    -0.5351030    0.7498493 
   0.114994300    -0.4601225    0.6701561     0.0000002   -0.0000019     0.0000020   -0.0000013    -0.3927099    0.8333139 
   0.116994200    -0.2685891    0.7740334     0.0000006   -0.0000010     0.0000025   -0.0000010    -0.2385151    0.8892661 
   0.118994100    -0.0513714    0.8273054     0.0000009   -0.0000026     0.0000022   -0.0000016    -0.0775543    0.9170519 
   0.120994000     0.1750934    0.8238726     0.0000009   -0.0000020     0.0000016   -0.0000019     0.0848152    0.9157258 
   0.122993900     0.3922434    0.7602049     0.0000006   -0.0000024     0.0000015   -0.0000009     0.2440723    0.8859007 
   0.124993800     0.5824981    0.6445802     0.0000003   -0.0000018     0.0000003   -0.0000031     0.3957554    0.8284849 
   0.126993700     0.7328667    0.4887626    -0.0000008   -0.0000019    -0.0000007   -0.0000024     0.5348150    0.7455857 
   0.128993600     0.8350862    0.3073701    -0.0000007   -0.0000020    -0.0000005   -0.0000021     0.6574201    0.6392261 
   0.130993500     0.8908501    0.1168851    -0.0000009   -0.0000008    -0.0000005   -0.0000021     0.7590771    0.5124080 
   0.132993400     0.9017553   -0.0717953    -0.0000023   -0.0000010    -0.0000013   -0.0000033     0.8371302    0.3690924 
   0.134993300     0.8739945   -0.2491319    -0.0000026   -0.0000008    -0.0000013   -0.0000030     0.8884791    0.2136313 
   0.136993200     0.8141810   -0.4081751    -0.0000005    0.0000007    -0.0000007   -0.0000024     0.9111938    0.0507013 
   0.138993100     0.7294919   -0.5460640    -0.0000006    0.0000000    -0.0000017   -0.0000009     0.9039221   -0.1144346 
   0.140993000     0.6259675   -0.6602541    -0.0000015    0.0000000    -0.0000013   -0.0000031     0.8667406   -0.2764290 
   0.142992900     0.5087970   -0.7512541    -0.0000015   -0.0000004    -0.0000006   -0.0000029     0.8003978   -0.4298161 
   0.144992800     0.3838316   -0.8194233    -0.0000039    0.0000009    -0.0000023   -0.0000007     0.7057151   -0.5685214 
   0.146992700     0.2529492   -0.8639538    -0.0000004   -0.0000006    -0.0000016   -0.0000016     0.5871502   -0.6881831 
   0.148992600     0.1199531   -0.8868031    -0.0000010   -0.0000011    -0.0000027    0.0000001     0.4476794   -0.7841939 
   0.150992500    -0.0127568   -0.8879300    -0.0000006    0.0000000    -0.0000023    0.0000008     0.2928420   -0.8532774 
   0.152992400    -0.1423558   -0.8702790    -0.0000005    0.0000010    -0.0000023   -0.0000005     0.1269568   -0.8917235 
   0.154992300    -0.2668290   -0.8336661    -0.0000011    0.0000012    -0.0000022    0.0000002    -0.0436520   -0.8984564 
   0.156992200    -0.3851203   -0.7783527    -0.0000009    0.0000003    -0.0000015    0.0000008    -0.2125160   -0.8728575 
   0.158992100    -0.4941826   -0.7054197    -0.0000016    0.0000014    -0.0000021    0.0000000    -0.3736060   -0.8160058 
   0.160992000    -0.5922464   -0.6160730    -0.0000002    0.0000015    -0.0000023    0.0000019    -0.5211136   -0.7297218 
   0.162991900    -0.6766316   -0.5106574     0.0000003    0.0000008    -0.0000012    0.0000013    -0.6494312   -0.6175221 
   0.164991800    -0.7454300   -0.3903116     0.0000011    0.0000011    -0.0000007    0.0000023    -0.7543250   -0.4839189 
   0.166991700    -0.7950892   -0.2570005     0.0000000    0.0000001     0.0000002    0.0000012    -0.8318683   -0.3335489 
   0.168991600    -0.8228016   -0.1129064     0.0000001    0.0000000     0.0000006    0.0000023    -0.8799828   -0.1716400 
   0.170991500    -0.8256107    0.0392774     0.0000006   -0.0000003    -0.0000007    0.0000011    -0.8972881   -0.0045377 
   0.172991400    -0.7998523    0.1950220    -0.0000014   -0.0000004     0.0000012    0.0000026    -0.8833788    0.1620577 
   0.174991300    -0.7445035    0.3489158    -0.0000012   -0.0000006     0.0000000    0.0000005    -0.8395135    0.3224307 
   0.176991200    -0.6568490    0.4952191     0.0000003   -0.0000005     0.0000016    0.0000020    -0.7673286    0.4715094 
   0.178991100    -0.5376228    0.6258361     0.0000002   -0.0000008     0.0000025    0.0000013    -0.6697387    0.6045762 
   0.180991000    -0.3891149    0.7337888     0.0000007   -0.0000028     0.0000033    0.0000004    -0.5503262    0.7170384 
   0.182990900    -0.2158465    0.8089034    -0.0000005   -0.0000013     0.0000034   -0.0000005    -0.4129683    0.8058076 
   0.184990800    -0.0252393    0.8452595    -0.0000019   -0.0000017     0.0000025    0.0000002    -0.2623189    0.8686740 
   0.186990700     0.1727297    0.8376385    -0.0000008   -0.0000016     0.0000026    0.0000002    -0.1033808    0.9034694 
   0.188990600     0.3425726    0.7945693    -0.0000017   -0.0000032     0.0000008   -0.0000053     0.0337936    0.9112776 
   0.190990500     0.5385099    0.6909546    -0.0000024   -0.0000018     0.0000008   -0.0000043     0.2164829    0.8869891 
   0.192990400     0.6905909    0.5556026    -0.0000012   -0.0000011     0.0000010   -0.0000038     0.3741120    0.8347523 
   0.194990300     0.8046575    0.3939714    -0.0000046   -0.0000009     0.0000001   -0.0000045     0.5171023    0.7567835 
   0.196990200     0.8782558    0.2149942    -0.0000040   -0.0000010    -0.0000002   -0.0000050     0.6440845    0.6543422 
   0.198990100     0.9098153    0.0288117    -0.0000037    0.0000004    -0.0000006   -0.0000039     0.7508138    0.5303160 
   0.200990000     0.9013653   -0.1551827    -0.0000044    0.0000012     0.0000004   -0.0000042     0.8340109    0.3885155 
   0.202989900     0.8566565   -0.3277493    -0.0000043    0.0000009    -0.0000027   -0.0000023     0.8906896    0.2333974 
   0.204989800     0.7804946   -0.4827339    -0.0000031    0.0000028    -0.0000037   -0.0000026     0.9183335    0.0697391 
   0.206989700     0.6805501   -0.6156426    -0.0000030    0.0000032    -0.0000035   -0.0000025     0.9157478   -0.0969830 
   0.208989600     0.5604104   -0.7233999    -0.0000027    0.0000052    -0.0000025   -0.0000011     0.8824965   -0.2613136 
   0.210989500     0.4264916   -0.8050890    -0.0000009    0.0000044    -0.0000033    0.0000008     0.8189284   -0.4177543 
   0.212989400     0.2835566   -0.8603350     0.0000014    0.0000068     0.0000009    0.0000030     0.7271811   -0.5605213 
   0.214989300     0.1366587   -0.8892706     0.0000039    0.0000040     0.0000007   -0.0000012     0.6095768   -0.6841598 
   0.216989200    -0.0093995   -0.8928269     0.0000046    0.0000016     0.0000011   -0.0000024     0.4699872   -0.7838278 
   0.218989100    -0.1520407   -0.8721995     0.0000036    0.0000011     0.0000006   -0.0000018     0.3136567   -0.8558999 
   0.220989000    -0.2882233   -0.8284161     0.0000023   -0.0000020     0.0000022   -0.0000033     0.1459140   -0.8968106 
   0.222988900    -0.4147910   -0.7628009     0.0000029   -0.0000013     0.0000006   -0.0000033    -0.0270695   -0.9050956 
   0.224988800    -0.5291858   -0.6773956     0.0000018   -0.0000035    -0.0000008   -0.0000026    -0.1986428   -0.8798775 
   0.226988700    -0.6286013   -0.5736192     0.0000003   -0.0000027     0.0000003   -0.0000030    -0.3620749   -0.8222225 
   0.228988600    -0.7092260   -0.4538415     0.0000007   -0.0000026     0.0000002   -0.0000021    -0.5112133   -0.7344227 
   0.230988500    -0.7697046   -0.3203275     0.0000002   -0.0000020     0.0000007   -0.0000028    -0.6403898   -0.6199415 
   0.232988400    -0.8055984   -0.1748902     0.0000009   -0.0000034     0.0000010   -0.0000018    -0.7450022   -0.4832353 
   0.234988300    -0.8167239   -0.0220354    -0.0000014   -0.0000024     0.0000007   -0.0000023    -0.8211048   -0.3299300 
   0.236988200    -0.7995264    0.1343189    -0.0000014   -0.0000054     0.0000015   -0.0000029    -0.8664405   -0.1656905 
   0.238988100    -0.7519768    0.2892350    -0.0000007   -0.0000032     0.0000010   -0.0000025    -0.8798974    0.0032502 
   0.240988000    -0.6736529    0.4355663    -0.0000033   -0.0000014     0.0000044   -0.0000014    -0.8612523    0.1702725 
   0.242987900    -0.5652952    0.5671890    -0.0000024   -0.0000028     0.0000021   -0.0000030    -0.8121861    0.3296543 
   0.244987800    -0.4285300    0.6768940    -0.0000031   -0.0000010     0.0000040   -0.0000031    -0.7348195    0.4761396 
   0.246987700    -0.2674097    0.7583210    -0.0000038   -0.0000015     0.0000027   -0.0000037    -0.6326033    0.6051566 
   0.248987600    -0.0880435    0.8042053    -0.0000048   -0.0000003     0.0000049   -0.0000050    -0.5092007    0.7121026 
   0.250987500     0.1006749    0.8102094    -0.0000024    0.0000009     0.0000037   -0.0000067    -0.3695702    0.7943975 
   0.252987400     0.2879268    0.7733268    -0.0000041    0.0000008     0.0000016   -0.0000067    -0.2181931    0.8497445 
   0.254987300     0.4624981    0.6952416    -0.0000034    0.0000028     0.0000035   -0.0000098    -0.0601789    0.8769210 
   0.256987200     0.6155505    0.5801995    -0.0000048    0.0000019     0.0000014   -0.0000105     0.0992675    0.8751539 
   0.258987100     0.7389882    0.4353621    -0.0000035    0.0000021    -0.0000006   -0.0000109     0.2551477    0.8452829 
   0.260987000     0.8254067    0.2683403    -0.0000034    0.0000036    -0.0000013   -0.0000114     0.4031073    0.7884029 
   0.262986900     0.8725147    0.0890895    -0.0000014    0.0000034    -0.0000033   -0.0000091     0.5381636    0.7063424 
   0.264986800     0.8804217   -0.0919459     0.0000000    0.0000018    -0.0000079   -0.0000072     0.6566652    0.6020142 
   0.266986700     0.8510135   -0.2661194    -0.0000011    0.0000026    -0.0000061   -0.0000047     0.7549921    0.4782830 
   0.268986600     0.7891325   -0.4255867    -0.0000007    0.0000011    -0.0000058   -0.0000019     0.8299410    0.3392182 
   0.270986500     0.6997018   -0.5647838     0.0000021    0.0000030    -0.0000027    0.0000008     0.8793062    0.1884104 
   0.272986400     0.5893335   -0.6811227     0.0000021    0.0000013     0.0000016    0.0000004     0.9013909    0.0308815 
   0.274986300     0.4633693   -0.7724919     0.0000015    0.0000001     0.0000036   -0.0000021     0.8948987   -0.1289341 
   0.276986200     0.3270665   -0.8378915     0.0000012   -0.0000001     0.0000050   -0.0000051     0.8593211   -0.2856417 
   0.278986100     0.1842540   -0.8776776     0.0000023   -0.0000014     0.0000061   -0.0000087     0.7966172   -0.4344727 
   0.280986000     0.0398652   -0.8923920     0.0000009   -0.0000023     0.0000032   -0.0000115     0.7074986   -0.5701224 
   0.282985900    -0.1023549   -0.8829700     0.0000016    0.0000004     0.0000022   -0.0000123     0.5945700   -0.6882276 
   0.284985800    -0.2391216   -0.8506125    -0.0000002   -0.0000016    -0.0000018   -0.0000134     0.4611225   -0.7840921 
   0.286985700    -0.3675580   -0.7969902    -0.0000005   -0.0000032    -0.0000037   -0.0000125     0.3116417   -0.8544493 
   0.288985600    -0.4840355   -0.7244508    -0.0000009   -0.0000021    -0.0000055   -0.0000105     0.1506455   -0.8961402 
   0.290985500    -0.5871279   -0.6346210    -0.0000007   -0.0000022    -0.0000075   -0.0000088    -0.0160049   -0.9074176 
   0.292985400    -0.6746091   -0.5290741    -0.0000024   -0.0000037    -0.0000072   -0.0000072    -0.1828945   -0.8870874 
   0.294985300    -0.7444295   -0.4098264    -0.0000023   -0.0000027    -0.0000074   -0.0000059    -0.3432697   -0.8356648 
   0.296985200    -0.7948078   -0.2780831    -0.0000035   -0.0000031    -0.0000087   -0.0000054    -0.4916582   -0.7546453 
   0.298985100    -0.8228132   -0.1369012    -0.0000052   -0.0000033    -0.0000081   -0.0000029    -0.6221373   -0.6472935 
   0.300985000    -0.8259411    0.0109775    -0.0000053   -0.0000020    -0.0000079   -0.0000036    -0.7301494   -0.5169115 
   0.302984900    -0.8020416    0.1604443    -0.0000067   -0.0000002    -0.0000087   -0.0000010    -0.8111938   -0.3688856 
   0.304984800    -0.7494849    0.3071278    -0.0000037   -0.0000008    -0.0000078    0.0000033    -0.8627606   -0.2082223 
   0.306984700    -0.6668161    0.4444841    -0.0000064    0.0000010    -0.0000050    0.0000030    -0.8832760   -0.0415025 
   0.308984600    -0.5553533    0.5658197    -0.0000049    0.0000047    -0.0000035    0.0000057    -0.8717412    0.1256585 
   0.310984500    -0.4170325    0.6634179    -0.0000017    0.0000049     0.0000000    0.0000044    -0.8293625    0.2868172 
   0.312984400    -0.2564357    0.7300577     0.0000004    0.0000050     0.0000021    0.0000038    -0.7577845    0.4365597 
   0.314984300    -0.0811204    0.7581753     0.0000017    0.0000061     0.0000050    0.0000033    -0.6601082    0.5694383 
