! MS46122B
! 2250307/22442219
! 2/18/2026 2:09:51 PM
! C:\USERS\SPARKY\DOCUMENTS\VNA_DATA\FEB18_2026\7K2\PORT1.S2P
! CHANNEL.1
! TR.MEASUREMENT
! RAW.DATA
# GHZ S RI R 50.0
! FREQ.GHZ         S11RE         S11IM         S21RE         S21IM         S12RE         S12IM         S22RE         S22IM         
!; PortSelection: Port_12
   0.001000000     1.0454390   -0.0672488    -0.0002636   -0.0009349    -0.0002120   -0.0009497     0.8091216   -0.5581588 
   0.002999900     0.9617364   -0.1936536    -0.0201903   -0.0145403    -0.0211779   -0.0151197     0.0537394   -0.8690311 
   0.004999800     0.8793005   -0.3135791    -0.1207972    0.0017204    -0.1276342    0.0044776    -0.7155036   -0.4359925 
   0.006999700     0.7124416   -0.3902964    -0.2300377    0.2907592    -0.2251921    0.3125499    -0.4152045    0.6640777 
   0.008999600     0.6341500   -0.3004476     0.2335982    0.5015336     0.2457525    0.5049043     0.5297300   -0.0366477 
   0.010999500     0.6646075   -0.3212306     0.4765676    0.2280343     0.4932083    0.2332409    -0.0073113   -0.5345894 
   0.012999400     0.6475351   -0.3857084     0.5065614    0.0128472     0.5273923    0.0076694    -0.4274538   -0.4000660 
   0.014999300     0.6029001   -0.4454725     0.4852341   -0.1477127     0.5017994   -0.1635604    -0.5975925   -0.1222711 
   0.016999200     0.5437092   -0.4929893     0.4383476   -0.2844365     0.4447881   -0.3057615    -0.5897948    0.1508800 
   0.018999100     0.4753652   -0.5254979     0.3660038   -0.4078427     0.3622763   -0.4281066    -0.4630291    0.3613459 
   0.020999000     0.4011554   -0.5405906     0.2645318   -0.5171558     0.2527396   -0.5311427    -0.2663373    0.4810393 
   0.022998900     0.3276911   -0.5356115     0.1295812   -0.6049975     0.1153861   -0.6094773    -0.0466973    0.4983967 
   0.024998800     0.2603502   -0.4877584    -0.0057054   -0.6849790    -0.0560534   -0.6539216     0.1569077    0.4558777 
   0.026998700     0.2106352   -0.4676836    -0.2261033   -0.6582207    -0.2288399   -0.6506600     0.2803342    0.2622857 
   0.028998600     0.1810788   -0.4160453    -0.4166598   -0.5963309    -0.4128058   -0.5917774     0.3191821    0.0722507 
   0.030998500     0.1742049   -0.3662885    -0.5831056   -0.4726253    -0.5771913   -0.4741445     0.2615176   -0.1023600 
   0.032998400     0.1830161   -0.3141561    -0.7146107   -0.3481220    -0.7050868   -0.2990938     0.1487212   -0.2276867 
   0.034998300     0.2032178   -0.3083248    -0.7614860   -0.1039769    -0.7647582   -0.1102793    -0.0285740   -0.2447654 
   0.036998200     0.2195069   -0.3041749    -0.7616445    0.0940285    -0.7675000    0.0924930    -0.1708557   -0.1913294 
   0.038998100     0.2279419   -0.3098374    -0.7125571    0.2770111    -0.7179850    0.2806543    -0.2626321   -0.0841254 
   0.040998000     0.2275434   -0.3211138    -0.6236798    0.4378806    -0.6246250    0.4442955    -0.2942068    0.0470299 
   0.042997900     0.2173826   -0.3328576    -0.5035017    0.5693453    -0.4987325    0.5752133    -0.2645812    0.1742702 
   0.044997800     0.1970900   -0.3259175    -0.4078998    0.6768600    -0.3444795    0.6768705    -0.2022602    0.2941548 
   0.046997700     0.1763050   -0.3420465    -0.1993381    0.7345969    -0.1915471    0.7322686    -0.0744829    0.3282007 
   0.048997600     0.1540271   -0.3360367    -0.0291317    0.7644594    -0.0235779    0.7580990     0.0460867    0.3326294 
   0.050997500     0.1350255   -0.3237768     0.1446237    0.7561666     0.1460806    0.7477951     0.1565418    0.2883257 
   0.052997400     0.1221954   -0.3074910     0.3143112    0.7088897     0.3098462    0.7019160     0.2380612    0.2048227 
   0.054997300     0.1162228   -0.2908453     0.4730415    0.6205099     0.4620821    0.6204173     0.2788798    0.0959478 
   0.056997200     0.1169317   -0.2771994     0.6030197    0.5007002     0.5962663    0.5018339     0.2720692   -0.0162617 
   0.058997100     0.1225510   -0.2693343     0.7031426    0.3509113     0.6986427    0.3549928     0.2219694   -0.1145740 
   0.060997000     0.1295387   -0.2687170     0.7645607    0.1816168     0.7631503    0.1865273     0.1390353   -0.1820917 
   0.062996900     0.1343625   -0.2751495     0.7838861    0.0043039     0.7855296    0.0080527     0.0394698   -0.2090931 
   0.064996800     0.1341249   -0.2868412     0.7621636   -0.1705715     0.7650065   -0.1689022    -0.0578467   -0.1937169 
   0.066996700     0.1269397   -0.3008211     0.7027212   -0.3333888     0.7040752   -0.3336096    -0.1365594   -0.1423096 
   0.068996600     0.1121368   -0.3139213     0.6104182   -0.4766325     0.6099377   -0.4770600    -0.1847171   -0.0669088 
   0.070996500     0.0915279   -0.3235393     0.4917088   -0.5960261     0.4896084   -0.5947618    -0.1967314    0.0174279 
   0.072996400     0.0664563   -0.3267386     0.3521529   -0.6867221     0.3495155   -0.6825917    -0.1742259    0.0953001 
   0.074996300     0.0397225   -0.3224846     0.1973424   -0.7460895     0.1967395   -0.7390614    -0.1239150    0.1546786 
   0.076996200     0.0143149   -0.3103785     0.0336487   -0.7725406     0.0366334   -0.7645411    -0.0559674    0.1868017 
   0.078996100    -0.0071413   -0.2914624    -0.1326966   -0.7646659    -0.1254234   -0.7569194     0.0170475    0.1882305 
   0.080996000    -0.0226844   -0.2674243    -0.2952243   -0.7214565    -0.2842416   -0.7166420     0.0823839    0.1601226 
   0.082995900    -0.0302358   -0.2411097    -0.4463970   -0.6435145    -0.4338750   -0.6438337     0.1296064    0.1081247 
   0.084995800    -0.0294610   -0.2149439    -0.5778151   -0.5337684    -0.5658416   -0.5390884     0.1499943    0.0424838 
   0.086995700    -0.0220643   -0.1925220    -0.6830686   -0.3962658    -0.6738067   -0.4052106     0.1409079   -0.0252201 
   0.088995600    -0.0095570   -0.1761531    -0.7554681   -0.2377425    -0.7499871   -0.2490996     0.1042266   -0.0822157 
   0.090995500     0.0052038   -0.1666288    -0.7905772   -0.0664933    -0.7891029   -0.0777339     0.0468784   -0.1180528 
   0.092995400     0.0192252   -0.1639522    -0.7868592    0.1082719    -0.7874829    0.0985901    -0.0203676   -0.1262551 
   0.094995300     0.0301105   -0.1665420    -0.7433962    0.2765980    -0.7455311    0.2693191    -0.0848660   -0.1052819 
   0.096995200     0.0363474   -0.1724529    -0.6643823    0.4306104    -0.6665252    0.4249033    -0.1345883   -0.0592214 
   0.098995100     0.0376170   -0.1793966    -0.5548115    0.5626790    -0.5560511    0.5572360    -0.1607865    0.0029151 
   0.100995000     0.0330742   -0.1865022    -0.4184029    0.6689280    -0.4210227    0.6620020    -0.1587537    0.0714731 
   0.102994900     0.0266634   -0.1893991    -0.2651407    0.7414482    -0.2695040    0.7338993    -0.1303805    0.1319632 
   0.104994800     0.0190503   -0.1887453    -0.1007819    0.7796635    -0.1075258    0.7723802    -0.0806767    0.1758504 
   0.106994700     0.0116718   -0.1845409     0.0676378    0.7823623     0.0579845    0.7767739    -0.0185991    0.1965629 
   0.108994600     0.0064919   -0.1778225     0.2327093    0.7498293     0.2207432    0.7475650     0.0456389    0.1915045 
   0.110994500     0.0042508   -0.1697654     0.3872637    0.6829034     0.3745001    0.6847644     0.1021221    0.1622367 
   0.112994400     0.0051332   -0.1619473     0.5245750    0.5848296     0.5127708    0.5908988     0.1417499    0.1145529 
   0.114994300     0.0086548   -0.1557234     0.6378561    0.4593962     0.6285279    0.4686289     0.1590060    0.0566114 
   0.116994200     0.0138324   -0.1520913     0.7216395    0.3120285     0.7160112    0.3234834     0.1520295   -0.0019544 
   0.118994100     0.0192529   -0.1516103     0.7714592    0.1498050     0.7695441    0.1616564     0.1230442   -0.0509638 
   0.120994000     0.0237915   -0.1536647     0.7852267   -0.0186810     0.7864107   -0.0082085     0.0779103   -0.0828232 
   0.122993900     0.0258260   -0.1580654     0.7620886   -0.1863090     0.7649533   -0.1771527     0.0252958   -0.0924659 
   0.124993800     0.0250618   -0.1632229     0.7035292   -0.3442229     0.7072444   -0.3365166    -0.0250447   -0.0790398 
   0.126993700     0.0214819   -0.1677227     0.6128988   -0.4854711     0.6173664   -0.4783539    -0.0638550   -0.0458348 
   0.128993600     0.0155991   -0.1703869     0.4945215   -0.6033814     0.5000681   -0.5966150    -0.0838012   -0.0001942 
   0.130993500     0.0085785   -0.1708982     0.3546333   -0.6933974     0.3617807   -0.6867684    -0.0818218    0.0491058 
   0.132993400     0.0015395   -0.1688223     0.1994350   -0.7520998     0.2086531   -0.7463767    -0.0588850    0.0926286 
   0.134993300    -0.0045379   -0.1644195     0.0355449   -0.7767910     0.0471502   -0.7729295    -0.0191846    0.1223820 
   0.136993200    -0.0086278   -0.1586373    -0.1296685   -0.7662464    -0.1162762   -0.7657086     0.0303209    0.1327432 
   0.138993100    -0.0103832   -0.1524822    -0.2891580   -0.7213005    -0.2754171   -0.7246839     0.0805715    0.1215853 
   0.140993000    -0.0099143   -0.1470731    -0.4355753   -0.6434653    -0.4229756   -0.6508599     0.1227968    0.0904023 
   0.142992900    -0.0079684   -0.1432314    -0.5622372   -0.5360618    -0.5525351   -0.5470708     0.1497289    0.0437052 
   0.144992800    -0.0054113   -0.1417548    -0.6633253   -0.4040764    -0.6576295   -0.4173110     0.1562102   -0.0107046 
   0.146992700    -0.0034615   -0.1424950    -0.7334431   -0.2535210    -0.7317983   -0.2667890     0.1410285   -0.0643101 
   0.148992600    -0.0031453   -0.1450345    -0.7694179   -0.0915374    -0.7710849   -0.1039859     0.1059672   -0.1086423 
   0.150992500    -0.0051207   -0.1483193    -0.7695606    0.0735635    -0.7736295    0.0629544     0.0562809   -0.1365078 
   0.152992400    -0.0098174   -0.1513847    -0.7352152    0.2346292    -0.7402710    0.2260159    -0.0004609   -0.1434428 
   0.154992300    -0.0169199   -0.1529345    -0.6676506    0.3839850    -0.6734645    0.3763941    -0.0554389   -0.1284244 
   0.156992200    -0.0256864   -0.1520326    -0.5704851    0.5150387    -0.5771298    0.5084834    -0.1001118   -0.0943060 
   0.158992100    -0.0348935   -0.1481781    -0.4488118    0.6225738    -0.4562645    0.6165559    -0.1281460   -0.0468001 
   0.160992000    -0.0434177   -0.1410699    -0.3076820    0.7022051    -0.3166873    0.6968141    -0.1360227    0.0062946 
   0.162991900    -0.0500677   -0.1312651    -0.1533557    0.7505863    -0.1644113    0.7469822    -0.1236397    0.0569721 
   0.164991800    -0.0539108   -0.1197503     0.0074761    0.7659649    -0.0045960    0.7649060    -0.0942244    0.0973675 
   0.166991700    -0.0544675   -0.1075949     0.1682390    0.7476913     0.1555253    0.7497622    -0.0533001    0.1224186 
   0.168991600    -0.0517554   -0.0960298     0.3220571    0.6959629     0.3095378    0.7017789    -0.0081069    0.1292144 
   0.170991500    -0.0462663   -0.0861647     0.4617997    0.6128765     0.4516621    0.6219535     0.0336994    0.1181946 
   0.172991400    -0.0389405   -0.0787837     0.5814120    0.5019916     0.5742663    0.5131938     0.0656732    0.0927246 
   0.174991300    -0.0308728   -0.0742863     0.6748707    0.3677577     0.6711231    0.3804193     0.0832368    0.0582508 
   0.176991200    -0.0232648   -0.0725313     0.7378703    0.2165243     0.7371169    0.2288573     0.0841322    0.0218022 
   0.178991100    -0.0170007   -0.0728929     0.7670221    0.0553057     0.7691116    0.0664818     0.0696708   -0.0097341 
   0.180991000    -0.0126763   -0.0743660     0.7615376   -0.1083027     0.7651086   -0.0983755     0.0434438   -0.0304354 
   0.182990900    -0.0104424   -0.0759361     0.7207400   -0.2670032     0.7261499   -0.2578198     0.0111922   -0.0365151 
   0.184990800    -0.0098332   -0.0766729     0.6477868   -0.4130160     0.6539595   -0.4051746    -0.0201410   -0.0271868 
   0.186990700    -0.0100346   -0.0758588     0.5457636   -0.5399446     0.5528387   -0.5333815    -0.0438114   -0.0044990 
   0.188990600    -0.0086476   -0.0734011     0.4383285   -0.6290023     0.4438367   -0.6259412    -0.0561825    0.0258795 
   0.190990500    -0.0089736   -0.0691346     0.2770831   -0.7148488     0.2873730   -0.7112013    -0.0511031    0.0618544 
   0.192990400    -0.0061626   -0.0641092     0.1168606   -0.7578756     0.1287891   -0.7567067    -0.0317685    0.0928356 
   0.194990300    -0.0007259   -0.0592817    -0.0461822   -0.7655295    -0.0334631   -0.7675178    -0.0005696    0.1140081 
   0.196990200     0.0071799   -0.0557459    -0.2068809   -0.7386830    -0.1947352   -0.7444633     0.0379060    0.1213373 
   0.198990100     0.0169864   -0.0546871    -0.3589080   -0.6784601    -0.3483026   -0.6873649     0.0775268    0.1128321 
   0.200990000     0.0275836   -0.0569808    -0.4949612   -0.5866991    -0.4869347   -0.5981554     0.1117165    0.0894229 
   0.202989900     0.0378066   -0.0629024    -0.6081716   -0.4678489    -0.6038277   -0.4806934     0.1350811    0.0544071 
   0.204989800     0.0461882   -0.0723614    -0.6934785   -0.3275006    -0.6924127   -0.3400637     0.1440709    0.0126873 
   0.206989700     0.0515049   -0.0846989    -0.7466902   -0.1722735    -0.7478352   -0.1840637     0.1369600   -0.0291964 
   0.208989600     0.0527205   -0.0986216    -0.7645954   -0.0097029    -0.7682171   -0.0207325     0.1153347   -0.0653853 
   0.210989500     0.0494220   -0.1127447    -0.7475715    0.1524465    -0.7524620    0.1428645     0.0826332   -0.0906378 
   0.212989400     0.0416270   -0.1255300    -0.6964754    0.3063564    -0.7025971    0.2985168     0.0440416   -0.1018582 
   0.214989300     0.0298573   -0.1355368    -0.6142828    0.4453517    -0.6213878    0.4384329     0.0055384   -0.0982489 
   0.216989200     0.0155407   -0.1415912    -0.5054460    0.5629715    -0.5141052    0.5572993    -0.0271144   -0.0815228 
   0.218989100    -0.0001385   -0.1430524    -0.3748680    0.6548318    -0.3853671    0.6506137    -0.0496343   -0.0556070 
   0.220989000    -0.0157580   -0.1397860    -0.2291057    0.7173409    -0.2406063    0.7152258    -0.0599875   -0.0256120 
   0.222988900    -0.0297820   -0.1318905    -0.0739710    0.7480224    -0.0858573    0.7490866    -0.0581910    0.0033019 
   0.224988800    -0.0408600   -0.1201491     0.0840170    0.7462934     0.0727959    0.7501323    -0.0464729    0.0266428 
   0.226988700    -0.0480295   -0.1057959     0.2379682    0.7119013     0.2283127    0.7185909    -0.0285954    0.0412412 
   0.228988600    -0.0508053   -0.0901571     0.3814231    0.6464587     0.3738160    0.6552275    -0.0091239    0.0458227 
   0.230988500    -0.0491126   -0.0743795     0.5087994    0.5525889     0.5035317    0.5626928     0.0076305    0.0414258 
   0.232988400    -0.0429643   -0.0597927     0.6136400    0.4335256     0.6111823    0.4443571     0.0179143    0.0306560 
   0.234988300    -0.0332737   -0.0475467     0.6918928    0.2949268     0.6916447    0.3052010     0.0195004    0.0173934 
   0.236988200    -0.0207792   -0.0384429     0.7390252    0.1422472     0.7408623    0.1520366     0.0123433    0.0061729 
   0.238988100    -0.0064285   -0.0329104     0.7532960   -0.0171259     0.7562407   -0.0087372    -0.0015634    0.0011407 
   0.240988000     0.0087342   -0.0312484     0.7326800   -0.1767081     0.7368971   -0.1683952    -0.0185258    0.0052409 
   0.242987900     0.0237617   -0.0333299     0.6786091   -0.3280005     0.6847167   -0.3198299    -0.0338889    0.0195243 
   0.244987800     0.0378646   -0.0388835     0.5932487   -0.4646468     0.6015595   -0.4565614    -0.0428323    0.0426696 
   0.246987700     0.0503499   -0.0475211     0.4803991   -0.5797713     0.4909859   -0.5732780    -0.0411828    0.0715954 
   0.248987600     0.0606525   -0.0586342     0.3458565   -0.6676823     0.3582208   -0.6640065    -0.0267473    0.1014770 
   0.250987500     0.0684507   -0.0717145     0.1953243   -0.7248270     0.2088240   -0.7248172     0.0005747    0.1266991 
   0.252987400     0.0736029   -0.0863364     0.0368930   -0.7484468     0.0500949   -0.7521065     0.0384574    0.1418606 
   0.254987300     0.0758188   -0.1019710    -0.1225507   -0.7371463    -0.1105201   -0.7448629     0.0826507    0.1432584 
   0.256987200     0.0752103   -0.1181564    -0.2752583   -0.6926418    -0.2656222   -0.7033982     0.1277088    0.1285964 
   0.258987100     0.0715798   -0.1346614    -0.4144245   -0.6170847    -0.4081801   -0.6293874     0.1672967    0.0982891 
   0.260987000     0.0645023   -0.1504583    -0.5334225   -0.5135584    -0.5310304   -0.5264381     0.1959202    0.0549228 
   0.262986900     0.0541712   -0.1650842    -0.6275169   -0.3879516    -0.6282753   -0.4000905     0.2093344    0.0031320 
   0.264986800     0.0405563   -0.1781499    -0.6924319   -0.2462264    -0.6957519   -0.2567730     0.2052272   -0.0511095 
   0.266986700     0.0240187   -0.1884664    -0.7260658   -0.0948313    -0.7307367   -0.1033935     0.1836449   -0.1017531 
   0.268986600     0.0052829   -0.1956103    -0.7269807    0.0589671    -0.7326362    0.0521025     0.1471640   -0.1424169 
   0.270986500    -0.0149772   -0.1990475    -0.6962481    0.2086768    -0.7025348    0.2028320     0.1001205   -0.1690276 
   0.272986400    -0.0363269   -0.1983493    -0.6354375    0.3479685    -0.6428373    0.3427230     0.0483816   -0.1786567 
   0.274986300    -0.0573211   -0.1931569    -0.5477626    0.4711708    -0.5562632    0.4665919    -0.0017912   -0.1713952 
   0.276986200    -0.0772407   -0.1833382    -0.4371385    0.5735132    -0.4472858    0.5704010    -0.0443456   -0.1492715 
   0.278986100    -0.0948007   -0.1692654    -0.3081579    0.6507196    -0.3191085    0.6496834    -0.0755369   -0.1164562 
   0.280986000    -0.1091632   -0.1512007    -0.1663662    0.7000453    -0.1771580    0.7017257    -0.0924124   -0.0784856 
   0.282985900    -0.1192470   -0.1305291    -0.0175010    0.7193637    -0.0272155    0.7236133    -0.0951742   -0.0408149 
   0.284985800    -0.1245718   -0.1081247     0.1325826    0.7076567     0.1247731    0.7139730    -0.0858378   -0.0085814 
   0.286985700    -0.1243851   -0.0852727     0.2776332    0.6653318     0.2721505    0.6729487    -0.0681930    0.0144915 
   0.288985600    -0.1189487   -0.0635317     0.4112507    0.5932678     0.4075569    0.6018579    -0.0470148    0.0267517 
   0.290985500    -0.1086415   -0.0439673     0.5276276    0.4945187     0.5253132    0.5035495    -0.0271729    0.0286240 
   0.292985400    -0.0942332   -0.0279935     0.6209036    0.3728803     0.6199876    0.3823140    -0.0130103    0.0224801 
   0.294985300    -0.0767608   -0.0162341     0.6867033    0.2332887     0.6872208    0.2430320    -0.0072301    0.0121281 
   0.296985200    -0.0572725   -0.0091779     0.7213110    0.0824197     0.7230509    0.0920518    -0.0104117    0.0023647 
   0.298985100    -0.0371319   -0.0072772     0.7224609   -0.0730167     0.7258591   -0.0641793    -0.0209122   -0.0021899 
   0.300985000    -0.0178368   -0.0103497     0.6898638   -0.2254578     0.6951462   -0.2175470    -0.0352229    0.0019070 
   0.302984900    -0.0004004   -0.0179778     0.6248965   -0.3673467     0.6321918   -0.3604536    -0.0485003    0.0160060 
   0.304984800     0.0143137   -0.0294665     0.5304798   -0.4914784     0.5397996   -0.4863936    -0.0553774    0.0392772 
   0.306984700     0.0256580   -0.0440957     0.4117400   -0.5918463     0.4224272   -0.5895534    -0.0515735    0.0681996 
   0.308984600     0.0331245   -0.0607238     0.2746176   -0.6633162     0.2860241   -0.6642991    -0.0344126    0.0973844 
   0.310984500     0.0365568   -0.0785400     0.1262664   -0.7029357     0.1370417   -0.7072245    -0.0037537    0.1207330 
   0.312984400     0.0358266   -0.0968394    -0.0260388   -0.7094433    -0.0168274   -0.7165369     0.0373989    0.1321208 
   0.314984300     0.0310386   -0.1149460    -0.1748397   -0.6828383    -0.1679020   -0.6919053     0.0834406    0.1271715 
