! MS46122B
! 2250307/22442219
! 2/18/2026 2:16:26 PM
! C:\USERS\SPARKY\DOCUMENTS\VNA_DATA\FEB18_2026\7K2\PORT4.S2P
! CHANNEL.1
! TR.MEASUREMENT
! RAW.DATA
# GHZ S RI R 50.0
! FREQ.GHZ         S11RE         S11IM         S21RE         S21IM         S12RE         S12IM         S22RE         S22IM         
!; PortSelection: Port_12
   0.001000000     1.0455850   -0.0672767    -0.0003008   -0.0009318    -0.0002459   -0.0009482     0.8099653   -0.5575510 
   0.002999900     0.9619750   -0.1937620    -0.0203499   -0.0143683    -0.0213233   -0.0149581     0.0554018   -0.8699954 
   0.004999800     0.8798745   -0.3140005    -0.1210104    0.0018379    -0.1278598    0.0045655    -0.7154906   -0.4379312 
   0.006999700     0.7130174   -0.3923349    -0.2324488    0.2910918    -0.2278035    0.3128361    -0.4157168    0.6666702 
   0.008999600     0.6320571   -0.3021905     0.2337418    0.5074890     0.2453814    0.5108186     0.5395245   -0.0433719 
   0.010999500     0.6627158   -0.3217705     0.4808492    0.2318104     0.4972904    0.2375649    -0.0099109   -0.5489962 
   0.012999400     0.6454888   -0.3860841     0.5118266    0.0144919     0.5329458    0.0097749    -0.4394426   -0.4102401 
   0.014999300     0.6008739   -0.4457165     0.4910799   -0.1476438     0.5079845   -0.1633753    -0.6139160   -0.1251291 
   0.016999200     0.5413496   -0.4930589     0.4445561   -0.2861066     0.4512485   -0.3075078    -0.6066169    0.1558374 
   0.018999100     0.4724648   -0.5251821     0.3722490   -0.4115748     0.3686027   -0.4319409    -0.4770336    0.3734934 
   0.020999000     0.3977309   -0.5395879     0.2701436   -0.5232694     0.2580958   -0.5372596    -0.2745576    0.4983808 
   0.022998900     0.3239280   -0.5333992     0.1334959   -0.6134112     0.1191918   -0.6176354    -0.0475386    0.5179926 
   0.024998800     0.2565553   -0.4842507    -0.0040178   -0.6956972    -0.0549380   -0.6638694     0.1642382    0.4760113 
   0.026998700     0.2077972   -0.4621459    -0.2288416   -0.6692827    -0.2310490   -0.6611748     0.2938434    0.2761487 
   0.028998600     0.1800564   -0.4090775    -0.4234110   -0.6061414    -0.4187785   -0.6016991     0.3359812    0.0792395 
   0.030998500     0.1757479   -0.3586021    -0.5931301   -0.4794781    -0.5862482   -0.4813944     0.2781867   -0.1023735 
   0.032998400     0.1870449   -0.3070762    -0.7264786   -0.3517794    -0.7161640   -0.3027253     0.1633549   -0.2331700 
   0.034998300     0.2098974   -0.3028277    -0.7727120   -0.1031042    -0.7757225   -0.1102058    -0.0195525   -0.2526283 
   0.036998200     0.2277232   -0.3008804    -0.7712873    0.0977004    -0.7772794    0.0955249    -0.1656185   -0.1995119 
   0.038998100     0.2366820   -0.3092357    -0.7202796    0.2826703    -0.7260096    0.2858093    -0.2601431   -0.0913015 
   0.040998000     0.2359729   -0.3230416    -0.6294640    0.4445195    -0.6305254    0.4505783    -0.2932941    0.0413403 
   0.042997900     0.2248323   -0.3369530    -0.5075377    0.5764046    -0.5029085    0.5819684    -0.2641909    0.1699275 
   0.044997800     0.2029963   -0.3315388    -0.4109401    0.6842995    -0.3470850    0.6838104    -0.2016010    0.2904207 
   0.046997700     0.1804679   -0.3491940    -0.2007474    0.7419298    -0.1931730    0.7392162    -0.0734965    0.3250833 
   0.048997600     0.1561761   -0.3438586    -0.0294372    0.7719479    -0.0241467    0.7651722     0.0475166    0.3293618 
   0.050997500     0.1351041   -0.3318397     0.1455199    0.7638000     0.1465809    0.7550789     0.1582949    0.2843917 
   0.052997400     0.1202874   -0.3151414     0.3164727    0.7164977     0.3116049    0.7093391     0.2397087    0.1998419 
   0.054997300     0.1125372   -0.2976460     0.4770033    0.6278543     0.4653514    0.6278318     0.2798760    0.0897863 
   0.056997200     0.1118030   -0.2827690     0.6086297    0.5074370     0.6012592    0.5087171     0.2718630   -0.0236094 
   0.058997100     0.1164038   -0.2733726     0.7104564    0.3563870     0.7053988    0.3609279     0.2198375   -0.1228225 
   0.060997000     0.1228864   -0.2711750     0.7732491    0.1854870     0.7714174    0.1908703     0.1344036   -0.1903002 
   0.062996900     0.1276702   -0.2760954     0.7934504    0.0059923     0.7951112    0.0103704     0.0321462   -0.2165405 
   0.064996800     0.1275684   -0.2862810     0.7721573   -0.1711226     0.7749715   -0.1689413    -0.0677369   -0.1992424 
   0.066996700     0.1208428   -0.2990673     0.7124687   -0.3362617     0.7138114   -0.3360395    -0.1481675   -0.1449939 
   0.068996600     0.1067261   -0.3112244     0.6192159   -0.4817083     0.6187860   -0.4817375    -0.1969613   -0.0661666 
   0.070996500     0.0868666   -0.3199213     0.4993060   -0.6031494     0.4972511   -0.6014326    -0.2086339    0.0217502 
   0.072996400     0.0625239   -0.3224434     0.3579189   -0.6954684     0.3554853   -0.6908731    -0.1844939    0.1028942 
   0.074996300     0.0367157   -0.3175607     0.2010477   -0.7558597     0.2006991   -0.7485042    -0.1314407    0.1647719 
   0.076996200     0.0122899   -0.3049356     0.0350169   -0.7830471     0.0384253   -0.7746357    -0.0603234    0.1984862 
   0.078996100    -0.0080655   -0.2856351    -0.1337738   -0.7754445    -0.1257384   -0.7674798     0.0163146    0.2003888 
   0.080996000    -0.0224314   -0.2614734    -0.2987035   -0.7317349    -0.2870195   -0.7266739     0.0850209    0.1713920 
   0.082995900    -0.0286860   -0.2352822    -0.4522201   -0.6527411    -0.4388967   -0.6530286     0.1350783    0.1176777 
   0.084995800    -0.0265671   -0.2095170    -0.5858083   -0.5414250    -0.5730141   -0.5469835     0.1574537    0.0495917 
   0.086995700    -0.0179210   -0.1878529    -0.6925399   -0.4017974    -0.6825778   -0.4112588     0.1493280   -0.0208666 
   0.088995600    -0.0043837   -0.1725550    -0.7658274   -0.2409229    -0.7600965   -0.2529246     0.1126033   -0.0806445 
   0.090995500     0.0110985   -0.1644384    -0.8014169   -0.0670728    -0.7995956   -0.0790451     0.0544376   -0.1187372 
   0.092995400     0.0254282   -0.1633059    -0.7973478    0.1101265    -0.7978008    0.0997728    -0.0141673   -0.1285768 
   0.094995300     0.0361607   -0.1674601    -0.7529465    0.2806627    -0.7550544    0.2727745    -0.0803358   -0.1084870 
   0.096995200     0.0418614   -0.1748831    -0.6726986    0.4366212    -0.6748663    0.4301808    -0.1315964   -0.0625906 
   0.098995100     0.0422451   -0.1831488    -0.5614856    0.5701421    -0.5629578    0.5641318    -0.1589882   -0.0000882 
   0.100995000     0.0364103   -0.1911301    -0.4234053    0.6772532    -0.4261862    0.6697837    -0.1577082    0.0690467 
   0.102994900     0.0286498   -0.1945442    -0.2682943    0.7504690    -0.2729832    0.7424291    -0.1295849    0.1301834 
   0.104994800     0.0195356   -0.1940700    -0.1021157    0.7891724    -0.1092680    0.7813778    -0.0797357    0.1745528 
   0.106994700     0.0108626   -0.1895494     0.0679716    0.7917735     0.0578527    0.7860390    -0.0173145    0.1954633 
   0.108994600     0.0044325   -0.1822800     0.2351406    0.7590222     0.2224674    0.7565299     0.0473443    0.1902515 
   0.110994500     0.0011646   -0.1733777     0.3914562    0.6915889     0.3780853    0.6934696     0.1041879    0.1604644 
   0.112994400     0.0013886   -0.1645261     0.5305604    0.5925512     0.5179042    0.5988781     0.1438626    0.1119971 
   0.114994300     0.0045977   -0.1571679     0.6453507    0.4656573     0.6355397    0.4754355     0.1607431    0.0531684 
   0.116994200     0.0097191   -0.1524312     0.7304429    0.3166984     0.7242898    0.3287075     0.1530260   -0.0062626 
   0.118994100     0.0154122   -0.1508504     0.7812242    0.1525040     0.7789493    0.1649820     0.1228712   -0.0558437 
   0.120994000     0.0204917   -0.1520872     0.7953538   -0.0180751     0.7963836   -0.0070809     0.0762761   -0.0877981 
   0.122993900     0.0231821   -0.1557403     0.7721823   -0.1880462     0.7750824   -0.1783296     0.0221082   -0.0970661 
   0.124993800     0.0232195   -0.1604868     0.7130743   -0.3482294     0.7169245   -0.3400072    -0.0296739   -0.0826307 
   0.126993700     0.0204626   -0.1647993     0.6214074   -0.4914001     0.6258900   -0.4837896    -0.0692973   -0.0478825 
   0.128993600     0.0153650   -0.1674485     0.5015389   -0.6110655     0.5072307   -0.6039352    -0.0896132   -0.0004181 
   0.130993500     0.0091373   -0.1680948     0.3597642   -0.7024642     0.3670976   -0.6953984    -0.0873590    0.0506411 
   0.132993400     0.0027679   -0.1663566     0.2023822   -0.7621560     0.2120079   -0.7557927    -0.0633246    0.0957385 
   0.134993300    -0.0027664   -0.1624512     0.0362483   -0.7870817     0.0482618   -0.7828368    -0.0221373    0.1265647 
   0.136993200    -0.0063911   -0.1572498    -0.1312465   -0.7765515    -0.1172831   -0.7756293     0.0290484    0.1373932 
   0.138993100    -0.0078530   -0.1517907    -0.2930163   -0.7309165    -0.2785067   -0.7341013     0.0809987    0.1259713 
   0.140993000    -0.0072994   -0.1471205    -0.4413149   -0.6518891    -0.4281548   -0.6595166     0.1246862    0.0938899 
   0.142992900    -0.0054172   -0.1440902    -0.5696348   -0.5428371    -0.5592509   -0.5542073     0.1526015    0.0459670 
   0.144992800    -0.0031577   -0.1433597    -0.6719571   -0.4091531    -0.6656895   -0.4228426     0.1594194   -0.0099773 
   0.146992700    -0.0017040   -0.1448146    -0.7428790   -0.2566106    -0.7407499   -0.2703812     0.1439521   -0.0651452 
   0.148992600    -0.0021145   -0.1479065    -0.7791276   -0.0925542    -0.7808170   -0.1055075     0.1080855   -0.1106803 
   0.150992500    -0.0049445   -0.1515485    -0.7791736    0.0746414    -0.7830733    0.0633578     0.0571817   -0.1393387 
   0.152992400    -0.0106498   -0.1546579    -0.7443384    0.2375801    -0.7493876    0.2283486    -0.0010389   -0.1465588 
   0.154992300    -0.0187284   -0.1561322    -0.6758650    0.3886335    -0.6817212    0.3804721    -0.0574321   -0.1311966 
   0.156992200    -0.0284718   -0.1547756    -0.5776012    0.5211787    -0.5844892    0.5140870    -0.1033166   -0.0961952 
   0.158992100    -0.0385422   -0.1500125    -0.4545805    0.6300573    -0.4623070    0.6234168    -0.1321367   -0.0473724 
   0.160992000    -0.0476788   -0.1419959    -0.3118867    0.7106014    -0.3212681    0.7046791    -0.1402813    0.0071888 
   0.162991900    -0.0546516   -0.1309251    -0.1559303    0.7598042    -0.1673914    0.7557110    -0.1275600    0.0593698 
   0.164991800    -0.0585194   -0.1181455     0.0069305    0.7755816    -0.0059188    0.7741959    -0.0973120    0.1011409 
   0.166991700    -0.0586943   -0.1047278     0.1696411    0.7573413     0.1560176    0.7591190    -0.0552307    0.1271088 
   0.168991600    -0.0552831   -0.0919728     0.3254632    0.7052624     0.3123155    0.7113072    -0.0084886    0.1343663 
   0.170991500    -0.0488121   -0.0810456     0.4672428    0.6213612     0.4563629    0.6307323     0.0348760    0.1232793 
   0.172991400    -0.0401913   -0.0729837     0.5886994    0.5092930     0.5809027    0.5208123     0.0681799    0.0972970 
   0.174991300    -0.0306562   -0.0681686     0.6837367    0.3733317     0.6794526    0.3864562     0.0868539    0.0618998 
   0.176991200    -0.0214793   -0.0664183     0.7476440    0.2202194     0.7469675    0.2329753     0.0884529    0.0242984 
   0.178991100    -0.0137218   -0.0672281     0.7776307    0.0564500     0.7794573    0.0681701     0.0742025   -0.0084627 
   0.180991000    -0.0080540   -0.0695598     0.7721335   -0.1096126     0.7755501   -0.0991234     0.0478383   -0.0302318 
   0.182990900    -0.0046319   -0.0722579     0.7308396   -0.2707219     0.7361992   -0.2610825     0.0152376   -0.0371903 
   0.184990800    -0.0031529   -0.0743635     0.6567695   -0.4189481     0.6628861   -0.4105556    -0.0166270   -0.0284030 
   0.186990700    -0.0029004   -0.0751177     0.5529224   -0.5478224     0.5603199   -0.5405740    -0.0407451   -0.0059279 
   0.188990600    -0.0013542   -0.0740852     0.4438364   -0.6380303     0.4495405   -0.6343653    -0.0534097    0.0243664 
   0.190990500    -0.0018678   -0.0716881     0.2798998   -0.7247397     0.2908533   -0.7206260    -0.0484499    0.0602068 
   0.192990400     0.0003569   -0.0682801     0.1174378   -0.7680398     0.1301305   -0.7664604    -0.0289986    0.0910197 
   0.194990300     0.0048876   -0.0648911    -0.0477374   -0.7753990    -0.0344247   -0.7773598     0.0022977    0.1117660 
   0.196990200     0.0115626   -0.0626495    -0.2106251   -0.7478577    -0.1976856   -0.7535474     0.0408691    0.1184491 
   0.198990100     0.0198176   -0.0625172    -0.3644331   -0.6862679    -0.3529956   -0.6954404     0.0803945    0.1091177 
   0.200990000     0.0287198   -0.0654037    -0.5016659   -0.5933230    -0.4930941   -0.6048796     0.1141699    0.0846981 
   0.202989900     0.0370520   -0.0716382    -0.6160294   -0.4725648    -0.6111585   -0.4859311     0.1367330    0.0486223 
   0.204989800     0.0434712   -0.0809871    -0.7019035   -0.3304767    -0.7005020   -0.3436033     0.1444882    0.0060627 
   0.206989700     0.0468869   -0.0927581    -0.7554292   -0.1735383    -0.7563776   -0.1859630     0.1358479   -0.0363224 
   0.208989600     0.0463179   -0.1057233    -0.7732769   -0.0090471    -0.7767304   -0.0208355     0.1123343   -0.0726815 
   0.210989500     0.0414302   -0.1184515    -0.7558892    0.1545393    -0.7607457    0.1443166     0.0777146   -0.0974142 
   0.212989400     0.0322953   -0.1295168    -0.7041494    0.3099045    -0.7103563    0.3014447     0.0372862   -0.1076551 
   0.214989300     0.0196813   -0.1374883    -0.6211349    0.4502682    -0.6285529    0.4428247    -0.0028358   -0.1024193 
   0.216989200     0.0048385   -0.1412955    -0.5113010    0.5691293    -0.5202302    0.5629387    -0.0365440   -0.0837016 
   0.218989100    -0.0108263   -0.1403726    -0.3796012    0.6620276    -0.3903349    0.6573481    -0.0595995   -0.0555043 
   0.220989000    -0.0258885   -0.1347578    -0.2322365    0.7253809    -0.2442549    0.7229179    -0.0698905   -0.0231261 
   0.222988900    -0.0387885   -0.1244847    -0.0756928    0.7567498    -0.0879481    0.7575762    -0.0673517    0.0081606 
   0.224988800    -0.0483047   -0.1108001     0.0842664    0.7554125     0.0725000    0.7591749    -0.0543348    0.0335716 
   0.226988700    -0.0534218   -0.0948208     0.2401750    0.7209139     0.2299132    0.7275254    -0.0346983    0.0497252 
   0.228988600    -0.0537439   -0.0779021     0.3855723    0.6549919     0.3774146    0.6638225    -0.0130794    0.0554884 
   0.230988500    -0.0493063   -0.0615063     0.5150548    0.5600621     0.5091166    0.5704048     0.0058959    0.0516175 
   0.232988400    -0.0402644   -0.0469447     0.6215123    0.4395306     0.6185670    0.4508527     0.0183851    0.0408038 
   0.234988300    -0.0276992   -0.0353510     0.7010653    0.2990439     0.7002485    0.3098247     0.0220811    0.0270746 
   0.236988200    -0.0124219   -0.0275092     0.7490522    0.1442182     0.7504497    0.1543199     0.0167044    0.0150084 
   0.238988100     0.0042765   -0.0239859     0.7633675   -0.0177772     0.7659454   -0.0087488     0.0042591    0.0088635 
   0.240988000     0.0213681   -0.0248191     0.7423672   -0.1795623     0.7462881   -0.1707081    -0.0115571    0.0117122 
   0.242987900     0.0377738   -0.0298557     0.6870369   -0.3331770     0.6931815   -0.3242123    -0.0259595    0.0246502 
   0.244987800     0.0524397   -0.0386135     0.6000535   -0.4715518     0.6086026   -0.4626534    -0.0341642    0.0464708 
   0.246987700     0.0647051   -0.0504502     0.4852914   -0.5876965     0.4964040   -0.5806924    -0.0319532    0.0739771 
   0.248987600     0.0741520   -0.0647761     0.3486809   -0.6763092     0.3616881   -0.6722079    -0.0169517    0.1023132 
   0.250987500     0.0803564   -0.0807750     0.1962508   -0.7336250     0.2102862   -0.7331778     0.0105937    0.1257530 
   0.252987400     0.0832580   -0.0978300     0.0357310   -0.7565844     0.0498263   -0.7603692     0.0484393    0.1391696 
   0.254987300     0.0829445   -0.1155362    -0.1250863   -0.7447472    -0.1124172   -0.7524005     0.0923793    0.1384968 
   0.256987200     0.0791916   -0.1331515    -0.2790946   -0.6991636    -0.2689004   -0.7101952     0.1366705    0.1218509 
   0.258987100     0.0721950   -0.1500431    -0.4190473   -0.6223797    -0.4125681   -0.6351207     0.1750593    0.0896569 
   0.260987000     0.0617678   -0.1655619    -0.5388535   -0.5178498    -0.5360613   -0.5311041     0.2020310    0.0444479 
   0.262986900     0.0480810   -0.1794901    -0.6332585   -0.3913591    -0.6339762   -0.4038358     0.2132489   -0.0087267 
   0.264986800     0.0315288   -0.1908236    -0.6985947   -0.2485345    -0.7016846   -0.2594266     0.2066163   -0.0640222 
   0.266986700     0.0124889   -0.1989156    -0.7323442   -0.0963712    -0.7369146   -0.1050385     0.1823024   -0.1149703 
   0.268986600    -0.0082989   -0.2034421    -0.7336473    0.0585830    -0.7390769    0.0513521     0.1428451   -0.1554967 
   0.270986500    -0.0300110   -0.2038477    -0.7029794    0.2092969    -0.7091502    0.2031066     0.0928902   -0.1811060 
   0.272986400    -0.0520986   -0.1999320    -0.6421955    0.3497298    -0.6494492    0.3440905     0.0385079   -0.1891117 
   0.274986300    -0.0731823   -0.1912780    -0.5543399    0.4742925    -0.5628375    0.4692036    -0.0140095   -0.1795219 
   0.276986200    -0.0923902   -0.1781187    -0.4433326    0.5779958    -0.4536029    0.5744021    -0.0583198   -0.1544949 
   0.278986100    -0.1086280   -0.1609007    -0.3136031    0.6566719    -0.3247385    0.6549670    -0.0904433   -0.1184473 
   0.280986000    -0.1209881   -0.1400499    -0.1706925    0.7072094    -0.1817952    0.7084317    -0.1074890   -0.0770186 
   0.282985900    -0.1286931   -0.1168798    -0.0201661    0.7277597    -0.0304029    0.7315351    -0.1095393   -0.0359152 
   0.284985800    -0.1307116   -0.0927265     0.1318447    0.7167525     0.1234125    0.7227504    -0.0986714   -0.0005761 
   0.286985700    -0.1271170   -0.0688019     0.2790528    0.6745262     0.2728197    0.6820226    -0.0787624    0.0250184 
   0.288985600    -0.1179340   -0.0465642     0.4148664    0.6022872     0.4104736    0.6108775    -0.0547890    0.0393011 
   0.290985500    -0.1040150   -0.0276469     0.5334271    0.5024355     0.5304231    0.5116999    -0.0319458    0.0422836 
   0.292985400    -0.0861485   -0.0130071     0.6285683    0.3791231     0.6269565    0.3890150    -0.0147099    0.0364790 
   0.294985300    -0.0654131   -0.0032325     0.6956766    0.2374990     0.6957637    0.2478634    -0.0059676    0.0258543 
   0.296985200    -0.0431500    0.0009265     0.7310122    0.0842314     0.7325237    0.0945736    -0.0065237    0.0152100 
   0.298985100    -0.0212704   -0.0004828     0.7322171   -0.0736649     0.7353984   -0.0639971    -0.0148876    0.0093439 
   0.300985000    -0.0008872   -0.0072902     0.6988177   -0.2283368     0.7042142   -0.2196183    -0.0274026    0.0118426 
   0.302984900     0.0167890   -0.0189085     0.6327359   -0.3720435     0.6403230   -0.3645505    -0.0391987    0.0242493 
   0.304984800     0.0308412   -0.0342875     0.5367200   -0.4976893     0.5464860   -0.4920937    -0.0450149    0.0457003 
   0.306984700     0.0405723   -0.0523344     0.4161409   -0.5988610     0.4274249   -0.5962731    -0.0403783    0.0726667 
   0.308984600     0.0456447   -0.0720090     0.2773533   -0.6707920     0.2893338   -0.6716074    -0.0225297    0.0998502 
   0.310984500     0.0460957   -0.0921667     0.1275149   -0.7103576     0.1387058   -0.7146777     0.0085137    0.1211302 
   0.312984400     0.0420672   -0.1121853    -0.0262436   -0.7165544    -0.0166152   -0.7237082     0.0496378    0.1302563 
   0.314984300     0.0337659   -0.1308866    -0.1760259   -0.6895137    -0.1689089   -0.6987606     0.0954174    0.1229090 
