! MS46122B
! 2250307/22442219
! 2/18/2026 2:13:41 PM
! C:\USERS\SPARKY\DOCUMENTS\VNA_DATA\FEB18_2026\7K2\PORT2.S2P
! CHANNEL.1
! TR.MEASUREMENT
! RAW.DATA
# GHZ S RI R 50.0
! FREQ.GHZ         S11RE         S11IM         S21RE         S21IM         S12RE         S12IM         S22RE         S22IM         
!; PortSelection: Port_12
   0.001000000     1.0455030   -0.0671950    -0.0003046   -0.0009312    -0.0002460   -0.0009468     0.8096972   -0.5576660 
   0.002999900     0.9618999   -0.1937305    -0.0203672   -0.0143636    -0.0213392   -0.0149435     0.0548857   -0.8697426 
   0.004999800     0.8798433   -0.3139511    -0.1209881    0.0019021    -0.1278253    0.0046371    -0.7153212   -0.4373093 
   0.006999700     0.7130167   -0.3923288    -0.2321445    0.2910361    -0.2274821    0.3127509    -0.4147013    0.6659822 
   0.008999600     0.6320333   -0.3022937     0.2335299    0.5071670     0.2452003    0.5105354     0.5389252   -0.0438448 
   0.010999500     0.6625302   -0.3217719     0.4806740    0.2318092     0.4971561    0.2375707    -0.0102427   -0.5491994 
   0.012999400     0.6454239   -0.3859870     0.5117351    0.0145470     0.5328546    0.0098137    -0.4398209   -0.4104486 
   0.014999300     0.6007507   -0.4455349     0.4909530   -0.1476275     0.5079057   -0.1634388    -0.6144106   -0.1253034 
   0.016999200     0.5412318   -0.4928448     0.4444204   -0.2861301     0.4511281   -0.3075871    -0.6072689    0.1557261 
   0.018999100     0.4724424   -0.5248980     0.3720797   -0.4115663     0.3684043   -0.4320694    -0.4777191    0.3734906 
   0.020999000     0.3977845   -0.5392181     0.2699133   -0.5231997     0.2578622   -0.5372788    -0.2753102    0.4985118 
   0.022998900     0.3241039   -0.5330536     0.1331995   -0.6132784     0.1188625   -0.6175115    -0.0483486    0.5181749 
   0.024998800     0.2569512   -0.4838504    -0.0043059   -0.6954033    -0.0552643   -0.6636261     0.1632486    0.4763937 
   0.026998700     0.2083438   -0.4618311    -0.2289722   -0.6688148    -0.2313268   -0.6607218     0.2927962    0.2768471 
   0.028998600     0.1806940   -0.4089341    -0.4233337   -0.6055896    -0.4188963   -0.6010801     0.3349015    0.0803425 
   0.030998500     0.1764354   -0.3587145    -0.5928231   -0.4788846    -0.5860928   -0.4807761     0.2773221   -0.1007932 
   0.032998400     0.1877112   -0.3073982    -0.7258939   -0.3513086    -0.7157238   -0.3021664     0.1628104   -0.2310769 
   0.034998300     0.2104160   -0.3033416    -0.7719310   -0.1029391    -0.7750606   -0.1099102    -0.0193937   -0.2504185 
   0.036998200     0.2281842   -0.3013921    -0.7705535    0.0976177    -0.7765361    0.0956897    -0.1648172   -0.1973299 
   0.038998100     0.2368638   -0.3099900    -0.7197244    0.2822685    -0.7253416    0.2855929    -0.2587568   -0.0893273 
   0.040998000     0.2359431   -0.3238288    -0.6290239    0.4439817    -0.6300840    0.4500828    -0.2914644    0.0429130 
   0.042997900     0.2246174   -0.3377576    -0.5073326    0.5757996    -0.5025812    0.5814409    -0.2620072    0.1710694 
   0.044997800     0.2026651   -0.3322031    -0.4109133    0.6836349    -0.3470976    0.6832684    -0.1990690    0.2911782 
   0.046997700     0.1799341   -0.3498677    -0.2009002    0.7414219    -0.1932634    0.7387042    -0.0710520    0.3252508 
   0.048997600     0.1554586   -0.3443912    -0.0297508    0.7714663    -0.0244339    0.7647574     0.0499499    0.3290838 
   0.050997500     0.1342514   -0.3321883     0.1451456    0.7635128     0.1462141    0.7548019     0.1607037    0.2836638 
   0.052997400     0.1193509   -0.3153550     0.3161001    0.7163734     0.3111599    0.7092642     0.2420713    0.1986838 
   0.054997300     0.1115353   -0.2976306     0.4766033    0.6278248     0.4649967    0.6279078     0.2820846    0.0880814 
   0.056997200     0.1107579   -0.2825558     0.6083490    0.5075155     0.6010528    0.5089086     0.2737999   -0.0257678 
   0.058997100     0.1154125   -0.2728987     0.7101963    0.3565618     0.7053239    0.3611462     0.2213155   -0.1254919 
   0.060997000     0.1220235   -0.2704976     0.7731172    0.1856310     0.7714673    0.1910416     0.1353451   -0.1933724 
   0.062996900     0.1269065   -0.2751874     0.7934188    0.0060729     0.7952662    0.0104434     0.0324187   -0.2198380 
   0.064996800     0.1270306   -0.2852556     0.7721243   -0.1711312     0.7751173   -0.1689966    -0.0681902   -0.2026053 
   0.066996700     0.1204708   -0.2979229     0.7124422   -0.3363083     0.7139188   -0.3362547    -0.1493339   -0.1483124 
   0.068996600     0.1066148   -0.3100083     0.6191304   -0.4817608     0.6187837   -0.4819942    -0.1988770   -0.0692128 
   0.070996500     0.0869593   -0.3186468     0.4990864   -0.6031893     0.4971117   -0.6017299    -0.2111434    0.0190649 
   0.072996400     0.0629398   -0.3210957     0.3576355   -0.6954613     0.3551364   -0.6911494    -0.1875038    0.1007592 
   0.074996300     0.0373119   -0.3163489     0.2006810   -0.7557794     0.2002557   -0.7486793    -0.1348871    0.1632604 
   0.076996200     0.0131646   -0.3038186     0.0347220   -0.7828408     0.0378935   -0.7746038    -0.0640807    0.1976434 
   0.078996100    -0.0069659   -0.2847019    -0.1340854   -0.7751136    -0.1263206   -0.7672356     0.0123562    0.2002315 
   0.080996000    -0.0211284   -0.2607501    -0.2989692   -0.7312585    -0.2875165   -0.7262383     0.0809732    0.1720206 
   0.082995900    -0.0271524   -0.2348305    -0.4523596   -0.6522429    -0.4392452   -0.6524184     0.1310847    0.1191539 
   0.084995800    -0.0249880   -0.2093869    -0.5857334   -0.5407705    -0.5731921   -0.5462109     0.1537538    0.0519109 
   0.086995700    -0.0163067   -0.1880461    -0.6922453   -0.4011782    -0.6824389   -0.4104263     0.1459832   -0.0177114 
   0.088995600    -0.0027678   -0.1730920    -0.7653611   -0.2403682    -0.7597247   -0.2521355     0.1099012   -0.0767380 
   0.090995500     0.0125691   -0.1652943    -0.8007163   -0.0666884    -0.7989722   -0.0784317     0.0525758   -0.1141863 
   0.092995400     0.0266817   -0.1644877    -0.7965593    0.1102807    -0.7969918    0.1001273    -0.0149921   -0.1235720 
   0.094995300     0.0371700   -0.1688643    -0.7520994    0.2805921    -0.7541824    0.2728365    -0.0800697   -0.1032896 
   0.096995200     0.0426262   -0.1765210    -0.6719960    0.4363089    -0.6740210    0.4299691    -0.1301520   -0.0574916 
   0.098995100     0.0426758   -0.1849091    -0.5608565    0.5696494    -0.5622346    0.5636185    -0.1564479    0.0046186 
   0.100995000     0.0364596   -0.1928874    -0.4229189    0.6765968    -0.4256609    0.6692165    -0.1541476    0.0731323 
   0.102994900     0.0283313   -0.1963328    -0.2680545    0.7497671    -0.2727085    0.7417281    -0.1252362    0.1334462 
   0.104994800     0.0189067   -0.1957580    -0.1020707    0.7884082    -0.1093621    0.7806442    -0.0747826    0.1768868 
   0.106994700     0.0098638   -0.1911860     0.0680780    0.7912040     0.0577225    0.7853724    -0.0119799    0.1967670 
   0.108994600     0.0031652   -0.1836762     0.2347726    0.7583400     0.2221478    0.7560644     0.0528739    0.1904357 
   0.110994500    -0.0003467   -0.1745270     0.3909832    0.6911061     0.3776869    0.6931275     0.1096614    0.1595496 
   0.112994400    -0.0003500   -0.1653681     0.5299546    0.5922643     0.5175139    0.5986345     0.1491554    0.1100647 
   0.114994300     0.0026697   -0.1576768     0.6447806    0.4655366     0.6351317    0.4754192     0.1656355    0.0501793 
   0.116994200     0.0076710   -0.1525731     0.7298928    0.3166833     0.7239942    0.3287989     0.1572915   -0.0102312 
   0.118994100     0.0133487   -0.1505944     0.7807896    0.1526308     0.7787375    0.1651382     0.1263159   -0.0606881 
   0.120994000     0.0184705   -0.1514004     0.7949359   -0.0178667     0.7962984   -0.0069027     0.0787205   -0.0933711 
   0.122993900     0.0212925   -0.1546221     0.7719224   -0.1877493     0.7750759   -0.1782036     0.0234014   -0.1030989 
   0.124993800     0.0215509   -0.1590471     0.7129142   -0.3478137     0.7169256   -0.3399573    -0.0296378   -0.0889494 
   0.126993700     0.0190791   -0.1630201     0.6213483   -0.4910252     0.6259063   -0.4838361    -0.0705611   -0.0541535 
   0.128993600     0.0143426   -0.1654024     0.5014760   -0.6108214     0.5071862   -0.6040207    -0.0921617   -0.0063564 
   0.130993500     0.0084982   -0.1658675     0.3597036   -0.7022349     0.3669865   -0.6954880    -0.0910904    0.0452872 
   0.132993400     0.0025674   -0.1640080     0.2023810   -0.7619460     0.2117746   -0.7559329    -0.0681411    0.0912597 
   0.134993300    -0.0025472   -0.1600174     0.0362338   -0.7869143     0.0480528   -0.7828851    -0.0278213    0.1231230 
   0.136993200    -0.0056639   -0.1548959    -0.1312850   -0.7763132    -0.1176091   -0.7755740     0.0227603    0.1351444 
   0.138993100    -0.0066356   -0.1495724    -0.2930049   -0.7307130    -0.2788500   -0.7339155     0.0742850    0.1250298 
   0.140993000    -0.0056643   -0.1450941    -0.4413243   -0.6516495    -0.4284306   -0.6591510     0.1178799    0.0943251 
   0.142992900    -0.0033680   -0.1424163    -0.5696344   -0.5427425    -0.5594732   -0.5538057     0.1459245    0.0477603 
   0.144992800    -0.0007919   -0.1420842    -0.6717922   -0.4089030    -0.6657598   -0.4223260     0.1531969   -0.0068439 
   0.146992700     0.0009016   -0.1439820    -0.7427166   -0.2564048    -0.7406514   -0.2698724     0.1384014   -0.0607489 
   0.148992600     0.0006504   -0.1476111    -0.7788776   -0.0923903    -0.7805989   -0.1050175     0.1035055   -0.1051852 
   0.150992500    -0.0021548   -0.1517697    -0.7788732    0.0749032    -0.7826654    0.0637678     0.0537508   -0.1329237 
   0.152992400    -0.0078968   -0.1554419    -0.7439443    0.2377969    -0.7488519    0.2285854    -0.0030612   -0.1394259 
   0.154992300    -0.0161217   -0.1574409    -0.6754489    0.3886337    -0.6811990    0.3806240    -0.0579493   -0.1237245 
   0.156992200    -0.0261164   -0.1566105    -0.5770467    0.5211664    -0.5839520    0.5140751    -0.1022444   -0.0886602 
   0.158992100    -0.0365443   -0.1522627    -0.4540156    0.6299005    -0.4617563    0.6232727    -0.1294646   -0.0402603 
   0.160992000    -0.0461188   -0.1446408    -0.3112397    0.7103321    -0.3207800    0.7044021    -0.1361582    0.0136708 
   0.162991900    -0.0536231   -0.1339605    -0.1554443    0.7593285    -0.1670285    0.7553204    -0.1222011    0.0648444 
   0.164991800    -0.0580569   -0.1213059     0.0072796    0.7749854    -0.0055976    0.7737346    -0.0909453    0.1053634 
   0.166991700    -0.0588572   -0.1079876     0.1697719    0.7566578     0.1561786    0.7586454    -0.0480798    0.1299193 
   0.168991600    -0.0560835   -0.0951960     0.3254156    0.7045467     0.3123229    0.7107511    -0.0009481    0.1356612 
   0.170991500    -0.0502567   -0.0841432     0.4669088    0.6207535     0.4563337    0.6302274     0.0424981    0.1230544 
   0.172991400    -0.0422559   -0.0757688     0.5883137    0.5086616     0.5806419    0.5203234     0.0756332    0.0954945 
   0.174991300    -0.0333050   -0.0705120     0.6830714    0.3728440     0.6791835    0.3860626     0.0937847    0.0586770 
   0.176991200    -0.0246014   -0.0682430     0.7469392    0.2199296     0.7466218    0.2326785     0.0945994    0.0197348 
   0.178991100    -0.0171962   -0.0684053     0.7768838    0.0563699     0.7790402    0.0679598     0.0793522   -0.0141936 
   0.180991000    -0.0117489   -0.0700362     0.7713450   -0.1095006     0.7751368   -0.0992305     0.0517929   -0.0369626 
   0.182990900    -0.0084142   -0.0719884     0.7301985   -0.2703754     0.7357236   -0.2609888     0.0177878   -0.0445655 
   0.184990800    -0.0068697   -0.0733301     0.6562091   -0.4184767     0.6624895   -0.4104406    -0.0156644   -0.0361445 
   0.186990700    -0.0063885   -0.0733261     0.5526056   -0.5471708     0.5599961   -0.5404396    -0.0413946   -0.0137117 
   0.188990600    -0.0045070   -0.0717077     0.4436750   -0.6374165     0.4493030   -0.6342267    -0.0554545    0.0167684 
   0.190990500    -0.0044701   -0.0685881     0.2800646   -0.7242507     0.2906261   -0.7203130    -0.0521612    0.0532345 
   0.192990400    -0.0015997   -0.0646424     0.1176007   -0.7675131     0.1299883   -0.7661371    -0.0340796    0.0850079 
   0.194990300     0.0036611   -0.0609294    -0.0473055   -0.7751457    -0.0343753   -0.7769957    -0.0038557    0.1069203 
   0.196990200     0.0112108   -0.0584229    -0.2103280   -0.7474318    -0.1976221   -0.7532104     0.0338343    0.1149752 
   0.198990100     0.0202956   -0.0582889    -0.3640738   -0.6861205    -0.3529069   -0.6951349     0.0728110    0.1071180 
   0.200990000     0.0300605   -0.0612987    -0.5014485   -0.5931811    -0.4929435   -0.6046579     0.1063449    0.0843256 
   0.202989900     0.0392246   -0.0678590    -0.6157992   -0.4727108    -0.6110222   -0.4856898     0.1289803    0.0498584 
   0.204989800     0.0464094   -0.0776553    -0.7017519   -0.3306533    -0.7003020   -0.3434566     0.1371690    0.0088678 
   0.206989700     0.0504607   -0.0900929    -0.7552620   -0.1735773    -0.7561668   -0.1858868     0.1292637   -0.0321253 
   0.208989600     0.0503717   -0.1037986    -0.7732650   -0.0090042    -0.7765057   -0.0208138     0.1067616   -0.0671438 
   0.210989500     0.0458535   -0.1173442    -0.7557174    0.1545212    -0.7605419    0.1443608     0.0733957   -0.0909221 
   0.212989400     0.0368984   -0.1293060    -0.7039381    0.3100606    -0.7101849    0.3014322     0.0343786   -0.1003980 
   0.214989300     0.0242509   -0.1382053    -0.6209096    0.4502866    -0.6283275    0.4427820    -0.0041557   -0.0947376 
   0.216989200     0.0092266   -0.1429214    -0.5110350    0.5690841    -0.5200657    0.5628743    -0.0362593   -0.0759023 
   0.218989100    -0.0068249   -0.1428761    -0.3792447    0.6619358    -0.3901377    0.6572854    -0.0577452   -0.0479783 
   0.220989000    -0.0224026   -0.1380452    -0.2319215    0.7252068    -0.2440784    0.7228115    -0.0665191   -0.0162390 
   0.222988900    -0.0360645   -0.1285330    -0.0753052    0.7564749    -0.0877756    0.7574092    -0.0626837    0.0141677 
   0.224988800    -0.0463431   -0.1152753     0.0844351    0.7549079     0.0726405    0.7589347    -0.0486164    0.0384401 
   0.226988700    -0.0524022   -0.0996509     0.2401968    0.7203767     0.2299934    0.7272671    -0.0281634    0.0532953 
   0.228988600    -0.0537329   -0.0828955     0.3857023    0.6544876     0.3774493    0.6635599    -0.0059791    0.0576133 
   0.230988500    -0.0502854   -0.0664517     0.5146704    0.5596471     0.5089905    0.5701422     0.0131822    0.0522790 
   0.232988400    -0.0422490   -0.0516245     0.6209791    0.4392399     0.6183952    0.4505760     0.0255719    0.0400039 
   0.234988300    -0.0306094   -0.0395884     0.7004237    0.2989523     0.7000237    0.3096455     0.0288895    0.0248838 
   0.236988200    -0.0161895   -0.0310731     0.7483039    0.1441456     0.7501594    0.1541849     0.0228749    0.0115182 
   0.238988100    -0.0001811   -0.0267459     0.7627479   -0.0173726     0.7656716   -0.0087270     0.0095378    0.0042492 
   0.240988000     0.0164329   -0.0266177     0.7418145   -0.1792158     0.7460212   -0.1705450    -0.0073909    0.0061644 
   0.242987900     0.0325027   -0.0305809     0.6867932   -0.3326336     0.6930116   -0.3240198    -0.0230371    0.0184283 
   0.244987800     0.0471259   -0.0382336     0.6000127   -0.4709350     0.6085746   -0.4624158    -0.0326175    0.0398810 
   0.246987700     0.0595874   -0.0489716     0.4855794   -0.5872173     0.4964995   -0.5804890    -0.0317926    0.0672768 
   0.248987600     0.0694194   -0.0622775     0.3490899   -0.6759381     0.3618776   -0.6721073    -0.0181551    0.0958142 
   0.250987500     0.0762175   -0.0773456     0.1967226   -0.7334365     0.2105035   -0.7331589     0.0081171    0.1197814 
   0.252987400     0.0799448   -0.0936200     0.0363341   -0.7567284     0.0500491   -0.7604352     0.0448762    0.1338863 
   0.254987300     0.0804115   -0.1106424    -0.1247279   -0.7449468    -0.1122589   -0.7526277     0.0879299    0.1341716 
   0.256987200     0.0778060   -0.1278164    -0.2788712   -0.6995075    -0.2687834   -0.7105004     0.1315604    0.1185619 
   0.258987100     0.0719089   -0.1447143    -0.4191037   -0.6229584    -0.4126016   -0.6354941     0.1694952    0.0874788 
   0.260987000     0.0625972   -0.1602838    -0.5389585   -0.5183472    -0.5362924   -0.5314724     0.1962805    0.0434358 
   0.262986900     0.0500277   -0.1743612    -0.6338592   -0.3916095    -0.6343328   -0.4040817     0.2075374   -0.0085814 
   0.264986800     0.0343941   -0.1863173    -0.6990760   -0.2487356    -0.7021881   -0.2595547     0.2011583   -0.0627743 
   0.266986700     0.0162195   -0.1951387    -0.7329637   -0.0961112    -0.7374846   -0.1049396     0.1772613   -0.1127442 
   0.268986600    -0.0039356   -0.2004360    -0.7340401    0.0588395    -0.7395871    0.0516403     0.1383786   -0.1523731 
   0.270986500    -0.0251506   -0.2017856    -0.7033188    0.2098452    -0.7095628    0.2035860     0.0892254   -0.1772053 
   0.272986400    -0.0469451   -0.1988665    -0.6423123    0.3503886    -0.6496903    0.3447359     0.0357383   -0.1846396 
   0.274986300    -0.0679194   -0.1912764    -0.5542514    0.4749649    -0.5628686    0.4699257    -0.0157908   -0.1746303 
   0.276986200    -0.0872882   -0.1791583    -0.4429500    0.5786042    -0.4533816    0.5751191    -0.0590662   -0.1494524 
   0.278986100    -0.1038300   -0.1629343    -0.3130377    0.6571229    -0.3242676    0.6556352    -0.0901310   -0.1135014 
   0.280986000    -0.1166899   -0.1429770    -0.1699451    0.7075341    -0.1811614    0.7089147    -0.1061695   -0.0723488 
   0.282985900    -0.1250610   -0.1206207    -0.0193829    0.7276995    -0.0296260    0.7317780    -0.1073703   -0.0317242 
   0.284985800    -0.1279444   -0.0971182     0.1325450    0.7164965     0.1242408    0.7227373    -0.0957767    0.0029222 
   0.286985700    -0.1252949   -0.0736452     0.2795770    0.6740512     0.2736182    0.6817899    -0.0753502    0.0277631 
   0.288985600    -0.1172056   -0.0517221     0.4154246    0.6015714     0.4111396    0.6103739    -0.0510556    0.0412207 
   0.290985500    -0.1042675   -0.0327891     0.5335967    0.5016624     0.5309001    0.5110602    -0.0280778    0.0433730 
   0.292985400    -0.0874755   -0.0179378     0.6285897    0.3783081     0.6271850    0.3882852    -0.0109169    0.0367810 
   0.294985300    -0.0677169   -0.0078662     0.6953514    0.2369072     0.6957334    0.2471406    -0.0023531    0.0254486 
   0.296985200    -0.0463620   -0.0030904     0.7305290    0.0839174     0.7322996    0.0939395    -0.0032560    0.0141720 
   0.298985100    -0.0251726   -0.0037551     0.7316509   -0.0738545     0.7350754   -0.0644980    -0.0120084    0.0077769 
   0.300985000    -0.0053087   -0.0096550     0.6983365   -0.2284059     0.7037917   -0.2199539    -0.0249604    0.0098810 
   0.302984900     0.0120071   -0.0202149     0.6322659   -0.3719896     0.6399066   -0.3647613    -0.0372849    0.0220338 
   0.304984800     0.0259325   -0.0345940     0.5364559   -0.4974913     0.5461193   -0.4921835    -0.0436170    0.0432878 
   0.306984700     0.0357990   -0.0516403     0.4159746   -0.5987549     0.4271317   -0.5963106    -0.0394667    0.0702027 
   0.308984600     0.0412196   -0.0703499     0.2773049   -0.6706790     0.2890912   -0.6716346    -0.0220974    0.0974194 
   0.310984500     0.0421914   -0.0897008     0.1273839   -0.7103117     0.1384986   -0.7147109     0.0085489    0.1188037 
   0.312984400     0.0388207   -0.1090368    -0.0263361   -0.7166034    -0.0168588   -0.7237979     0.0493151    0.1281368 
   0.314984300     0.0311961   -0.1271833    -0.1763178   -0.6895385    -0.1692688   -0.6988837     0.0948565    0.1209866 
