! MS46122B
! 2250307/22442219
! 2/18/2026 2:15:45 PM
! C:\USERS\SPARKY\DOCUMENTS\VNA_DATA\FEB18_2026\7K2\PORT3.S2P
! CHANNEL.1
! TR.MEASUREMENT
! RAW.DATA
# GHZ S RI R 50.0
! FREQ.GHZ         S11RE         S11IM         S21RE         S21IM         S12RE         S12IM         S22RE         S22IM         
!; PortSelection: Port_12
   0.001000000     1.0455020   -0.0679005     0.0000025   -0.0000009     0.0000055   -0.0000040     0.8087826   -0.5594354 
   0.002999900     0.9560415   -0.2078044    -0.0000036    0.0000024    -0.0000022   -0.0000020     0.0169054   -0.8694145 
   0.004999800     0.7467428   -0.4511789     0.0000577   -0.0000152     0.0000631   -0.0000169    -0.7665126   -0.3796927 
   0.006999700     0.9519820    0.0862747    -0.0002229    0.0000248    -0.0002326    0.0000334    -0.6942456    0.6220358 
   0.008999600     0.9339716   -0.2034667    -0.0001226    0.0001581    -0.0001168    0.0001652     0.2510060    0.9326572 
   0.010999500     0.8889027   -0.3184518    -0.0000153    0.0002163    -0.0000119    0.0002186     0.8572094    0.3736120 
   0.012999400     0.8444589   -0.4056308     0.0000780    0.0002229     0.0000757    0.0002172     0.8655176   -0.2555511 
   0.014999300     0.7986399   -0.4817327     0.0001526    0.0001974     0.0001570    0.0001992     0.5932637   -0.6616192 
   0.016999200     0.7493587   -0.5519914     0.0002210    0.0001408     0.0002299    0.0001443     0.2440554   -0.8540142 
   0.018999100     0.6943254   -0.6172587     0.0002613    0.0000922     0.0002685    0.0000924    -0.0932825   -0.8884724 
   0.020999000     0.6333416   -0.6778190     0.0002969    0.0000385     0.0003095    0.0000343    -0.3822780   -0.8140972 
   0.022998900     0.5649952   -0.7329761     0.0003219   -0.0000281     0.0003348   -0.0000337    -0.6083137   -0.6669183 
   0.024998800     0.4840719   -0.7471575     0.0003526   -0.0000831     0.0003438   -0.0001110    -0.8136554   -0.5246933 
   0.026998700     0.4002522   -0.8243291     0.0003381   -0.0001719     0.0003484   -0.0001825    -0.8621420   -0.2632368 
   0.028998600     0.3016790   -0.8562968     0.0003342   -0.0002525     0.0003381   -0.0002692    -0.8967954   -0.0450265 
   0.030998500     0.1919856   -0.8760889     0.0003161   -0.0003456     0.0003128   -0.0003607    -0.8785154    0.1657565 
   0.032998400     0.0821205   -0.8496526     0.0003087   -0.0004533     0.0002579   -0.0004659    -0.8810923    0.3745452 
   0.034998300    -0.0624060   -0.8630292     0.0002099   -0.0005575     0.0001961   -0.0005635    -0.7113191    0.5298492 
   0.036998200    -0.2040509   -0.8186404     0.0001104   -0.0006647     0.0000945   -0.0006659    -0.5772156    0.6711407 
   0.038998100    -0.3492930   -0.7406289    -0.0000335   -0.0007707    -0.0000470   -0.0007496    -0.4188227    0.7795533 
   0.040998000    -0.4907373   -0.6214478    -0.0002344   -0.0008479    -0.0002362   -0.0008220    -0.2411381    0.8519821 
   0.042997900    -0.6139112   -0.4536543    -0.0004870   -0.0008800    -0.0004726   -0.0008488    -0.0528386    0.8856229 
   0.044997800    -0.6726673   -0.2403882    -0.0007750   -0.0009031    -0.0007666   -0.0007963     0.1381832    0.9537616 
   0.046997700    -0.7160196    0.0266755    -0.0011158   -0.0006617    -0.0010601   -0.0006501     0.3293025    0.8282037 
   0.048997600    -0.6406130    0.3041766    -0.0013912   -0.0003426    -0.0013339   -0.0003617     0.5045654    0.7361196 
   0.050997500    -0.4597793    0.5527629    -0.0015242    0.0000122    -0.0014841   -0.0000373     0.6571712    0.6046370 
   0.052997400    -0.1911727    0.7201048    -0.0015993    0.0005619    -0.0015838    0.0004928     0.7772509    0.4391474 
   0.054997300     0.1175846    0.7730289    -0.0014059    0.0010742    -0.0014386    0.0010120     0.8572553    0.2437227 
   0.056997200     0.4088777    0.7111707    -0.0010457    0.0014772    -0.0010989    0.0014315     0.8884678    0.0358933 
   0.058997100     0.6404187    0.5652580    -0.0005875    0.0017228    -0.0006446    0.0017124     0.8685753   -0.1777081 
   0.060997000     0.7975171    0.3750176    -0.0000874    0.0018033    -0.0001537    0.0018216     0.7964340   -0.3834354 
   0.062996900     0.8844295    0.1717674     0.0003801    0.0017438     0.0003351    0.0017775     0.6752246   -0.5663883 
   0.064996800     0.9138759   -0.0238679     0.0007908    0.0015641     0.0007663    0.0016061     0.5115695   -0.7142856 
   0.066996700     0.9006299   -0.2017913     0.0011188    0.0013070     0.0011185    0.0013402     0.3158563   -0.8174009 
   0.068996600     0.8557733   -0.3579568     0.0013524    0.0009980     0.0013674    0.0010202     0.1009722   -0.8680530 
   0.070996500     0.7900940   -0.4923982     0.0015120    0.0006667     0.0015335    0.0006740    -0.1181503   -0.8634451 
   0.072996400     0.7071129   -0.6051444     0.0015929    0.0003321     0.0016107    0.0003242    -0.3273325   -0.8055388 
   0.074996300     0.6131508   -0.6976252     0.0016130    0.0000064     0.0016155   -0.0000169    -0.5132453   -0.6987925 
   0.076996200     0.5108874   -0.7721230     0.0015629   -0.0003092     0.0015533   -0.0003310    -0.6651768   -0.5523740 
   0.078996100     0.4030021   -0.8287148     0.0014659   -0.0006016     0.0014423   -0.0006226    -0.7753851   -0.3768854 
   0.080996000     0.2903958   -0.8687547     0.0013270   -0.0008678     0.0012917   -0.0008726    -0.8398409   -0.1838447 
   0.082995900     0.1750583   -0.8927308     0.0011522   -0.0011013     0.0011065   -0.0010902    -0.8573334    0.0154626 
   0.084995800     0.0580260   -0.8998004     0.0009379   -0.0013045     0.0008935   -0.0012766    -0.8297541    0.2094926 
   0.086995700    -0.0598180   -0.8918739     0.0006973   -0.0014714     0.0006641   -0.0014271    -0.7596023    0.3891638 
   0.088995600    -0.1769914   -0.8673412     0.0004369   -0.0016113     0.0004118   -0.0015439    -0.6530893    0.5464346 
   0.090995500    -0.2923006   -0.8265183     0.0001419   -0.0017116     0.0001450   -0.0016328    -0.5168346    0.6750326 
   0.092995400    -0.4040740   -0.7687276    -0.0001778   -0.0017608    -0.0001479   -0.0016783    -0.3573812    0.7692403 
   0.094995300    -0.5098318   -0.6910110    -0.0005216   -0.0017657    -0.0004566   -0.0016925    -0.1824927    0.8261683 
   0.096995200    -0.6060460   -0.5941756    -0.0008767   -0.0017056    -0.0007850   -0.0016525    -0.0003812    0.8445030 
   0.098995100    -0.6898152   -0.4775752    -0.0012346   -0.0015798    -0.0011279   -0.0015531     0.1803267    0.8227917 
   0.100995000    -0.7578633   -0.3390913    -0.0016275   -0.0013659    -0.0014972   -0.0013765     0.3523787    0.7626236 
   0.102994900    -0.8005723   -0.1838730    -0.0019699   -0.0010639    -0.0018444   -0.0011210     0.5066049    0.6662912 
   0.104994800    -0.8134900   -0.0136401    -0.0022670   -0.0006674    -0.0021683   -0.0007725     0.6366487    0.5388747 
   0.106994700    -0.7894428    0.1664842    -0.0024883   -0.0001766    -0.0024378   -0.0003092     0.7356826    0.3851209 
   0.108994600    -0.7240141    0.3476779    -0.0026037    0.0004042    -0.0026084    0.0002573     0.7988423    0.2124928 
   0.110994500    -0.6129925    0.5180004    -0.0025663    0.0010387    -0.0026327    0.0009068     0.8224615    0.0289004 
   0.112994400    -0.4568669    0.6629676    -0.0023507    0.0016678    -0.0024648    0.0015862     0.8040853   -0.1565974 
   0.114994300    -0.2620005    0.7682066    -0.0019805    0.0022835    -0.0021153    0.0022570     0.7436453   -0.3340821 
   0.116994200    -0.0410786    0.8204620    -0.0014155    0.0028018    -0.0015375    0.0028371     0.6433687   -0.4944544 
   0.118994100     0.1882514    0.8121725    -0.0006951    0.0031585    -0.0007717    0.0032377     0.5080072   -0.6280880 
   0.120994000     0.4072869    0.7450770     0.0001109    0.0032999     0.0000970    0.0033922     0.3441053   -0.7269114 
   0.122993900     0.5965626    0.6235032     0.0009338    0.0032114     0.0009727    0.0032788     0.1609221   -0.7847804 
   0.124993800     0.7434298    0.4623984     0.0017057    0.0028943     0.0017714    0.0029144    -0.0311849   -0.7980606 
   0.126993700     0.8423563    0.2772196     0.0023468    0.0023924     0.0024047    0.0023641    -0.2207792   -0.7651664 
   0.128993600     0.8899188    0.0838003     0.0028207    0.0017571     0.0028477    0.0016868    -0.3973384   -0.6882929 
   0.130993500     0.8939676   -0.1054464     0.0031161    0.0010433     0.0030908    0.0009563    -0.5502021   -0.5720613 
   0.132993400     0.8595231   -0.2813658     0.0032217    0.0003175     0.0031507    0.0002418    -0.6704955   -0.4235063 
   0.134993300     0.7937856   -0.4378765     0.0031661   -0.0003855     0.0030553   -0.0004259    -0.7518228   -0.2514940 
   0.136993200     0.7037671   -0.5719498     0.0029685   -0.0010341     0.0028357   -0.0010287    -0.7902919   -0.0666336 
   0.138993100     0.5956308   -0.6820034     0.0026556   -0.0016028     0.0025270   -0.0015425    -0.7846453    0.1208575 
   0.140993000     0.4753795   -0.7674326     0.0022536   -0.0020784     0.0021484   -0.0019703    -0.7357865    0.3003818 
   0.142992900     0.3469377   -0.8294234     0.0017830   -0.0024613     0.0017163   -0.0023187    -0.6477272    0.4626819 
   0.144992800     0.2147494   -0.8691865     0.0012640   -0.0027513     0.0012517   -0.0025862    -0.5252553    0.5989138 
   0.146992700     0.0807438   -0.8862005     0.0007113   -0.0029378     0.0007574   -0.0027727    -0.3761834    0.7032351 
   0.148992600    -0.0527180   -0.8825666     0.0001374   -0.0030264     0.0002426   -0.0028835    -0.2084579    0.7710618 
   0.150992500    -0.1819297   -0.8573850    -0.0004430   -0.0030131    -0.0002906   -0.0029107    -0.0306375    0.7996881 
   0.152992400    -0.3059565   -0.8141404    -0.0010170   -0.0029026    -0.0008361   -0.0028561     0.1486576    0.7868008 
   0.154992300    -0.4218801   -0.7522692    -0.0015659   -0.0026968    -0.0013775   -0.0027120     0.3202338    0.7341341 
   0.156992200    -0.5289091   -0.6724461    -0.0020834   -0.0023860    -0.0019089   -0.0024693     0.4752016    0.6444130 
   0.158992100    -0.6231872   -0.5757715    -0.0025552   -0.0019813    -0.0024180   -0.0021158     0.6063524    0.5220031 
   0.160992000    -0.7028345   -0.4631552    -0.0029533   -0.0014837    -0.0028732   -0.0016618     0.7066767    0.3727463 
   0.162991900    -0.7647953   -0.3356835    -0.0032662   -0.0009042    -0.0032527   -0.0010967     0.7710936    0.2043604 
   0.164991800    -0.8060463   -0.1949730    -0.0034741   -0.0002483    -0.0035288   -0.0004293     0.7955349    0.0249292 
   0.166991700    -0.8230351   -0.0449627    -0.0035540    0.0004603    -0.0036683    0.0003223     0.7782274   -0.1559773 
   0.168991600    -0.8129498    0.1115653    -0.0034938    0.0012021    -0.0036424    0.0011256     0.7197540   -0.3289951 
   0.170991500    -0.7721747    0.2701589    -0.0032752    0.0019562    -0.0034311    0.0019425     0.6226695   -0.4846220 
   0.172991400    -0.6989638    0.4234876    -0.0028892    0.0026833    -0.0030170    0.0027379     0.4914024   -0.6140834 
   0.174991300    -0.5930211    0.5644195    -0.0023363    0.0033421    -0.0024100    0.0034356     0.3330066   -0.7097144 
   0.176991200    -0.4544300    0.6850362    -0.0016160    0.0038932    -0.0016232    0.0039958     0.1560204   -0.7659966 
   0.178991100    -0.2874117    0.7761261    -0.0007473    0.0042895    -0.0006893    0.0043704    -0.0294570   -0.7792846 
   0.180991000    -0.0996025    0.8304034     0.0002353    0.0044866     0.0003317    0.0045077    -0.2131274   -0.7484702 
   0.182990900     0.0999871    0.8395197     0.0012805    0.0044407     0.0013812    0.0043875    -0.3847440   -0.6755024 
   0.184990800     0.2998720    0.8017411     0.0023231    0.0041322     0.0023962    0.0040010    -0.5342540   -0.5646511 
   0.186990700     0.4864474    0.7179799     0.0032843    0.0035531     0.0032820    0.0033778    -0.6534619   -0.4220186 
   0.188990600     0.6292420    0.6106020     0.0040006    0.0028493     0.0039235    0.0026493    -0.7296961   -0.2763892 
   0.190990500     0.7708519    0.4383548     0.0046522    0.0017335     0.0044686    0.0016047    -0.7779043   -0.0790440 
   0.192990400     0.8583885    0.2563570     0.0049593    0.0005823     0.0047189    0.0005509    -0.7772589    0.1080524 
   0.194990300     0.9000272    0.0671954     0.0049629   -0.0005759     0.0047163   -0.0005000    -0.7344953    0.2863649 
   0.196990200     0.8992042   -0.1203403     0.0046909   -0.0016858     0.0044851   -0.0015055    -0.6525694    0.4497306 
   0.198990100     0.8599508   -0.2978536     0.0041693   -0.0026816     0.0040510   -0.0024211    -0.5363060    0.5899219 
   0.200990000     0.7875586   -0.4579225     0.0034527   -0.0035068     0.0034463   -0.0032116    -0.3916613    0.7001032 
   0.202989900     0.6877407   -0.5956514     0.0025947   -0.0041389     0.0027019   -0.0038563    -0.2262659    0.7753121 
   0.204989800     0.5676712   -0.7080603     0.0016421   -0.0045627     0.0018459   -0.0043407    -0.0482421    0.8115306 
   0.206989700     0.4338329   -0.7937681     0.0006488   -0.0047738     0.0009237   -0.0046406     0.1336297    0.8074114 
   0.208989600     0.2904659   -0.8511398    -0.0003451   -0.0047810    -0.0000405   -0.0047557     0.3105760    0.7629529 
   0.210989500     0.1423223   -0.8814443    -0.0013057   -0.0045955    -0.0010217   -0.0046768     0.4744410    0.6799380 
   0.212989400    -0.0065672   -0.8859398    -0.0022005   -0.0042347    -0.0019754   -0.0044057     0.6161548    0.5617640 
   0.214989300    -0.1513980   -0.8650053    -0.0030069   -0.0037138    -0.0028653   -0.0039390     0.7289465    0.4137191 
   0.216989200    -0.2887310   -0.8203321    -0.0037006   -0.0030500    -0.0036498   -0.0032953     0.8062403    0.2425512 
   0.218989100    -0.4155350   -0.7536584    -0.0042491   -0.0022692    -0.0042855   -0.0024919     0.8434131    0.0565423 
   0.220989000    -0.5303382   -0.6664244    -0.0046507   -0.0014101    -0.0047575   -0.0015843     0.8369569   -0.1351105 
   0.222988900    -0.6292196   -0.5602286    -0.0049049   -0.0004790    -0.0050459   -0.0005795     0.7862163   -0.3222942 
   0.224988800    -0.7094914   -0.4374394    -0.0049821    0.0005109    -0.0051276    0.0004885     0.6923227   -0.4946327 
   0.226988700    -0.7678581   -0.3004185    -0.0048782    0.0015201    -0.0049933    0.0015643     0.5590787   -0.6417831 
   0.228988600    -0.8020929   -0.1527477    -0.0045654    0.0025423    -0.0046282    0.0026156     0.3933799   -0.7544384 
   0.230988500    -0.8092842    0.0020080    -0.0040359    0.0034922    -0.0040370    0.0035769     0.2038403   -0.8249876 
   0.232988400    -0.7857780    0.1591846    -0.0033062    0.0043512    -0.0032493    0.0044144     0.0011246   -0.8482683 
   0.234988300    -0.7322258    0.3143964    -0.0023862    0.0050750    -0.0022917    0.0050899    -0.2023349   -0.8219920 
   0.236988200    -0.6467206    0.4601344    -0.0012951    0.0056186    -0.0011863    0.0055642    -0.3942274   -0.7469688 
   0.238988100    -0.5304444    0.5891375    -0.0000543    0.0059259     0.0000353    0.0058084    -0.5623428   -0.6270447 
   0.240988000    -0.3857574    0.6935464     0.0012868    0.0059534     0.0013173    0.0057837    -0.6967463   -0.4703197 
   0.242987900    -0.2186994    0.7668513     0.0026583    0.0056623     0.0025991    0.0054703    -0.7888396   -0.2860299 
   0.244987800    -0.0355983    0.8024563     0.0039705    0.0050256     0.0038234    0.0048568    -0.8338210   -0.0858550 
   0.246987700     0.1543241    0.7967422     0.0051361    0.0040525     0.0049055    0.0039505    -0.8295890    0.1183529 
   0.248987600     0.3403351    0.7470424     0.0060398    0.0027829     0.0057650    0.0027828    -0.7771755    0.3144473 
   0.250987500     0.5111116    0.6559561     0.0066113    0.0012801     0.0063459    0.0014012    -0.6809792    0.4913875 
   0.252987400     0.6560736    0.5290733     0.0067575   -0.0003361     0.0065576   -0.0001060    -0.5469355    0.6399289 
   0.254987300     0.7673944    0.3744674     0.0064823   -0.0019322     0.0063932   -0.0016228    -0.3834485    0.7525042 
   0.256987200     0.8400387    0.2018394     0.0058113   -0.0033828     0.0058618   -0.0030616    -0.1996998    0.8242844 
   0.258987100     0.8738613    0.0212186     0.0048181   -0.0045995     0.0049948   -0.0043200    -0.0053899    0.8520693 
   0.260987000     0.8675605   -0.1580409     0.0035898   -0.0055099     0.0038559   -0.0053185     0.1889281    0.8353586 
   0.262986900     0.8250344   -0.3279097     0.0022207   -0.0060739     0.0025279   -0.0060065     0.3740861    0.7757719 
   0.264986800     0.7513326   -0.4809164     0.0008101   -0.0063028     0.0010987   -0.0063507     0.5407647    0.6764228 
   0.266986700     0.6515446   -0.6124665    -0.0005609   -0.0062149    -0.0003320   -0.0063511     0.6813119    0.5428748 
   0.268986600     0.5326470   -0.7192289    -0.0018279   -0.0058492    -0.0016810   -0.0060373     0.7887449    0.3810095 
   0.270986500     0.4006908   -0.7994944    -0.0029503   -0.0052523    -0.0028938   -0.0054471     0.8576547    0.1988321 
   0.272986400     0.2602169   -0.8533402    -0.0039031   -0.0044730    -0.0039081   -0.0046408     0.8846187    0.0051706 
   0.274986300     0.1161440   -0.8813313    -0.0046611   -0.0035545    -0.0047051   -0.0036807     0.8674673   -0.1907966 
   0.276986200    -0.0275961   -0.8840257    -0.0052166   -0.0025342    -0.0052803   -0.0026122     0.8057997   -0.3788975 
   0.278986100    -0.1680727   -0.8631343    -0.0055730   -0.0014496    -0.0056304   -0.0014885     0.7032841   -0.5497538 
   0.280986000    -0.3015260   -0.8196097    -0.0057258   -0.0003367    -0.0057595   -0.0003435     0.5634840   -0.6938179 
   0.282985900    -0.4254926   -0.7549295    -0.0056694    0.0007787    -0.0056760    0.0007823     0.3932093   -0.8027056 
   0.284985800    -0.5369106   -0.6708710    -0.0054208    0.0018580    -0.0053973    0.0018635     0.2015245   -0.8701603 
   0.286985700    -0.6328489   -0.5697054    -0.0049886    0.0028852    -0.0049454    0.0028658    -0.0018698   -0.8913873 
   0.288985600    -0.7108933   -0.4539504    -0.0043785    0.0038206    -0.0043308    0.0037699    -0.2055101   -0.8644727 
   0.290985500    -0.7688891   -0.3257831    -0.0035977    0.0046523    -0.0035670    0.0045676    -0.3978237   -0.7906479 
   0.292985400    -0.8051622   -0.1877786    -0.0026620    0.0053465    -0.0026581    0.0052390    -0.5676985   -0.6733314 
   0.294985300    -0.8169116   -0.0419478    -0.0015820    0.0058774    -0.0016211    0.0057562    -0.7051298   -0.5195224 
   0.296985200    -0.8023677    0.1074448    -0.0003780    0.0062033    -0.0004617    0.0060889    -0.8023255   -0.3383267 
   0.298985100    -0.7590069    0.2567050     0.0009191    0.0062996     0.0008040    0.0062033    -0.8539484   -0.1401811 
   0.300985000    -0.6849322    0.3988631     0.0022754    0.0061198     0.0021263    0.0060585    -0.8577273    0.0630985 
   0.302984900    -0.5811890    0.5272345     0.0036192    0.0056378     0.0034549    0.0056209    -0.8146459    0.2603358 
   0.304984800    -0.4487565    0.6339706     0.0048893    0.0048217     0.0047248    0.0048625    -0.7275713    0.4404085 
   0.306984700    -0.2923731    0.7113773     0.0059893    0.0036854     0.0058375    0.0037764    -0.6026191    0.5940958 
   0.308984600    -0.1184284    0.7525645     0.0068112    0.0022582     0.0066966    0.0023955    -0.4477368    0.7139303 
   0.310984500     0.0628114    0.7515936     0.0072592    0.0006072     0.0071982    0.0007767    -0.2713606    0.7948923 
   0.312984400     0.2406081    0.7065219     0.0072607   -0.0011539     0.0072594   -0.0009691    -0.0832351    0.8337334 
   0.314984300     0.4014278    0.6190989     0.0067771   -0.0028629     0.0068383   -0.0026943     0.1070583    0.8295186 
