! MS46122B
! 2250307/22442219
! 2/18/2026 2:18:50 PM
! C:\USERS\SPARKY\DOCUMENTS\VNA_DATA\FEB18_2026\7K2\PORT6.S2P
! CHANNEL.1
! TR.MEASUREMENT
! RAW.DATA
# GHZ S RI R 50.0
! FREQ.GHZ         S11RE         S11IM         S21RE         S21IM         S12RE         S12IM         S22RE         S22IM         
!; PortSelection: Port_12
   0.001000000     1.0451590   -0.0673176    -0.0003414   -0.0009278    -0.0002776   -0.0009474     0.8097422   -0.5578694 
   0.002999900     0.9620405   -0.1937680    -0.0205245   -0.0141807    -0.0214993   -0.0147625     0.0547179   -0.8701528 
   0.004999800     0.8804073   -0.3142655    -0.1210565    0.0021208    -0.1278494    0.0048566    -0.7155415   -0.4375630 
   0.006999700     0.7136479   -0.3944793    -0.2345789    0.2906012    -0.2300147    0.3124353    -0.4157640    0.6687564 
   0.008999600     0.6293663   -0.3039245     0.2329383    0.5138077     0.2444688    0.5171350     0.5501091   -0.0487924 
   0.010999500     0.6603267   -0.3216155     0.4853187    0.2360013     0.5018414    0.2421637    -0.0118533   -0.5640330 
   0.012999400     0.6434421   -0.3855708     0.5173627    0.0160337     0.5388889    0.0115719    -0.4517659   -0.4208463 
   0.014999300     0.5990412   -0.4449280     0.4969035   -0.1479445     0.5142899   -0.1638829    -0.6308416   -0.1279977 
   0.016999200     0.5394195   -0.4919801     0.4504503   -0.2882442     0.4573736   -0.3100668    -0.6239195    0.1610921 
   0.018999100     0.4704758   -0.5235339     0.3777992   -0.4155848     0.3740867   -0.4364631    -0.4911171    0.3858834 
   0.020999000     0.3957450   -0.5372034     0.2746842   -0.5293149     0.2623940   -0.5436403    -0.2829321    0.5157593 
   0.022998900     0.3222550   -0.5300170     0.1363758   -0.6214817     0.1214909   -0.6256387    -0.0484936    0.5374530 
   0.024998800     0.2557005   -0.4798834    -0.0034980   -0.7051529    -0.0553245   -0.6726717     0.1708135    0.4955103 
   0.026998700     0.2083972   -0.4567311    -0.2321265   -0.6783050    -0.2342473   -0.6698015     0.3059474    0.2897349 
   0.028998600     0.1827482   -0.4031608    -0.4296850   -0.6136072    -0.4247967   -0.6089325     0.3509484    0.0868589 
   0.030998500     0.1808836   -0.3535647    -0.6013458   -0.4841805    -0.5941982   -0.4861905     0.2929183   -0.1006784 
   0.032998400     0.1938745   -0.3037764    -0.7354880   -0.3540381    -0.7247837   -0.3046054     0.1766853   -0.2357097 
   0.034998300     0.2183203   -0.3018470    -0.7806836   -0.1023456    -0.7838041   -0.1096556    -0.0102742   -0.2573378 
   0.036998200     0.2362466   -0.3026483    -0.7781195    0.1000627    -0.7844224    0.0977972    -0.1591354   -0.2048215 
   0.038998100     0.2441949   -0.3137574    -0.7259801    0.2857929    -0.7317955    0.2890076    -0.2555951   -0.0963235 
   0.040998000     0.2417749   -0.3297054    -0.6342657    0.4481725    -0.6355088    0.4542248    -0.2898904    0.0369503 
   0.042997900     0.2285573   -0.3451373    -0.5117773    0.5804303    -0.5070542    0.5860960    -0.2613500    0.1661335 
   0.044997800     0.2044670   -0.3401660    -0.4153095    0.6887816    -0.3508070    0.6884561    -0.1986029    0.2868787 
   0.046997700     0.1792490   -0.3583610    -0.2042367    0.7473769    -0.1965638    0.7445526    -0.0705931    0.3219200 
   0.048997600     0.1523743   -0.3524983    -0.0322651    0.7784150    -0.0270073    0.7714450     0.0508868    0.3259979 
   0.050997500     0.1290279   -0.3392434     0.1438676    0.7713667     0.1447926    0.7624461     0.1621724    0.2803261 
   0.052997400     0.1122987   -0.3207150     0.3166012    0.7250444     0.3113170    0.7177435     0.2438640    0.1944883 
   0.054997300     0.1032009   -0.3008378     0.4794312    0.6367843     0.4673544    0.6368304     0.2837463    0.0825758 
   0.056997200     0.1019372   -0.2833322     0.6135144    0.5159659     0.6058196    0.5175383     0.2745435   -0.0328587 
   0.058997100     0.1067952   -0.2712299     0.7178123    0.3636600     0.7126350    0.3686772     0.2202255   -0.1339668 
   0.060997000     0.1142992   -0.2665974     0.7826127    0.1906467     0.7809420    0.1966074     0.1315800   -0.2024438 
   0.062996900     0.1206607   -0.2694887     0.8040342    0.0084805     0.8061280    0.0131596     0.0255637   -0.2284006 
   0.064996800     0.1225969   -0.2783557     0.7830704   -0.1716716     0.7863510   -0.1692857    -0.0780528   -0.2093679 
   0.066996700     0.1179497   -0.2903708     0.7228276   -0.3395817     0.7245591   -0.3395406    -0.1614490   -0.1520340 
   0.068996600     0.1060037   -0.3022484     0.6282408   -0.4874730     0.6281509   -0.4878647    -0.2119918   -0.0692850 
   0.070996500     0.0881722   -0.3111568     0.5063956   -0.6108394     0.5043921   -0.6094810    -0.2239299    0.0228600 
   0.072996400     0.0657980   -0.3141505     0.3628515   -0.7044311     0.3602137   -0.7001341    -0.1986831    0.1080493 
   0.074996300     0.0415705   -0.3102719     0.2035865   -0.7655424     0.2030680   -0.7584878    -0.1434525    0.1732688 
   0.076996200     0.0185921   -0.2988853     0.0352931   -0.7927789     0.0384598   -0.7843152    -0.0694599    0.2092714 
   0.078996100    -0.0005237   -0.2810780    -0.1357140   -0.7847185    -0.1279085   -0.7765975     0.0104479    0.2124224 
   0.080996000    -0.0139534   -0.2585873    -0.3025587   -0.7401467    -0.2910265   -0.7350066     0.0823164    0.1837722 
   0.082995900    -0.0196321   -0.2341609    -0.4576392   -0.6597934    -0.4442746   -0.6598712     0.1351110    0.1295183 
   0.084995800    -0.0174437   -0.2105893    -0.5924262   -0.5470011    -0.5795143   -0.5523260     0.1598310    0.0602853 
   0.086995700    -0.0091436   -0.1909796    -0.6998967   -0.4057527    -0.6898029   -0.4152070     0.1533772   -0.0114955 
   0.088995600     0.0036682   -0.1777319    -0.7735940   -0.2431709    -0.7675502   -0.2551359     0.1177338   -0.0727963 
   0.090995500     0.0177203   -0.1713815    -0.8091536   -0.0678182    -0.8070108   -0.0798522     0.0602616   -0.1122221 
   0.092995400     0.0302978   -0.1717392    -0.8048754    0.1107450    -0.8051181    0.1002706    -0.0079378   -0.1232166 
   0.094995300     0.0389513   -0.1768905    -0.7601285    0.2825844    -0.7620738    0.2744948    -0.0738586   -0.1041074 
   0.096995200     0.0425252   -0.1849372    -0.6794255    0.4396974    -0.6815227    0.4330384    -0.1249267   -0.0589753 
   0.098995100     0.0405173   -0.1930287    -0.5676029    0.5743125    -0.5693328    0.5677329    -0.1519792    0.0028800 
   0.100995000     0.0322548   -0.2001645    -0.4288532    0.6824306    -0.4317376    0.6746584    -0.1502298    0.0712697 
   0.102994900     0.0224472   -0.2024156    -0.2728346    0.7567543    -0.2777988    0.7483196    -0.1216023    0.1316179 
   0.104994800     0.0116858   -0.2002482    -0.1055370    0.7964551    -0.1132379    0.7883161    -0.0711105    0.1750728 
   0.106994700     0.0017140   -0.1937538     0.0662309    0.7999921     0.0553410    0.7939945    -0.0080121    0.1947578 
   0.108994600    -0.0054214   -0.1841881     0.2348469    0.7677279     0.2215681    0.7652969     0.0571578    0.1878295 
   0.110994500    -0.0087823   -0.1728886     0.3930106    0.7004550     0.3791605    0.7026364     0.1141712    0.1559959 
   0.112994400    -0.0081185   -0.1616533     0.5342147    0.6011187     0.5212011    0.6079323     0.1535718    0.1051954 
   0.114994300    -0.0038856   -0.1521501     0.6509725    0.4734629     0.6411569    0.4838087     0.1694320    0.0437893 
   0.116994200     0.0027993   -0.1454707     0.7378851    0.3230547     0.7319579    0.3356132     0.1598326   -0.0180436 
   0.118994100     0.0104149   -0.1425109     0.7901695    0.1570466     0.7883705    0.1698457     0.1269855   -0.0696368 
   0.120994000     0.0175308   -0.1430966     0.8052307   -0.0159752     0.8067793   -0.0047082     0.0770080   -0.1028859 
   0.122993900     0.0225104   -0.1465183     0.7823092   -0.1882388     0.7856905   -0.1786472     0.0191481   -0.1122917 
   0.124993800     0.0246392   -0.1514268     0.7228465   -0.3508340     0.7269815   -0.3429106    -0.0363718   -0.0969881 
   0.126993700     0.0238018   -0.1567056     0.6301653   -0.4962822     0.6348307   -0.4890789    -0.0793065   -0.0603487 
   0.128993600     0.0203577   -0.1605379     0.5088617   -0.6177366     0.5144103   -0.6109558    -0.1022214   -0.0100314 
   0.130993500     0.0153556   -0.1626620     0.3652211   -0.7105242     0.3722817   -0.7036193    -0.1016886    0.0442722 
   0.132993400     0.0098798   -0.1625322     0.2059119   -0.7709941     0.2150939   -0.7646686    -0.0783386    0.0928928 
   0.134993300     0.0049303   -0.1603988     0.0376226   -0.7962981     0.0493334   -0.7918535    -0.0369492    0.1270276 
   0.136993200     0.0012691   -0.1568670    -0.1319069   -0.7855923    -0.1180700   -0.7843663     0.0151212    0.1408581 
   0.138993100    -0.0004604   -0.1530732    -0.2954872   -0.7393732    -0.2810536   -0.7422240     0.0684942    0.1319424 
   0.140993000    -0.0004989   -0.1499365    -0.4454008   -0.6595098    -0.4320959   -0.6667784     0.1139836    0.1018221 
   0.142992900     0.0004425   -0.1483104    -0.5750371   -0.5492297    -0.5643284   -0.5604069     0.1438223    0.0553438 
   0.144992800     0.0015817   -0.1487214    -0.6784177   -0.4142575    -0.6717304   -0.4278972     0.1525752    0.0004212 
   0.146992700     0.0016604   -0.1509473    -0.7501163   -0.2603602    -0.7474664   -0.2742002     0.1389826   -0.0539636 
   0.148992600    -0.0002897   -0.1544237    -0.7871026   -0.0947278    -0.7881264   -0.1080260     0.1050195   -0.0990999 
   0.150992500    -0.0046354   -0.1579700    -0.7869939    0.0738442    -0.7906505    0.0622110     0.0558912   -0.1274533 
   0.152992400    -0.0118094   -0.1609284    -0.7521640    0.2382691    -0.7571712    0.2285301    -0.0005250   -0.1345593 
   0.154992300    -0.0212078   -0.1618042    -0.6834548    0.3907779    -0.6895291    0.3822058    -0.0551198   -0.1192483 
   0.156992200    -0.0319697   -0.1595203    -0.5847292    0.5246925    -0.5918011    0.5171458    -0.0991045   -0.0843686 
   0.158992100    -0.0429389   -0.1536266    -0.4609967    0.6349355    -0.4690832    0.6279572    -0.1258957   -0.0360977 
   0.160992000    -0.0526813   -0.1443507    -0.3172234    0.7167977    -0.3271487    0.7105997    -0.1319163    0.0177325 
   0.162991900    -0.0598184   -0.1321000    -0.1601052    0.7669865    -0.1720911    0.7628727    -0.1171335    0.0686451 
   0.164991800    -0.0635530   -0.1179177     0.0042126    0.7837240    -0.0090826    0.7824538    -0.0848706    0.1087350 
   0.166991700    -0.0633179   -0.1032803     0.1686985    0.7659842     0.1546224    0.7682823    -0.0408127    0.1324403 
   0.168991600    -0.0591511   -0.0895138     0.3264432    0.7141334     0.3130055    0.7205610     0.0073407    0.1368756 
   0.170991500    -0.0517350   -0.0778472     0.4701172    0.6298987     0.4592909    0.6397043     0.0515372    0.1225384 
   0.172991400    -0.0420160   -0.0693644     0.5935495    0.5169998     0.5859732    0.5291650     0.0850311    0.0927861 
   0.174991300    -0.0313586   -0.0644633     0.6901417    0.3798164     0.6862423    0.3932542     0.1028640    0.0536432 
   0.176991200    -0.0211300   -0.0629812     0.7555377    0.2249021     0.7551742    0.2379763     0.1026445    0.0123825 
   0.178991100    -0.0124789   -0.0642874     0.7862573    0.0594627     0.7885384    0.0710971     0.0857326   -0.0236745 
   0.180991000    -0.0061432   -0.0673927     0.7810763   -0.1086961     0.7848248   -0.0984183     0.0558621   -0.0480043 
   0.182990900    -0.0023585   -0.0709659     0.7396612   -0.2717374     0.7451109   -0.2624057     0.0191704   -0.0565408 
   0.184990800    -0.0008219   -0.0739765     0.6647845   -0.4218206     0.6710532   -0.4137353    -0.0172397   -0.0481935 
   0.186990700    -0.0007882   -0.0755423     0.5602468   -0.5522267     0.5674144   -0.5451453    -0.0456629   -0.0249965 
   0.188990600     0.0002859   -0.0751462     0.4501804   -0.6435478     0.4555368   -0.6401111    -0.0618666    0.0066864 
   0.190990500    -0.0009011   -0.0732375     0.2847129   -0.7315024     0.2953810   -0.7272054    -0.0608111    0.0450753 
   0.192990400     0.0005678   -0.0700774     0.1208803   -0.7754294     0.1332828   -0.7736312    -0.0440829    0.0791326 
   0.194990300     0.0043178   -0.0666484    -0.0458599   -0.7831609    -0.0325506   -0.7848452    -0.0146412    0.1033950 
   0.196990200     0.0102527   -0.0640969    -0.2101887   -0.7558534    -0.1972334   -0.7611808     0.0227628    0.1137538 
   0.198990100     0.0179411   -0.0634710    -0.3654898   -0.6943663    -0.3539293   -0.7030674     0.0620416    0.1080963 
   0.200990000     0.0264581   -0.0656537    -0.5044274   -0.6006769    -0.4954055   -0.6123413     0.0962344    0.0872689 
   0.202989900     0.0346227   -0.0710647    -0.6201480   -0.4796434    -0.6148366   -0.4929099     0.1198037    0.0544837 
   0.204989800     0.0411306   -0.0795903    -0.7073349   -0.3366495    -0.7055879   -0.3499250     0.1291769    0.0149587 
   0.206989700     0.0448840   -0.0905730    -0.7620128   -0.1786995    -0.7627493   -0.1913046     0.1225192   -0.0249303 
   0.208989600     0.0448620   -0.1028335    -0.7810582   -0.0127865    -0.7842122   -0.0248250     0.1013811   -0.0589688 
   0.210989500     0.0407379   -0.1150297    -0.7643089    0.1525353    -0.7690725    0.1418650     0.0694022   -0.0819867 
   0.212989400     0.0325112   -0.1257641    -0.7129162    0.3097899    -0.7192445    0.3007526     0.0317831   -0.0908858 
   0.214989300     0.0208606   -0.1336312    -0.6298978    0.4519927    -0.6375719    0.4441517    -0.0051947   -0.0847480 
   0.216989200     0.0070594   -0.1376033    -0.5194820    0.5727676    -0.5287854    0.5661837    -0.0356323   -0.0655679 
   0.218989100    -0.0076257   -0.1371181    -0.3869487    0.6674129    -0.3981049    0.6624713    -0.0552610   -0.0376190 
   0.220989000    -0.0217353   -0.1320341    -0.2382952    0.7322134    -0.2509749    0.7298293    -0.0620849   -0.0061224 
   0.222988900    -0.0339311   -0.1227834    -0.0801360    0.7647683    -0.0928736    0.7656617    -0.0561435    0.0236695 
   0.224988800    -0.0428653   -0.1102062     0.0816481    0.7641550     0.0695252    0.7681795    -0.0400687    0.0467428 
   0.226988700    -0.0476673   -0.0954493     0.2395301    0.7300218     0.2290640    0.7370030    -0.0177069    0.0599908 
   0.228988600    -0.0479671   -0.0799216     0.3870902    0.6640075     0.3786232    0.6732417     0.0060485    0.0621791 
   0.230988500    -0.0437690   -0.0649185     0.5181327    0.5685517     0.5123956    0.5792276     0.0263652    0.0542768 
   0.232988400    -0.0353871   -0.0517218     0.6263103    0.4471506     0.6235873    0.4586645     0.0392254    0.0390685 
   0.234988300    -0.0237930   -0.0413952     0.7072544    0.3053981     0.7067303    0.3162687     0.0422549    0.0208598 
   0.236988200    -0.0098495   -0.0346166     0.7563292    0.1490887     0.7579730    0.1592055     0.0352616    0.0045562 
   0.238988100     0.0052871   -0.0318817     0.7713510   -0.0144513     0.7742164   -0.0055376     0.0201234   -0.0054276 
   0.240988000     0.0205860   -0.0331044     0.7508643   -0.1778474     0.7548040   -0.1691677     0.0007646   -0.0057155 
   0.242987900     0.0349995   -0.0380818     0.6955720   -0.3330977     0.7017586   -0.3243353    -0.0177841    0.0050392 
   0.244987800     0.0477237   -0.0463202     0.6084777   -0.4731327     0.6169680   -0.4643565    -0.0304016    0.0257506 
   0.246987700     0.0581557   -0.0572103     0.4934945   -0.5909114     0.5044721   -0.5839066    -0.0327970    0.0531819 
   0.248987600     0.0659658   -0.0700005     0.3561919   -0.6810356     0.3690529   -0.6770061    -0.0221916    0.0824871 
   0.250987500     0.0709106   -0.0841478     0.2028904   -0.7398736     0.2167403   -0.7392479     0.0015138    0.1078733 
   0.252987400     0.0729469   -0.0990950     0.0411288   -0.7642616     0.0551111   -0.7677382     0.0361590    0.1238800 
   0.254987300     0.0721899   -0.1142481    -0.1213124   -0.7534802    -0.1085733   -0.7608842     0.0775782    0.1263827 
   0.256987200     0.0688452   -0.1294480    -0.2771700   -0.7087893    -0.2668153   -0.7195829     0.1202690    0.1131469 
   0.258987100     0.0626658   -0.1441319    -0.4193799   -0.6326278    -0.4123705   -0.6450844     0.1577272    0.0843920 
   0.260987000     0.0535984   -0.1575188    -0.5413873   -0.5279660    -0.5381701   -0.5411725     0.1844899    0.0426382 
   0.262986900     0.0418463   -0.1694927    -0.6380465   -0.4007621    -0.6384786   -0.4133940     0.1961537   -0.0073918 
   0.264986800     0.0274095   -0.1795043    -0.7055792   -0.2568405    -0.7083156   -0.2678545     0.1903453   -0.0597834 
   0.266986700     0.0109570   -0.1868250    -0.7411866   -0.1027987    -0.7456350   -0.1119267     0.1672176   -0.1081307 
   0.268986600    -0.0070698   -0.1911305    -0.7438206    0.0542657    -0.7490442    0.0466728     0.1291934   -0.1463039 
   0.270986500    -0.0260112   -0.1918764    -0.7139432    0.2073269    -0.7201727    0.2006918     0.0810210   -0.1696999 
   0.272986400    -0.0455298   -0.1888658    -0.6533170    0.3504956    -0.6606340    0.3443525     0.0285825   -0.1757844 
   0.274986300    -0.0642328   -0.1817472    -0.5649924    0.4775132    -0.5736185    0.4720450    -0.0214397   -0.1644302 
   0.276986200    -0.0814598   -0.1706267    -0.4527624    0.5835579    -0.4634213    0.5796394    -0.0630702   -0.1379890 
   0.278986100    -0.0961482   -0.1557381    -0.3214222    0.6641687    -0.3330121    0.6623380    -0.0920041   -0.1010558 
   0.280986000    -0.1074850   -0.1377255    -0.1764852    0.7161989    -0.1881508    0.7173330    -0.1056026   -0.0592684 
   0.282985900    -0.1146075   -0.1176377    -0.0237618    0.7374851    -0.0344616    0.7415658    -0.1041091   -0.0184736 
   0.284985800    -0.1170243   -0.0964828     0.1304329    0.7268614     0.1217713    0.7332627    -0.0896172    0.0155797 
   0.286985700    -0.1143565   -0.0755067     0.2799684    0.6844132     0.2735601    0.6924336    -0.0663727    0.0392203 
   0.288985600    -0.1068189   -0.0560897     0.4177918    0.6113795     0.4133611    0.6205422    -0.0394865    0.0506885 
   0.290985500    -0.0950189   -0.0395273     0.5379387    0.5106049     0.5351164    0.5203450    -0.0144388    0.0502453 
   0.292985400    -0.0798032   -0.0267898     0.6344145    0.3861402     0.6333441    0.3962913     0.0041115    0.0404530 
   0.294985300    -0.0622144   -0.0183558     0.7025713    0.2431848     0.7030021    0.2536028     0.0132353    0.0256331 
   0.296985200    -0.0433189   -0.0147497     0.7386881    0.0884961     0.7405944    0.0986534     0.0120442    0.0108099 
   0.298985100    -0.0249205   -0.0159767     0.7404158   -0.0707301     0.7439306   -0.0614137     0.0021150    0.0010784 
   0.300985000    -0.0079670   -0.0217638     0.7075434   -0.2269998     0.7129617   -0.2185976    -0.0128437    0.0002171 
   0.302984900     0.0065605   -0.0314899     0.6416214   -0.3723083     0.6491134   -0.3650190    -0.0277942    0.0100112 
   0.304984800     0.0179276   -0.0443540     0.5457366   -0.4995261     0.5551912   -0.4941588    -0.0371404    0.0297294 
   0.306984700     0.0256050   -0.0592962     0.4248906   -0.6025707     0.4358705   -0.5999870    -0.0361904    0.0559748 
   0.308984600     0.0294901   -0.0754528     0.2854818   -0.6763447     0.2972650   -0.6769987    -0.0220076    0.0833261 
   0.310984500     0.0295752   -0.0919620     0.1345148   -0.7177814     0.1455927   -0.7217822     0.0058270    0.1055100 
   0.312984400     0.0259888   -0.1083701    -0.0208812   -0.7256787    -0.0111101   -0.7324217     0.0442392    0.1162471 
   0.314984300     0.0189433   -0.1235785    -0.1727942   -0.6999730    -0.1654840   -0.7088353     0.0879733    0.1108143 
