! MS46122B
! 2250307/22442219
! 2/18/2026 2:17:33 PM
! C:\USERS\SPARKY\DOCUMENTS\VNA_DATA\FEB18_2026\7K2\PORT5.S2P
! CHANNEL.1
! TR.MEASUREMENT
! RAW.DATA
# GHZ S RI R 50.0
! FREQ.GHZ         S11RE         S11IM         S21RE         S21IM         S12RE         S12IM         S22RE         S22IM         
!; PortSelection: Port_12
   0.001000000     1.0452920   -0.0673136    -0.0003082   -0.0009328    -0.0002473   -0.0009471     0.8098815   -0.5576875 
   0.002999900     0.9619467   -0.1937997    -0.0203680   -0.0143518    -0.0213367   -0.0149433     0.0552268   -0.8700786 
   0.004999800     0.8799335   -0.3140796    -0.1210120    0.0019144    -0.1278351    0.0046050    -0.7155365   -0.4378670 
   0.006999700     0.7130548   -0.3926171    -0.2325841    0.2910457    -0.2279247    0.3127478    -0.4157039    0.6667600 
   0.008999600     0.6317950   -0.3024349     0.2335337    0.5080780     0.2451216    0.5113904     0.5403835   -0.0437296 
   0.010999500     0.6624400   -0.3218298     0.4812338    0.2323086     0.4976500    0.2381003    -0.0099293   -0.5502982 
   0.012999400     0.6451091   -0.3860875     0.5123821    0.0146992     0.5334568    0.0101245    -0.4404263   -0.4112432 
   0.014999300     0.6006737   -0.4456461     0.4916801   -0.1476160     0.5086098   -0.1632996    -0.6154482   -0.1255123 
   0.016999200     0.5411116   -0.4929591     0.4451580   -0.2862446     0.4518914   -0.3076294    -0.6083260    0.1561861 
   0.018999100     0.4722519   -0.5250221     0.3728569   -0.4118719     0.3692225   -0.4323013    -0.4784628    0.3745079 
   0.020999000     0.3975135   -0.5393107     0.2706747   -0.5237777     0.2586540   -0.5377660    -0.2754855    0.5000121 
   0.022998900     0.3237616   -0.5330698     0.1339239   -0.6141542     0.1195904   -0.6184278    -0.0477681    0.5199423 
   0.024998800     0.2564426   -0.4838278    -0.0038307   -0.6965806    -0.0548793   -0.6647216     0.1647205    0.4779201 
   0.026998700     0.2078510   -0.4616308    -0.2290197   -0.6702569    -0.2311323   -0.6620274     0.2949557    0.2775680 
   0.028998600     0.1803111   -0.4084837    -0.4238634   -0.6070351    -0.4192070   -0.6025384     0.3375348    0.0801767 
   0.030998500     0.1761992   -0.3581048    -0.5937932   -0.4801347    -0.5868617   -0.4820528     0.2797263   -0.1021007 
   0.032998400     0.1877498   -0.3066904    -0.7272678   -0.3521956    -0.7168606   -0.3031897     0.1648125   -0.2333724 
   0.034998300     0.2107561   -0.3026327    -0.7734267   -0.1033220    -0.7764955   -0.1104423    -0.0184296   -0.2532003 
   0.036998200     0.2287427   -0.3008056    -0.7719936    0.0976979    -0.7779498    0.0954091    -0.1648576   -0.2002055 
   0.038998100     0.2374896   -0.3096726    -0.7209400    0.2827781    -0.7266774    0.2858580    -0.2596904   -0.0920084 
   0.040998000     0.2366643   -0.3237015    -0.6300745    0.4446589    -0.6313480    0.4506362    -0.2930789    0.0406922 
   0.042997900     0.2253291   -0.3378196    -0.5081154    0.5766261    -0.5035299    0.5821891    -0.2641103    0.1693532 
   0.044997800     0.2032560   -0.3324458    -0.4115643    0.6845472    -0.3477364    0.6840999    -0.2015933    0.2899835 
   0.046997700     0.1804594   -0.3502720    -0.2014039    0.7424174    -0.1937814    0.7396283    -0.0735548    0.3248005 
   0.048997600     0.1558255   -0.3449359    -0.0300327    0.7724817    -0.0248114    0.7657142     0.0474871    0.3291658 
   0.050997500     0.1344863   -0.3327806     0.1450131    0.7645543     0.1459784    0.7557429     0.1583280    0.2842898 
   0.052997400     0.1194422   -0.3159375     0.3161069    0.7174974     0.3110850    0.7102804     0.2399150    0.1998019 
   0.054997300     0.1114404   -0.2982327     0.4768786    0.6289588     0.4650576    0.6289245     0.2802451    0.0895972 
   0.056997200     0.1106077   -0.2830307     0.6087567    0.5086180     0.6012733    0.5099496     0.2722901   -0.0239330 
   0.058997100     0.1151228   -0.2732927     0.7109565    0.3576354     0.7057793    0.3621598     0.2201903   -0.1233991 
   0.060997000     0.1216824   -0.2707441     0.7740738    0.1865312     0.7721900    0.1920868     0.1346141   -0.1911541 
   0.062996900     0.1266184   -0.2753615     0.7945412    0.0068249     0.7963340    0.0111952     0.0320799   -0.2174985 
   0.064996800     0.1267614   -0.2853491     0.7734805   -0.1706745     0.7762214   -0.1683096    -0.0681139   -0.2002061 
   0.066996700     0.1202241   -0.2979717     0.7138605   -0.3361511     0.7152348   -0.3358345    -0.1488967   -0.1458399 
   0.068996600     0.1064410   -0.3100098     0.6205819   -0.4818879     0.6202812   -0.4818800    -0.1980501   -0.0668046 
   0.070996500     0.0868462   -0.3187061     0.5005428   -0.6036472     0.4985138   -0.6019127    -0.2097512    0.0214568 
   0.072996400     0.0628304   -0.3211898     0.3590129   -0.6962171     0.3565700   -0.6915891    -0.1856290    0.1029381 
   0.074996300     0.0372299   -0.3164555     0.2018809   -0.7568439     0.2015862   -0.7495520    -0.1325307    0.1652027 
   0.076996200     0.0130425   -0.3039675     0.0356439   -0.7841201     0.0390509   -0.7756683    -0.0611164    0.1991297 
   0.078996100    -0.0070989   -0.2848172    -0.1334439   -0.7766941    -0.1254107   -0.7685934     0.0157336    0.2011425 
   0.080996000    -0.0212838   -0.2608817    -0.2986761   -0.7329563    -0.2869219   -0.7278621     0.0847220    0.1722987 
   0.082995900    -0.0273806   -0.2349612    -0.4524276   -0.6539714    -0.4390186   -0.6541557     0.1350460    0.1184621 
   0.084995800    -0.0252077   -0.2094812    -0.5862382   -0.5424843    -0.5733314   -0.5480228     0.1576017    0.0502691 
   0.086995700    -0.0165386   -0.1880952    -0.6931645   -0.4027726    -0.6830761   -0.4121897     0.1495859   -0.0203274 
   0.088995600    -0.0030470   -0.1731002    -0.7665573   -0.2416719    -0.7607773   -0.2536928     0.1129119   -0.0802565 
   0.090995500     0.0122740   -0.1652935    -0.8022229   -0.0676788    -0.8003224   -0.0796944     0.0546878   -0.1185636 
   0.092995400     0.0264196   -0.1644530    -0.7982631    0.1096670    -0.7986510    0.0992888    -0.0139585   -0.1284716 
   0.094995300     0.0368628   -0.1688408    -0.7538899    0.2803473    -0.7559848    0.2724312    -0.0802101   -0.1084168 
   0.096995200     0.0422953   -0.1764141    -0.6737356    0.4364213    -0.6758924    0.4299982    -0.1316102   -0.0625258 
   0.098995100     0.0423651   -0.1848038    -0.5625497    0.5701464    -0.5640358    0.5639931    -0.1591131    0.0000654 
   0.100995000     0.0361039   -0.1927101    -0.4245670    0.6773704    -0.4272644    0.6699349    -0.1578373    0.0693266 
   0.102994900     0.0279449   -0.1960705    -0.2693324    0.7508662    -0.2740788    0.7427408    -0.1297218    0.1305965 
   0.104994800     0.0184955   -0.1954182    -0.1030847    0.7897298    -0.1103054    0.7819020    -0.0798027    0.1751381 
   0.106994700     0.0094671   -0.1907041     0.0672981    0.7927657     0.0568813    0.7868274    -0.0172013    0.1962019 
   0.108994600     0.0028766   -0.1830473     0.2342840    0.7600244     0.2215685    0.7575610     0.0477045    0.1910439 
   0.110994500    -0.0005539   -0.1737931     0.3908603    0.6928658     0.3774135    0.6947049     0.1047829    0.1612580 
   0.112994400    -0.0004222   -0.1645192     0.5302929    0.5939720     0.5175338    0.6002971     0.1447646    0.1126990 
   0.114994300     0.0028152   -0.1567392     0.6454222    0.4671968     0.6355373    0.4770402     0.1619462    0.0536134 
   0.116994200     0.0080797   -0.1516166     0.7308802    0.3181927     0.7246408    0.3303170     0.1543650   -0.0060928 
   0.118994100     0.0139862   -0.1496187     0.7820431    0.1539435     0.7797428    0.1664848     0.1242971   -0.0560773 
   0.120994000     0.0193602   -0.1505789     0.7965280   -0.0168504     0.7976221   -0.0057892     0.0776203   -0.0885211 
   0.122993900     0.0224232   -0.1539846     0.7736040   -0.1871210     0.7765079   -0.1773790     0.0232757   -0.0980712 
   0.124993800     0.0229027   -0.1586437     0.7148027   -0.3475136     0.7185168   -0.3394453    -0.0287872   -0.0839269 
   0.126993700     0.0205613   -0.1629211     0.6231641   -0.4912255     0.6276290   -0.4837080    -0.0688205   -0.0493713 
   0.128993600     0.0158288   -0.1656703     0.5031757   -0.6114185     0.5088680   -0.6042471    -0.0894899   -0.0019311 
   0.130993500     0.0099944   -0.1664742     0.3612422   -0.7031355     0.3685808   -0.6960289    -0.0875505    0.0492034 
   0.132993400     0.0039701   -0.1649401     0.2036974   -0.7630895     0.2132558   -0.7567869    -0.0638534    0.0944448 
   0.134993300    -0.0012779   -0.1613189     0.0372675   -0.7882945     0.0493136   -0.7840157    -0.0228856    0.1254473 
   0.136993200    -0.0047238   -0.1564505    -0.1305447   -0.7778696    -0.1165624   -0.7769346     0.0281967    0.1364740 
   0.138993100    -0.0060174   -0.1513681    -0.2926036   -0.7323471    -0.2781033   -0.7354674     0.0800394    0.1252304 
   0.140993000    -0.0053880   -0.1471046    -0.4411930   -0.6533346    -0.4280815   -0.6608647     0.1236637    0.0933565 
   0.142992900    -0.0035425   -0.1444760    -0.5698155   -0.5443513    -0.5594031   -0.5555314     0.1515471    0.0455358 
   0.144992800    -0.0013825   -0.1441366    -0.6721687   -0.4105587    -0.6660382   -0.4240381     0.1583072   -0.0102835 
   0.146992700    -0.0001235   -0.1459970    -0.7437326   -0.2577056    -0.7413076   -0.2714732     0.1428116   -0.0652680 
   0.148992600    -0.0008177   -0.1493960    -0.7802020   -0.0934415    -0.7815832   -0.1064815     0.1068976   -0.1106831 
   0.150992500    -0.0039894   -0.1532283    -0.7801580    0.0738306    -0.7838662    0.0624912     0.0558900   -0.1392045 
   0.152992400    -0.0100514   -0.1565232    -0.7454427    0.2369275    -0.7503474    0.2275934    -0.0023420   -0.1461461 
   0.154992300    -0.0185304   -0.1581288    -0.6771122    0.3880046    -0.6828883    0.3799462    -0.0587501   -0.1305699 
   0.156992200    -0.0286919   -0.1567293    -0.5788477    0.5208943    -0.5856916    0.5136811    -0.1045863   -0.0952904 
   0.158992100    -0.0391867   -0.1518704    -0.4559058    0.6299945    -0.4636409    0.6232196    -0.1332950   -0.0461800 
   0.160992000    -0.0487177   -0.1436828    -0.3131692    0.7107733    -0.3226663    0.7047724    -0.1412618    0.0087048 
   0.162991900    -0.0560351   -0.1324330    -0.1572310    0.7602053    -0.1688193    0.7560320    -0.1282988    0.0611561 
   0.164991800    -0.0601849   -0.1192602     0.0055437    0.7763223    -0.0072275    0.7748492    -0.0976987    0.1031808 
   0.166991700    -0.0605806   -0.1054369     0.1684147    0.7583988     0.1547529    0.7601483    -0.0551077    0.1293353 
   0.168991600    -0.0572732   -0.0922833     0.3244414    0.7065604     0.3112238    0.7126119    -0.0079099    0.1366799 
   0.170991500    -0.0508285   -0.0808990     0.4664121    0.6230450     0.4556134    0.6322811     0.0360076    0.1255077 
   0.172991400    -0.0421063   -0.0723966     0.5883448    0.5110210     0.5805407    0.5227263     0.0698967    0.0992584 
   0.174991300    -0.0324170   -0.0672099     0.6837045    0.3751462     0.6794779    0.3883488     0.0890971    0.0634460 
   0.176991200    -0.0229689   -0.0650968     0.7481511    0.2219314     0.7474495    0.2348175     0.0910319    0.0253343 
   0.178991100    -0.0148812   -0.0656041     0.7785473    0.0580988     0.7804114    0.0698832     0.0770613   -0.0081073 
   0.180991000    -0.0088211   -0.0677601     0.7733957   -0.1081989     0.7769195   -0.0976896     0.0507916   -0.0305943 
   0.182990900    -0.0050110   -0.0703608     0.7324402   -0.2696256     0.7377821   -0.2600051     0.0180302   -0.0381725 
   0.184990800    -0.0031213   -0.0724696     0.6585396   -0.4182474     0.6646692   -0.4098827    -0.0141090   -0.0300327 
   0.186990700    -0.0024975   -0.0732842     0.5548021   -0.5475563     0.5622210   -0.5404425    -0.0387314   -0.0080954 
   0.188990600    -0.0006516   -0.0723913     0.4456968   -0.6380744     0.4513581   -0.6344810    -0.0518650    0.0219054 
   0.190990500    -0.0007826   -0.0702136     0.2819024   -0.7254176     0.2925252   -0.7211675    -0.0475508    0.0574913 
   0.192990400     0.0016861   -0.0670812     0.1188688   -0.7688875     0.1316795   -0.7674156    -0.0287804    0.0881858 
   0.194990300     0.0064287   -0.0639886    -0.0462843   -0.7767392    -0.0331522   -0.7785137     0.0019869    0.1090333 
   0.196990200     0.0132254   -0.0620730    -0.2096682   -0.7491550    -0.1967246   -0.7548741     0.0400416    0.1158774 
   0.198990100     0.0215426   -0.0622887    -0.3637577   -0.6878564    -0.3523121   -0.6969307     0.0790923    0.1067494 
   0.200990000     0.0304493   -0.0655078    -0.5013742   -0.5949956    -0.4927474   -0.6064414     0.1124469    0.0826680 
   0.202989900     0.0387086   -0.0720567    -0.6160210   -0.4742045    -0.6110381   -0.4874960     0.1347270    0.0469771 
   0.204989800     0.0450086   -0.0817150    -0.7022178   -0.3321017    -0.7007053   -0.3451492     0.1421711    0.0048227 
   0.206989700     0.0482488   -0.0937726    -0.7559389   -0.1751036    -0.7568497   -0.1874867     0.1333178   -0.0371583 
   0.208989600     0.0474715   -0.1069640    -0.7741550   -0.0104270    -0.7774101   -0.0221951     0.1096991   -0.0730308 
   0.210989500     0.0422941   -0.1199059    -0.7569888    0.1533307    -0.7617018    0.1430665     0.0750281   -0.0972748 
   0.212989400     0.0328750   -0.1310868    -0.7054850    0.3088977    -0.7116476    0.3003230     0.0345521   -0.1069675 
   0.214989300     0.0199399   -0.1391301    -0.6225975    0.4495273    -0.6300545    0.4420166    -0.0053809   -0.1012177 
   0.216989200     0.0047749   -0.1429520    -0.5129253    0.5686756    -0.5218335    0.5623404    -0.0388824   -0.0820122 
   0.218989100    -0.0112382   -0.1420517    -0.3812617    0.6619272    -0.3920896    0.6571096    -0.0616240   -0.0532624 
   0.220989000    -0.0265907   -0.1362895    -0.2339443    0.7256396    -0.2460850    0.7230017    -0.0714541   -0.0204983 
   0.222988900    -0.0397826   -0.1259438    -0.0772996    0.7573450    -0.0897712    0.7580170    -0.0683970    0.0111286 
   0.224988800    -0.0495043   -0.1119521     0.0825205    0.7562608     0.0707946    0.7600310    -0.0547522    0.0367798 
   0.226988700    -0.0548476   -0.0957172     0.2387202    0.7221353     0.2283965    0.7288234    -0.0343765    0.0530839 
   0.228988600    -0.0553559   -0.0784839     0.3846383    0.6565418     0.3761280    0.6654013    -0.0120668    0.0587091 
   0.230988500    -0.0509570   -0.0617671     0.5140906    0.5619575     0.5082275    0.5722796     0.0076430    0.0546149 
   0.232988400    -0.0419444   -0.0468691     0.6210617    0.4415726     0.6181300    0.4529462     0.0208498    0.0434499 
   0.234988300    -0.0293282   -0.0349647     0.7009953    0.3011934     0.7002468    0.3119739     0.0250942    0.0290814 
   0.236988200    -0.0139287   -0.0267794     0.7494352    0.1461812     0.7508950    0.1564470     0.0201437    0.0163046 
   0.238988100     0.0029579   -0.0230113     0.7642634   -0.0156666     0.7669645   -0.0067984     0.0079849    0.0093481 
   0.240988000     0.0202903   -0.0235913     0.7435778   -0.1778664     0.7476590   -0.1689846    -0.0078919    0.0113358 
   0.242987900     0.0369198   -0.0284498     0.6888260   -0.3316981     0.6948751   -0.3228562    -0.0225186    0.0234456 
   0.244987800     0.0518990   -0.0370784     0.6022109   -0.4705495     0.6105634   -0.4617697    -0.0310838    0.0445214 
   0.246987700     0.0644750   -0.0488431     0.4875550   -0.5872284     0.4985784   -0.5802547    -0.0294247    0.0714083 
   0.248987600     0.0742082   -0.0631670     0.3509469   -0.6762850     0.3638344   -0.6722324    -0.0151049    0.0993465 
   0.250987500     0.0807025   -0.0792513     0.1984105   -0.7341245     0.2123967   -0.7335895     0.0116737    0.1225437 
   0.252987400     0.0838973   -0.0964072     0.0378605   -0.7576318     0.0517707   -0.7612634     0.0488135    0.1358336 
   0.254987300     0.0837904   -0.1142120    -0.1234019   -0.7460777    -0.1106955   -0.7536240     0.0920697    0.1353137 
   0.256987200     0.0802732   -0.1320230    -0.2776670   -0.7008996    -0.2674818   -0.7117355     0.1357809    0.1188839 
   0.258987100     0.0734321   -0.1491930    -0.4181609   -0.6244216    -0.4114879   -0.6369609     0.1735984    0.0869713 
   0.260987000     0.0631670   -0.1649147    -0.5382517   -0.5199524    -0.5354090   -0.5331197     0.2001587    0.0421550 
   0.262986900     0.0495954   -0.1790578    -0.6333498   -0.3934115    -0.6336873   -0.4059179     0.2110306   -0.0105784 
   0.264986800     0.0330934   -0.1907039    -0.6988508   -0.2507062    -0.7018783   -0.2615632     0.2041135   -0.0654209 
   0.266986700     0.0140536   -0.1991728    -0.7332271   -0.0981038    -0.7375686   -0.1071002     0.1795983   -0.1159084 
   0.268986600    -0.0067693   -0.2038760    -0.7346299    0.0567541    -0.7400311    0.0494633     0.1400502   -0.1559212 
   0.270986500    -0.0285939   -0.2045416    -0.7043911    0.2077965    -0.7105063    0.2014627     0.0900354   -0.1809963 
   0.272986400    -0.0508302   -0.2008898    -0.6438862    0.3485375    -0.6511485    0.3427486     0.0356437   -0.1884849 
   0.274986300    -0.0720578   -0.1924659    -0.5562446    0.4733668    -0.5647114    0.4682103    -0.0166981   -0.1783706 
   0.276986200    -0.0915192   -0.1794920    -0.4453461    0.5774927    -0.4556502    0.5737863    -0.0607853   -0.1527943 
   0.278986100    -0.1080131   -0.1624273    -0.3157075    0.6565428    -0.3269175    0.6548853    -0.0926155   -0.1162271 
   0.280986000    -0.1206777   -0.1416734    -0.1727128    0.7075809    -0.1839829    0.7086500    -0.1091645   -0.0743757 
   0.282985900    -0.1286915   -0.1185934    -0.0222117    0.7284486    -0.0325131    0.7322727    -0.1106702   -0.0329183 
   0.284985800    -0.1310345   -0.0944152     0.1299600    0.7178989     0.1214812    0.7238987    -0.0991466    0.0027081 
   0.286985700    -0.1277546   -0.0704321     0.2773268    0.6760685     0.2711817    0.6836510    -0.0785171    0.0284378 
   0.288985600    -0.1189150   -0.0480965     0.4135652    0.6040154     0.4091765    0.6127250    -0.0537971    0.0425983 
   0.290985500    -0.1052332   -0.0289774     0.5324478    0.5045709     0.5295134    0.5138677    -0.0301727    0.0453765 
   0.292985400    -0.0876230   -0.0140394     0.6280910    0.3813744     0.6265314    0.3913857    -0.0122212    0.0391359 
   0.294985300    -0.0671164   -0.0040417     0.6956291    0.2400328     0.6957920    0.2502697    -0.0029402    0.0278223 
   0.296985200    -0.0450274    0.0004583     0.7315406    0.0868554     0.7330222    0.0969547    -0.0031172    0.0164236 
   0.298985100    -0.0231563   -0.0005741     0.7332628   -0.0712709     0.7365355   -0.0617713    -0.0112038    0.0097087 
   0.300985000    -0.0027832   -0.0070100     0.7004542   -0.2263427     0.7057942   -0.2177124    -0.0238174    0.0112823 
   0.302984900     0.0149568   -0.0182685     0.6347702   -0.3705079     0.6422545   -0.3629614    -0.0359129    0.0228735 
   0.304984800     0.0291408   -0.0332875     0.5392171   -0.4964687     0.5487599   -0.4909623    -0.0421990    0.0435765 
   0.306984700     0.0391149   -0.0510295     0.4188386   -0.5983037     0.4299365   -0.5956780    -0.0382395    0.0699749 
   0.308984600     0.0444359   -0.0704071     0.2800404   -0.6708443     0.2920532   -0.6715196    -0.0212043    0.0968766 
   0.310984500     0.0452065   -0.0903704     0.1300042   -0.7110781     0.1412964   -0.7152259     0.0091329    0.1180380 
   0.312984400     0.0415304   -0.1102343    -0.0238905   -0.7177843    -0.0142096   -0.7248488     0.0495367    0.1272793 
   0.314984300     0.0335961   -0.1288030    -0.1740912   -0.6912751    -0.1668037   -0.7003691     0.0947112    0.1202051 
