! MS46122B
! 2250307/22442219
! 2/18/2026 2:09:00 PM
! C:\USERS\SPARKY\DOCUMENTS\VNA_DATA\FEB18_2026\7K2\SHORT.S2P
! CHANNEL.1
! TR.MEASUREMENT
! RAW.DATA
# GHZ S RI R 50.0
! FREQ.GHZ         S11RE         S11IM         S21RE         S21IM         S12RE         S12IM         S22RE         S22IM         
!; PortSelection: Port_12
   0.001000000     1.0453410   -0.0671625     0.0000043    0.0000004     0.0000016   -0.0000012     0.8127326   -0.5536334 
   0.002999900     0.9649292   -0.1893998     0.0000027    0.0000049    -0.0000043   -0.0000019     0.1774398   -0.8659185 
   0.004999800     0.9054567   -0.2943966     0.0000029    0.0000005     0.0000018    0.0000012    -0.3608092   -0.7767239 
   0.006999700     0.8366819   -0.3952081    -0.0000007   -0.0000023    -0.0000006   -0.0000021    -0.6871746   -0.5395330 
   0.008999600     0.7557217   -0.4931467    -0.0000015    0.0000011    -0.0000036    0.0000016    -0.8609775   -0.2660391 
   0.010999500     0.6564438   -0.5885128    -0.0000014    0.0000037     0.0000035    0.0000001    -0.9238382    0.0025442 
   0.012999400     0.5297063   -0.6782417     0.0000033    0.0000017    -0.0000022   -0.0000018    -0.9061953    0.2479075 
   0.014999300     0.3638509   -0.7512835     0.0000012    0.0000005    -0.0000006    0.0000001    -0.8280087    0.4603616 
   0.016999200     0.1435666   -0.7857662     0.0000003    0.0000000    -0.0000029   -0.0000001    -0.7050723    0.6355891 
   0.018999100    -0.1389350   -0.7320176     0.0000013   -0.0000013     0.0000042    0.0000003    -0.5506194    0.7713963 
   0.020999000    -0.4456199   -0.5009770    -0.0000006    0.0000001    -0.0000012   -0.0000016    -0.3742589    0.8664885 
   0.022998900    -0.6035531   -0.0259833    -0.0000013    0.0000020    -0.0000030   -0.0000014    -0.1851795    0.9210277 
   0.024998800    -0.3718122    0.4817456    -0.0000003   -0.0000019    -0.0000008   -0.0000001    -0.0034109    1.0123900 
   0.026998700     0.1307011    0.7216534    -0.0000003   -0.0000020     0.0000020    0.0000010     0.2017891    0.9123173 
   0.028998600     0.5603543    0.6143796     0.0000001    0.0000000    -0.0000029   -0.0000006     0.3856083    0.8510122 
   0.030998500     0.8062943    0.3859706     0.0000026    0.0000003    -0.0000013   -0.0000025     0.5546874    0.7539635 
   0.032998400     0.8818835    0.1664559     0.0000011    0.0000008    -0.0000026   -0.0000016     0.7490942    0.6892452 
   0.034998300     0.9466959   -0.0478759     0.0000011   -0.0000003     0.0000028   -0.0000006     0.8197643    0.4656539 
   0.036998200     0.9316459   -0.2149909    -0.0000011    0.0000000     0.0000015   -0.0000008     0.9034461    0.2834310 
   0.038998100     0.8941476   -0.3531440     0.0000010   -0.0000006     0.0000027    0.0000008     0.9463703    0.0848329 
   0.040998000     0.8396028   -0.4733274    -0.0000032   -0.0000019    -0.0000024   -0.0000019     0.9447585   -0.1203828 
   0.042997900     0.7711894   -0.5748353    -0.0000015   -0.0000015    -0.0000021   -0.0000001     0.8973293   -0.3219090 
   0.044997800     0.6808600   -0.6254887     0.0000000   -0.0000031     0.0000005   -0.0000017     0.8793440   -0.5318167 
   0.046997700     0.6080793   -0.7300562    -0.0000018    0.0000024     0.0000002   -0.0000003     0.6739132   -0.6710504 
   0.048997600     0.5172843   -0.7872770    -0.0000008   -0.0000004     0.0000034    0.0000006     0.5104274   -0.7990766 
   0.050997500     0.4221595   -0.8322278     0.0000009    0.0000004     0.0000002   -0.0000038     0.3235095   -0.8876824 
   0.052997400     0.3234189   -0.8653616    -0.0000022   -0.0000021     0.0000029   -0.0000044     0.1252946   -0.9330299 
   0.054997300     0.2201196   -0.8875596     0.0000111   -0.0000012     0.0000183   -0.0000048    -0.0781410   -0.9353709 
   0.056997200     0.1127701   -0.8971085    -0.0000010   -0.0000015    -0.0000023    0.0000006    -0.2711163   -0.8957294 
   0.058997100     0.0028640   -0.8940998    -0.0000008   -0.0000009    -0.0000007   -0.0000008    -0.4498283   -0.8185956 
   0.060997000    -0.1089666   -0.8765647    -0.0000016    0.0000000    -0.0000018   -0.0000009    -0.6062436   -0.7082148 
   0.062996900    -0.2225675   -0.8432365    -0.0000009   -0.0000037     0.0000007   -0.0000010    -0.7346606   -0.5713127 
   0.064996800    -0.3357249   -0.7917753    -0.0000009    0.0000014    -0.0000022    0.0000000    -0.8317779   -0.4145838 
   0.066996700    -0.4460480   -0.7205682     0.0000010   -0.0000009    -0.0000034    0.0000012    -0.8952410   -0.2452851 
   0.068996600    -0.5505661   -0.6270204    -0.0000006   -0.0000005     0.0000005    0.0000016    -0.9238074   -0.0701272 
   0.070996500    -0.6444302   -0.5096531    -0.0000005   -0.0000033    -0.0000023    0.0000013    -0.9188581    0.1041891 
   0.072996400    -0.7197921   -0.3666911    -0.0000023   -0.0000026    -0.0000001   -0.0000002    -0.8826388    0.2717406 
   0.074996300    -0.7690989   -0.1991634    -0.0000004    0.0000003     0.0000011   -0.0000026    -0.8169573    0.4272554 
   0.076996200    -0.7822173   -0.0113927     0.0000012    0.0000004    -0.0000014    0.0000006    -0.7254004    0.5663000 
   0.078996100    -0.7497920    0.1885281    -0.0000005   -0.0000009     0.0000014   -0.0000005    -0.6116238    0.6860049 
   0.080996000    -0.6632442    0.3875229     0.0000014    0.0000005     0.0000009    0.0000004    -0.4800827    0.7825792 
   0.082995900    -0.5196083    0.5665329     0.0000001    0.0000012     0.0000034    0.0000000    -0.3344668    0.8540267 
   0.084995800    -0.3241369    0.7039819    -0.0000018    0.0000000    -0.0000013    0.0000023    -0.1797229    0.8988130 
   0.086995700    -0.0926460    0.7822571     0.0000011    0.0000021     0.0000003    0.0000001    -0.0191253    0.9158366 
   0.088995600     0.1534030    0.7902814     0.0000015    0.0000013     0.0000023    0.0000027     0.1411377    0.9047146 
   0.090995500     0.3873727    0.7281259    -0.0000002   -0.0000007     0.0000020    0.0000002     0.2973340    0.8655346 
   0.092995400     0.5885583    0.6070923    -0.0000023   -0.0000028     0.0000024   -0.0000016     0.4441631    0.7993733 
   0.094995300     0.7407727    0.4439182    -0.0000003    0.0000002     0.0000011   -0.0000032     0.5782364    0.7074766 
   0.096995200     0.8396042    0.2583433    -0.0000033   -0.0000003     0.0000012   -0.0000025     0.6940340    0.5933583 
   0.098995100     0.8877854    0.0675543     0.0000000   -0.0000017    -0.0000008   -0.0000009     0.7881483    0.4596013 
   0.100995000     0.8914349   -0.1170599    -0.0000011   -0.0000013     0.0000019   -0.0000005     0.8569210    0.3100502 
   0.102994900     0.8578466   -0.2852963     0.0000016   -0.0000015     0.0000002   -0.0000015     0.8977037    0.1493690 
   0.104994800     0.7963013   -0.4339564    -0.0000006    0.0000000    -0.0000003   -0.0000018     0.9086849   -0.0172629 
   0.106994700     0.7126020   -0.5607902     0.0000003   -0.0000007    -0.0000001   -0.0000010     0.8886479   -0.1845094 
   0.108994600     0.6142022   -0.6658916    -0.0000002    0.0000006    -0.0000027    0.0000001     0.8375438   -0.3461122 
   0.110994500     0.5046470   -0.7497708     0.0000001   -0.0000002     0.0000005   -0.0000031     0.7565460   -0.4967517 
   0.112994400     0.3875868   -0.8129773     0.0000004   -0.0000005    -0.0000008   -0.0000025     0.6480945   -0.6304249 
   0.114994300     0.2659994   -0.8559979    -0.0000016    0.0000003    -0.0000015   -0.0000009     0.5154548   -0.7418442 
   0.116994200     0.1419152   -0.8796130    -0.0000014    0.0000003    -0.0000026   -0.0000010     0.3632737   -0.8260022 
   0.118994100     0.0176132   -0.8850931    -0.0000011   -0.0000014    -0.0000023   -0.0000020     0.1968687   -0.8797801 
   0.120994000    -0.1054187   -0.8733465    -0.0000016    0.0000003    -0.0000018   -0.0000008     0.0227235   -0.9002917 
   0.122993900    -0.2260425   -0.8427494    -0.0000004   -0.0000004    -0.0000012    0.0000013    -0.1522208   -0.8870428 
   0.124993800    -0.3412264   -0.7951258     0.0000019   -0.0000003    -0.0000012   -0.0000019    -0.3214084   -0.8400499 
   0.126993700    -0.4502091   -0.7295668    -0.0000002   -0.0000001    -0.0000024   -0.0000005    -0.4778632   -0.7614869 
   0.128993600    -0.5496619   -0.6458570    -0.0000022    0.0000006    -0.0000006    0.0000001    -0.6161353   -0.6545507 
   0.130993500    -0.6379494   -0.5463150     0.0000006    0.0000009    -0.0000009    0.0000006    -0.7306565   -0.5233171 
   0.132993400    -0.7117766   -0.4304888    -0.0000005   -0.0000014    -0.0000008    0.0000001    -0.8176658   -0.3733188 
   0.134993300    -0.7674736   -0.2991785    -0.0000014   -0.0000004    -0.0000007    0.0000007    -0.8741070   -0.2106746 
   0.136993200    -0.8014912   -0.1545551     0.0000008    0.0000013     0.0000000    0.0000017    -0.8985787   -0.0412116 
   0.138993100    -0.8099177    0.0006406    -0.0000004    0.0000004     0.0000006    0.0000009    -0.8906371    0.1288766 
   0.140993000    -0.7882269    0.1616640     0.0000005    0.0000006    -0.0000002    0.0000000    -0.8514438    0.2933561 
   0.142992900    -0.7329897    0.3229224    -0.0000003   -0.0000007     0.0000011    0.0000005    -0.7827090    0.4464186 
   0.144992800    -0.6427494    0.4765148    -0.0000006   -0.0000011     0.0000009   -0.0000009    -0.6872476    0.5828027 
   0.146992700    -0.5157104    0.6127899     0.0000012   -0.0000013    -0.0000002   -0.0000001    -0.5693827    0.6990461 
   0.148992600    -0.3557748    0.7213939     0.0000000   -0.0000005     0.0000019    0.0000004    -0.4331267    0.7915437 
   0.150992500    -0.1691736    0.7906889    -0.0000005   -0.0000002     0.0000011    0.0000004    -0.2832771    0.8579397 
   0.152992400     0.0331719    0.8156395     0.0000005   -0.0000002     0.0000014   -0.0000008    -0.1244342    0.8951452 
   0.154992300     0.2380326    0.7910507    -0.0000002   -0.0000005     0.0000030   -0.0000023     0.0380793    0.9032941 
   0.156992200     0.4312254    0.7166798    -0.0000022   -0.0000014     0.0000016   -0.0000017     0.1989768    0.8820921 
   0.158992100     0.5995554    0.5988942     0.0000010    0.0000000     0.0000023   -0.0000026     0.3532223    0.8325002 
   0.160992000     0.7323126    0.4463023    -0.0000007   -0.0000017     0.0000017   -0.0000012     0.4959486    0.7557374 
   0.162991900     0.8227234    0.2715667    -0.0000011   -0.0000021     0.0000025   -0.0000029     0.6225960    0.6547601 
   0.164991800     0.8694845    0.0864596    -0.0000014   -0.0000025     0.0000005   -0.0000036     0.7293528    0.5324520 
   0.166991700     0.8740727   -0.0974551     0.0000002   -0.0000023     0.0000025   -0.0000034     0.8124014    0.3925931 
   0.168991600     0.8405374   -0.2706577    -0.0000015   -0.0000016     0.0000008   -0.0000045     0.8684608    0.2396808 
   0.170991500     0.7749137   -0.4269445    -0.0000019   -0.0000027     0.0000000   -0.0000050     0.8960076    0.0784670 
   0.172991400     0.6834067   -0.5615745    -0.0000026   -0.0000010    -0.0000009   -0.0000049     0.8935360   -0.0855044 
   0.174991300     0.5731399   -0.6713072    -0.0000032   -0.0000021    -0.0000011   -0.0000041     0.8611800   -0.2467442 
   0.176991200     0.4486161   -0.7567285    -0.0000022   -0.0000027    -0.0000050   -0.0000040     0.7992368   -0.3994990 
   0.178991100     0.3153940   -0.8168856    -0.0000041   -0.0000005    -0.0000025   -0.0000027     0.7097580   -0.5387753 
   0.180991000     0.1784829   -0.8530192    -0.0000044    0.0000009    -0.0000048   -0.0000008     0.5955359   -0.6590819 
   0.182990900     0.0400626   -0.8642055    -0.0000042    0.0000016    -0.0000039    0.0000009     0.4605372   -0.7563333 
   0.184990800    -0.0961382   -0.8528079    -0.0000028    0.0000050    -0.0000016    0.0000007     0.3093433   -0.8267739 
   0.186990700    -0.2273015   -0.8200755     0.0000008    0.0000034     0.0000022    0.0000013     0.1474683   -0.8672319 
   0.188990600    -0.3281894   -0.7760791     0.0000018    0.0000035     0.0000018   -0.0000006     0.0044981   -0.8768156 
   0.190990500    -0.4594429   -0.6963714     0.0000013    0.0000021     0.0000012   -0.0000004    -0.1814701   -0.8550046 
   0.192990400    -0.5623965   -0.6049663     0.0000018    0.0000017     0.0000013   -0.0000014    -0.3426136   -0.8010609 
   0.194990300    -0.6473845   -0.4992606     0.0000010    0.0000009     0.0000004   -0.0000013    -0.4872786   -0.7192245 
   0.196990200    -0.7147002   -0.3799219     0.0000010    0.0000000    -0.0000003   -0.0000024    -0.6134986   -0.6120626 
   0.198990100    -0.7620940   -0.2489232     0.0000013    0.0000001    -0.0000009   -0.0000017    -0.7167245   -0.4834009 
   0.200990000    -0.7869781   -0.1085645    -0.0000005   -0.0000016    -0.0000008   -0.0000004    -0.7936245   -0.3384729 
   0.202989900    -0.7873533    0.0380048    -0.0000009    0.0000006    -0.0000001   -0.0000001    -0.8420390   -0.1827409 
   0.204989800    -0.7604821    0.1862118     0.0000006   -0.0000008     0.0000030   -0.0000004    -0.8605157   -0.0217726 
   0.206989700    -0.7071639    0.3311770     0.0000005   -0.0000014     0.0000009   -0.0000006    -0.8491344    0.1388300 
   0.208989600    -0.6237428    0.4667269    -0.0000005   -0.0000011     0.0000026   -0.0000025    -0.8089296    0.2937018 
   0.210989500    -0.5119242    0.5872552    -0.0000001   -0.0000015     0.0000029   -0.0000030    -0.7415423    0.4376572 
   0.212989400    -0.3745135    0.6861968     0.0000010   -0.0000008     0.0000024   -0.0000021    -0.6497660    0.5662040 
   0.214989300    -0.2158968    0.7563977     0.0000009   -0.0000019     0.0000039   -0.0000028    -0.5370449    0.6756400 
   0.216989200    -0.0426178    0.7922631    -0.0000001   -0.0000042     0.0000021   -0.0000030    -0.4074821    0.7628105 
   0.218989100     0.1366249    0.7901120    -0.0000019   -0.0000005     0.0000030   -0.0000047    -0.2649780    0.8252289 
   0.220989000     0.3137811    0.7487932    -0.0000029   -0.0000013     0.0000016   -0.0000054    -0.1144041    0.8610747 
   0.222988900     0.4784565    0.6691290    -0.0000015    0.0000000     0.0000007   -0.0000042     0.0397665    0.8699149 
   0.224988800     0.6221558    0.5556708    -0.0000045   -0.0000003     0.0000010   -0.0000059     0.1928885    0.8518158 
   0.226988700     0.7363640    0.4150211    -0.0000034   -0.0000008     0.0000002   -0.0000050     0.3402759    0.8070924 
   0.228988600     0.8164843    0.2552738    -0.0000022   -0.0000008     0.0000015   -0.0000068     0.4771674    0.7372051 
   0.230988500     0.8604921    0.0854819    -0.0000018   -0.0000009     0.0000005   -0.0000063     0.6000636    0.6442924 
   0.232988400     0.8668553   -0.0859511    -0.0000017   -0.0000016     0.0000001   -0.0000068     0.7049447    0.5312725 
   0.234988300     0.8404438   -0.2512681    -0.0000022    0.0000005    -0.0000007   -0.0000064     0.7886421    0.4011941 
   0.236988200     0.7835010   -0.4041001    -0.0000019    0.0000016    -0.0000020   -0.0000052     0.8483613    0.2580759 
   0.238988100     0.7004356   -0.5391433    -0.0000011    0.0000030    -0.0000022   -0.0000055     0.8819251    0.1057175 
   0.240988000     0.5970871   -0.6526987    -0.0000006    0.0000012    -0.0000028   -0.0000062     0.8878074   -0.0508268 
   0.242987900     0.4783489   -0.7429424    -0.0000006    0.0000015    -0.0000028   -0.0000040     0.8658924   -0.2068163 
   0.244987800     0.3490121   -0.8094363    -0.0000001    0.0000005    -0.0000038   -0.0000050     0.8159225   -0.3570692 
   0.246987700     0.2129290   -0.8515971     0.0000000    0.0000004    -0.0000037   -0.0000026     0.7391772   -0.4967234 
   0.248987600     0.0743618   -0.8703055    -0.0000001    0.0000003    -0.0000027   -0.0000021     0.6374047   -0.6209323 
   0.250987500    -0.0640413   -0.8653023    -0.0000006    0.0000000    -0.0000032   -0.0000021     0.5141903   -0.7251881 
   0.252987400    -0.1973482   -0.8382702     0.0000000   -0.0000009    -0.0000021   -0.0000007     0.3728550   -0.8051438 
   0.254987300    -0.3229206   -0.7901859    -0.0000003    0.0000004    -0.0000009   -0.0000014     0.2184050   -0.8577740 
   0.256987200    -0.4386173   -0.7234223    -0.0000002   -0.0000006    -0.0000014   -0.0000007     0.0561423   -0.8810050 
   0.258987100    -0.5428483   -0.6392402    -0.0000017   -0.0000003     0.0000017    0.0000014    -0.1080234   -0.8731603 
   0.260987000    -0.6320463   -0.5378510    -0.0000001   -0.0000013     0.0000039   -0.0000006    -0.2684878   -0.8344332 
   0.262986900    -0.7039617   -0.4214150     0.0000001   -0.0000011     0.0000058   -0.0000019    -0.4188581   -0.7660225 
   0.264986800    -0.7564028   -0.2931014    -0.0000009   -0.0000020     0.0000069   -0.0000035    -0.5534543   -0.6702735 
   0.266986700    -0.7869232   -0.1550233     0.0000001   -0.0000004     0.0000063   -0.0000067    -0.6674457   -0.5508012 
   0.268986600    -0.7928333   -0.0110550    -0.0000018   -0.0000012     0.0000049   -0.0000103    -0.7565414   -0.4123470 
   0.270986500    -0.7727570    0.1345054    -0.0000005   -0.0000030     0.0000030   -0.0000127    -0.8177466   -0.2598496 
   0.272986400    -0.7253156    0.2775422    -0.0000018   -0.0000023    -0.0000011   -0.0000125    -0.8486883   -0.0992188 
   0.274986300    -0.6497790    0.4127564    -0.0000037   -0.0000020    -0.0000059   -0.0000132    -0.8488855    0.0636799 
   0.276986200    -0.5466881    0.5351282    -0.0000046   -0.0000007    -0.0000078   -0.0000098    -0.8183194    0.2224694 
   0.278986100    -0.4171636    0.6367801    -0.0000051   -0.0000009    -0.0000074   -0.0000051    -0.7591897    0.3721615 
   0.280986000    -0.2652881    0.7113861    -0.0000029    0.0000006    -0.0000057   -0.0000038    -0.6741271    0.5074304 
   0.282985900    -0.0967955    0.7533177    -0.0000003    0.0000010    -0.0000032   -0.0000031    -0.5661018    0.6237387 
   0.284985800     0.0800987    0.7577625    -0.0000040    0.0000018    -0.0000009   -0.0000013    -0.4396118    0.7174460 
   0.286985700     0.2562113    0.7220933    -0.0000033    0.0000028     0.0000000   -0.0000013    -0.2990902    0.7860652 
   0.288985600     0.4204985    0.6477315    -0.0000023    0.0000027     0.0000010   -0.0000022    -0.1493603    0.8279762 
   0.290985500     0.5641199    0.5379838    -0.0000027    0.0000036     0.0000023   -0.0000029     0.0047411    0.8419567 
   0.292985400     0.6782822    0.3996953    -0.0000012    0.0000029     0.0000028   -0.0000056     0.1582423    0.8280621 
   0.294985300     0.7581047    0.2407152    -0.0000004    0.0000021     0.0000019   -0.0000078     0.3058517    0.7873842 
   0.296985200     0.8001416    0.0705930     0.0000004    0.0000030     0.0000022   -0.0000077     0.4435224    0.7210919 
   0.298985100     0.8037711   -0.1012232    -0.0000008    0.0000007     0.0000008   -0.0000105     0.5669276    0.6315409 
   0.300985000     0.7712977   -0.2655876     0.0000006    0.0000000    -0.0000001   -0.0000103     0.6722113    0.5218460 
   0.302984900     0.7076972   -0.4151888     0.0000007    0.0000009    -0.0000019   -0.0000119     0.7565783    0.3952874 
   0.304984800     0.6181063   -0.5442649     0.0000002   -0.0000002    -0.0000036   -0.0000123     0.8169898    0.2558662 
   0.306984700     0.5091155   -0.6496930     0.0000012   -0.0000013    -0.0000063   -0.0000113     0.8519304    0.1075205 
   0.308984600     0.3872040   -0.7294995    -0.0000003   -0.0000018    -0.0000073   -0.0000098     0.8599548   -0.0449794 
   0.310984500     0.2577645   -0.7838607     0.0000002   -0.0000004    -0.0000083   -0.0000097     0.8408657   -0.1970321 
   0.312984400     0.1257079   -0.8137614     0.0000004   -0.0000036    -0.0000103   -0.0000063     0.7944892   -0.3439034 
   0.314984300    -0.0057516   -0.8211920     0.0000000   -0.0000016    -0.0000109   -0.0000060     0.7223434   -0.4805649 
