! MS46122B
! 2250307/22442219
! 2/20/2026 8:56:55 AM
! C:\USERS\SPARKY\DOCUMENTS\VNA_DATA\FEB20_2026\LOAD.S2P
! CHANNEL.1
! TR.MEASUREMENT
! RAW.DATA
# GHZ S RI R 50.0
! FREQ.GHZ         S11RE         S11IM         S21RE         S21IM         S12RE         S12IM         S22RE         S22IM         
!; PortSelection: Port_12
   0.001000000     1.0465930   -0.0662089    -0.0000018    0.0000033     0.0000009   -0.0000029     0.7980053   -0.5569404 
   0.002999900     0.9559069   -0.1893363     0.0000012    0.0000006    -0.0000022   -0.0000045     0.0563137   -0.7956139 
   0.004999800     0.8763758   -0.2803084    -0.0000006    0.0000002     0.0000032   -0.0000042    -0.4202958   -0.4445943 
   0.006999700     0.7912819   -0.3461773    -0.0000035   -0.0000011    -0.0000002    0.0000028    -0.4621190   -0.1040890 
   0.008999600     0.7100587   -0.3917573    -0.0000006   -0.0000005    -0.0000003   -0.0000011    -0.3747617    0.0650460 
   0.010999500     0.6360489   -0.4214050     0.0000003   -0.0000012    -0.0000002   -0.0000007    -0.2859081    0.1335351 
   0.012999400     0.5699110   -0.4396888     0.0000018    0.0000007     0.0000028   -0.0000004    -0.2170904    0.1560850 
   0.014999300     0.5127915   -0.4491209     0.0000005    0.0000016    -0.0000003   -0.0000014    -0.1662271    0.1586551 
   0.016999200     0.4639265   -0.4526788    -0.0000016    0.0000018    -0.0000016   -0.0000009    -0.1283841    0.1525637 
   0.018999100     0.4212313   -0.4515480    -0.0000003    0.0000010    -0.0000010    0.0000002    -0.0996296    0.1430088 
   0.020999000     0.3852341   -0.4472336     0.0000021    0.0000007    -0.0000024   -0.0000022    -0.0769946    0.1324725 
   0.022998900     0.3541129   -0.4409339     0.0000003   -0.0000026    -0.0000017   -0.0000048    -0.0589171    0.1220328 
   0.024998800     0.3224767   -0.4115205     0.0000013    0.0000049     0.0000022   -0.0000014    -0.0456910    0.1225113 
   0.026998700     0.3032887   -0.4240918     0.0000030   -0.0000005    -0.0000053   -0.0000016    -0.0322602    0.1034824 
   0.028998600     0.2823326   -0.4143177     0.0000000   -0.0000028    -0.0000015   -0.0000010    -0.0223237    0.0955879 
   0.030998500     0.2635074   -0.4042480    -0.0000013   -0.0000004     0.0000004   -0.0000002    -0.0140972    0.0886238 
   0.032998400     0.2433664   -0.3763948    -0.0000016   -0.0000001     0.0000022    0.0000000    -0.0058736    0.0916840 
   0.034998300     0.2302763   -0.3839470    -0.0000013    0.0000000    -0.0000013    0.0000004    -0.0015992    0.0768494 
   0.036998200     0.2154924   -0.3740640     0.0000011    0.0000005    -0.0000006   -0.0000021     0.0030597    0.0718469 
   0.038998100     0.2018071   -0.3635550    -0.0000009   -0.0000014    -0.0000004   -0.0000020     0.0068527    0.0672649 
   0.040998000     0.1902402   -0.3534302    -0.0000013   -0.0000048     0.0000009   -0.0000006     0.0099030    0.0630270 
   0.042997900     0.1796694   -0.3442677     0.0000007   -0.0000005    -0.0000038   -0.0000031     0.0123373    0.0590850 
   0.044997800     0.1686872   -0.3217257     0.0000003    0.0000014    -0.0000016   -0.0000010     0.0174904    0.0631839 
   0.046997700     0.1598670   -0.3283444     0.0000012    0.0000004     0.0000003   -0.0000005     0.0158554    0.0515296 
   0.048997600     0.1513476   -0.3211937    -0.0000010    0.0000028    -0.0000024   -0.0000019     0.0166967    0.0479898 
   0.050997500     0.1439415   -0.3142508    -0.0000083    0.0000079     0.0000068    0.0000128     0.0169825    0.0446098 
   0.052997400     0.1357905   -0.3088193    -0.0000042   -0.0000003     0.0000021   -0.0000057     0.0170770    0.0410920 
   0.054997300     0.1285465   -0.3036381     0.0000103   -0.0000022    -0.0000022    0.0000008     0.0166430    0.0377835 
   0.056997200     0.1217472   -0.2990344     0.0000006   -0.0000033    -0.0000001   -0.0000013     0.0158736    0.0345066 
   0.058997100     0.1151277   -0.2949820     0.0000012    0.0000002    -0.0000014    0.0000010     0.0148882    0.0312515 
   0.060997000     0.1086011   -0.2914356     0.0000009    0.0000026     0.0000011   -0.0000003     0.0136339    0.0281064 
   0.062996900     0.1020612   -0.2882816     0.0000008    0.0000015     0.0000001   -0.0000015     0.0120430    0.0251957 
   0.064996800     0.0953043   -0.2853919     0.0000013    0.0000003     0.0000015   -0.0000029     0.0101995    0.0225721 
   0.066996700     0.0886587   -0.2825983     0.0000026    0.0000009     0.0000015   -0.0000004     0.0081429    0.0202811 
   0.068996600     0.0819402   -0.2798240     0.0000002   -0.0000002    -0.0000005    0.0000023     0.0058648    0.0183819 
   0.070996500     0.0751866   -0.2772178    -0.0000016   -0.0000020     0.0000003   -0.0000018     0.0034600    0.0168670 
   0.072996400     0.0682760   -0.2740521    -0.0000007    0.0000007    -0.0000007   -0.0000019     0.0009879    0.0159265 
   0.074996300     0.0612967   -0.2705593    -0.0000001   -0.0000003     0.0000026   -0.0000011    -0.0015405    0.0154951 
   0.076996200     0.0543300   -0.2666888     0.0000003   -0.0000031     0.0000018   -0.0000005    -0.0039613    0.0156192 
   0.078996100     0.0474197   -0.2622802     0.0000003   -0.0000004    -0.0000001   -0.0000023    -0.0062068    0.0162838 
   0.080996000     0.0405363   -0.2574826    -0.0000016   -0.0000038     0.0000013   -0.0000033    -0.0082652    0.0173984 
   0.082995900     0.0337629   -0.2520926     0.0000010    0.0000001     0.0000002    0.0000007    -0.0099843    0.0190487 
   0.084995800     0.0276468   -0.2459111    -0.0000017   -0.0000019    -0.0000020   -0.0000001    -0.0114803    0.0211848 
   0.086995700     0.0215602   -0.2394000    -0.0000007   -0.0000039     0.0000016   -0.0000030    -0.0125538    0.0237033 
   0.088995600     0.0162142   -0.2324928    -0.0000022   -0.0000044    -0.0000012   -0.0000010    -0.0131681    0.0264606 
   0.090995500     0.0115924   -0.2252996    -0.0000043   -0.0000011    -0.0000030   -0.0000018    -0.0132036    0.0294384 
   0.092995400     0.0077537   -0.2179897    -0.0000018   -0.0000003    -0.0000038    0.0000021    -0.0127028    0.0324729 
   0.094995300     0.0046368   -0.2103272    -0.0000021   -0.0000021    -0.0000010    0.0000007    -0.0115946    0.0355192 
   0.096995200     0.0023325   -0.2026226    -0.0000021    0.0000020     0.0000004    0.0000019    -0.0099095    0.0384494 
   0.098995100     0.0007023   -0.1948487     0.0000001    0.0000005     0.0000015   -0.0000006    -0.0076604    0.0411111 
   0.100995000    -0.0015453   -0.1885832    -0.0000015    0.0000005    -0.0000026    0.0000018    -0.0038872    0.0432500 
   0.102994900    -0.0013386   -0.1816157    -0.0000012    0.0000030     0.0000004    0.0000014    -0.0006537    0.0451849 
   0.104994800    -0.0003964   -0.1751867     0.0000033    0.0000001     0.0000012    0.0000005     0.0029389    0.0466254 
   0.106994700     0.0012005   -0.1692683     0.0000027    0.0000001     0.0000002    0.0000000     0.0069229    0.0474154 
   0.108994600     0.0033337   -0.1641883     0.0000018   -0.0000018     0.0000012    0.0000009     0.0110194    0.0476153 
   0.110994500     0.0058859   -0.1599130     0.0000013   -0.0000010     0.0000005   -0.0000024     0.0152368    0.0471314 
   0.112994400     0.0086942   -0.1565408     0.0000005   -0.0000007     0.0000014   -0.0000001     0.0194101    0.0459766 
   0.114994300     0.0116262   -0.1540220    -0.0000001   -0.0000020     0.0000010   -0.0000007     0.0234052    0.0442154 
   0.116994200     0.0145076   -0.1524407     0.0000008   -0.0000009    -0.0000015   -0.0000021     0.0271740    0.0417294 
   0.118994100     0.0171849   -0.1516819    -0.0000001   -0.0000011     0.0000004   -0.0000007     0.0305650    0.0387585 
   0.120994000     0.0197855   -0.1515107    -0.0000008    0.0000002    -0.0000005   -0.0000020     0.0334787    0.0351950 
   0.122993900     0.0215760   -0.1522326     0.0000007   -0.0000011     0.0000001   -0.0000028     0.0358085    0.0312807 
   0.124993800     0.0228188   -0.1535875    -0.0000020   -0.0000001    -0.0000010   -0.0000019     0.0375081    0.0270393 
   0.126993700     0.0233258   -0.1553412     0.0000003   -0.0000002    -0.0000007   -0.0000006     0.0384043    0.0225917 
   0.128993600     0.0229968   -0.1572382    -0.0000007   -0.0000005    -0.0000020   -0.0000014     0.0386915    0.0180570 
   0.130993500     0.0219856   -0.1593602     0.0000005   -0.0000005    -0.0000008   -0.0000012     0.0382860    0.0135366 
   0.132993400     0.0201473   -0.1614624    -0.0000013   -0.0000011    -0.0000011    0.0000000     0.0371444    0.0092238 
   0.134993300     0.0175191   -0.1633871    -0.0000021   -0.0000017    -0.0000005   -0.0000009     0.0353157    0.0051825 
   0.136993200     0.0141850   -0.1649654     0.0000007   -0.0000006    -0.0000019   -0.0000014     0.0328992    0.0015228 
   0.138993100     0.0101790   -0.1660904    -0.0000020   -0.0000010    -0.0000011   -0.0000011     0.0299005   -0.0016315 
   0.140993000     0.0055849   -0.1665800    -0.0000006   -0.0000010    -0.0000011   -0.0000017     0.0264769   -0.0041829 
   0.142992900     0.0004768   -0.1663592    -0.0000002   -0.0000009     0.0000001   -0.0000013     0.0227052   -0.0060654 
   0.144992800    -0.0047717   -0.1656411    -0.0000004   -0.0000002     0.0000002   -0.0000001     0.0186748   -0.0072630 
   0.146992700    -0.0101540   -0.1638952    -0.0000001    0.0000004     0.0000001   -0.0000002     0.0145656   -0.0077166 
   0.148992600    -0.0155504   -0.1613447    -0.0000005   -0.0000008    -0.0000013   -0.0000011     0.0105069   -0.0074167 
   0.150992500    -0.0207117   -0.1578854    -0.0000006    0.0000005    -0.0000024   -0.0000007     0.0065829   -0.0063753 
   0.152992400    -0.0256563   -0.1536385     0.0000001   -0.0000002    -0.0000004   -0.0000015     0.0029724   -0.0046967 
   0.154992300    -0.0301156   -0.1486724    -0.0000017    0.0000007    -0.0000011   -0.0000006    -0.0002338   -0.0024257 
   0.156992200    -0.0339400   -0.1430586    -0.0000010    0.0000008    -0.0000014   -0.0000005    -0.0029621    0.0003706 
   0.158992100    -0.0370895   -0.1369961     0.0000003   -0.0000010    -0.0000002   -0.0000017    -0.0050770    0.0036114 
   0.160992000    -0.0394604   -0.1305416    -0.0000009    0.0000006    -0.0000003   -0.0000021    -0.0065687    0.0071420 
   0.162991900    -0.0410123   -0.1238152    -0.0000010    0.0000003     0.0000004    0.0000000    -0.0073593    0.0108737 
   0.164991800    -0.0416302   -0.1169653    -0.0000009    0.0000011     0.0000008    0.0000005    -0.0074253    0.0146564 
   0.166991700    -0.0413232   -0.1101774     0.0000007    0.0000002    -0.0000005   -0.0000010    -0.0068297    0.0183905 
   0.168991600    -0.0401108   -0.1035860    -0.0000014    0.0000012    -0.0000011   -0.0000011    -0.0055277    0.0219320 
   0.170991500    -0.0381108   -0.0973101    -0.0000015   -0.0000004    -0.0000014   -0.0000016    -0.0036269    0.0251500 
   0.172991400    -0.0352977   -0.0915111    -0.0000009   -0.0000001    -0.0000013   -0.0000020    -0.0011634    0.0279944 
   0.174991300    -0.0318076   -0.0863201     0.0000007    0.0000001    -0.0000011   -0.0000007     0.0017329    0.0303180 
   0.176991200    -0.0277597   -0.0818399     0.0000008   -0.0000005    -0.0000008   -0.0000012     0.0049839    0.0320849 
   0.178991100    -0.0232840   -0.0780904    -0.0000005   -0.0000013     0.0000006   -0.0000006     0.0084816    0.0332500 
   0.180991000    -0.0185239   -0.0751976    -0.0000006   -0.0000034    -0.0000004   -0.0000008     0.0121392    0.0337322 
   0.182990900    -0.0136225   -0.0731171    -0.0000004   -0.0000004    -0.0000022   -0.0000015     0.0157640    0.0336007 
   0.184990800    -0.0086905   -0.0718968    -0.0000018    0.0000003    -0.0000006   -0.0000005     0.0193611    0.0328202 
   0.186990700    -0.0039318   -0.0714798    -0.0000012    0.0000011     0.0000012   -0.0000008     0.0226471    0.0314366 
   0.188990600     0.0020274   -0.0716496    -0.0000010   -0.0000003     0.0000005   -0.0000015     0.0243619    0.0302621 
   0.190990500     0.0048697   -0.0727638     0.0000001    0.0000005     0.0000006   -0.0000031     0.0281019    0.0272645 
   0.192990400     0.0082903   -0.0743697     0.0000003    0.0000006     0.0000005   -0.0000033     0.0303410    0.0244309 
   0.194990300     0.0112952   -0.0763772     0.0000004   -0.0000008     0.0000011   -0.0000034     0.0318081    0.0214779 
   0.196990200     0.0137064   -0.0787356    -0.0000017   -0.0000001    -0.0000009   -0.0000039     0.0326833    0.0183658 
   0.198990100     0.0154590   -0.0812778    -0.0000005    0.0000002    -0.0000013   -0.0000020     0.0329344    0.0152315 
   0.200990000     0.0165937   -0.0838893    -0.0000029   -0.0000004    -0.0000012   -0.0000016     0.0325675    0.0121883 
   0.202989900     0.0171148   -0.0864543     0.0000005   -0.0000012    -0.0000016   -0.0000037     0.0316409    0.0094025 
   0.204989800     0.0170377   -0.0888489    -0.0000011   -0.0000004    -0.0000025   -0.0000029     0.0302084    0.0068938 
   0.206989700     0.0165012   -0.0910395    -0.0000021    0.0000004    -0.0000024   -0.0000017     0.0283538    0.0047899 
   0.208989600     0.0155568   -0.0928354    -0.0000015    0.0000016    -0.0000015   -0.0000012     0.0261339    0.0032048 
   0.210989500     0.0144010   -0.0942334    -0.0000015    0.0000012    -0.0000016   -0.0000005     0.0236596    0.0021651 
   0.212989400     0.0129740   -0.0952270    -0.0000005    0.0000037    -0.0000001    0.0000000     0.0210968    0.0017125 
   0.214989300     0.0114811   -0.0957495    -0.0000017    0.0000020     0.0000013   -0.0000023     0.0185447    0.0018479 
   0.216989200     0.0100533   -0.0958638     0.0000016    0.0000005     0.0000013   -0.0000023     0.0161086    0.0025916 
   0.218989100     0.0087726   -0.0955928     0.0000012    0.0000001     0.0000011   -0.0000018     0.0139154    0.0038927 
   0.220989000     0.0076873   -0.0949835     0.0000026   -0.0000004     0.0000018   -0.0000034     0.0120619    0.0057047 
   0.222988900     0.0068962   -0.0941297     0.0000000   -0.0000013     0.0000000   -0.0000029     0.0107044    0.0079432 
   0.224988800     0.0064346   -0.0930790     0.0000002   -0.0000016     0.0000004   -0.0000038     0.0099052    0.0105133 
   0.226988700     0.0063895   -0.0919867     0.0000007   -0.0000011     0.0000018   -0.0000031     0.0096830    0.0132844 
   0.228988600     0.0067572   -0.0909139    -0.0000004   -0.0000012    -0.0000002   -0.0000029     0.0100948    0.0161303 
   0.230988500     0.0075076   -0.0899992     0.0000007   -0.0000016     0.0000016   -0.0000036     0.0111919    0.0189384 
   0.232988400     0.0086383   -0.0892541    -0.0000006   -0.0000020     0.0000018   -0.0000038     0.0129384    0.0215702 
   0.234988300     0.0100578   -0.0889216     0.0000000   -0.0000020     0.0000003   -0.0000048     0.0153068    0.0238856 
   0.236988200     0.0116808   -0.0889938    -0.0000014   -0.0000013    -0.0000005   -0.0000050     0.0181963    0.0257889 
   0.238988100     0.0134570   -0.0895578    -0.0000014   -0.0000011    -0.0000012   -0.0000053     0.0215683    0.0271569 
   0.240988000     0.0152578   -0.0906292    -0.0000018   -0.0000004    -0.0000017   -0.0000060     0.0252679    0.0279060 
   0.242987900     0.0169802   -0.0922433    -0.0000024   -0.0000012    -0.0000025   -0.0000051     0.0291482    0.0279843 
   0.244987800     0.0185361   -0.0943814    -0.0000022   -0.0000031     0.0000000   -0.0000062     0.0331195    0.0273383 
   0.246987700     0.0197289   -0.0970368    -0.0000029   -0.0000008    -0.0000015   -0.0000049     0.0370776    0.0259339 
   0.248987600     0.0204550   -0.1001267    -0.0000024   -0.0000021    -0.0000016   -0.0000052     0.0408155    0.0238357 
   0.250987500     0.0206482   -0.1035529    -0.0000027    0.0000001    -0.0000015   -0.0000044     0.0442822    0.0210413 
   0.252987400     0.0202221   -0.1072615    -0.0000018   -0.0000011    -0.0000005   -0.0000046     0.0473439    0.0176118 
   0.254987300     0.0191981   -0.1111248    -0.0000011   -0.0000001    -0.0000003   -0.0000041     0.0497903    0.0136525 
   0.256987200     0.0174891   -0.1150090    -0.0000012   -0.0000013    -0.0000015   -0.0000042     0.0516245    0.0092348 
   0.258987100     0.0150655   -0.1189247    -0.0000004    0.0000004    -0.0000002   -0.0000057     0.0526931    0.0045177 
   0.260987000     0.0119421   -0.1224601    -0.0000001   -0.0000002    -0.0000006   -0.0000056     0.0529867   -0.0003872 
   0.262986900     0.0081135   -0.1255956    -0.0000012    0.0000016    -0.0000008   -0.0000058     0.0524663   -0.0053645 
   0.264986800     0.0036912   -0.1282986    -0.0000009    0.0000005    -0.0000010   -0.0000049     0.0511098   -0.0101977 
   0.266986700    -0.0012925   -0.1305729    -0.0000004    0.0000005    -0.0000006   -0.0000047     0.0489858   -0.0148207 
   0.268986600    -0.0066164   -0.1319326    -0.0000022    0.0000013    -0.0000001   -0.0000058     0.0461005   -0.0190458 
   0.270986500    -0.0120655   -0.1324858    -0.0000002    0.0000016     0.0000002   -0.0000045     0.0425287   -0.0228140 
   0.272986400    -0.0176523   -0.1323117    -0.0000002    0.0000002    -0.0000010   -0.0000059     0.0383760   -0.0259520 
   0.274986300    -0.0232109   -0.1312326    -0.0000004    0.0000001    -0.0000015   -0.0000050     0.0338211   -0.0282983 
   0.276986200    -0.0285855   -0.1294508    -0.0000001    0.0000025    -0.0000005   -0.0000070     0.0289113   -0.0298693 
   0.278986100    -0.0337870   -0.1269097    -0.0000009    0.0000012    -0.0000012   -0.0000062     0.0239078   -0.0305989 
   0.280986000    -0.0385026   -0.1237163     0.0000004    0.0000002    -0.0000001   -0.0000062     0.0189088   -0.0304792 
   0.282985900    -0.0425883   -0.1198657    -0.0000024    0.0000009    -0.0000010   -0.0000051     0.0140755   -0.0294529 
   0.284985800    -0.0459353   -0.1155813     0.0000004   -0.0000005    -0.0000009   -0.0000070     0.0095672   -0.0276455 
   0.286985700    -0.0485221   -0.1109608    -0.0000007    0.0000001    -0.0000011   -0.0000077     0.0055143   -0.0251060 
   0.288985600    -0.0502492   -0.1062566     0.0000003   -0.0000021    -0.0000010   -0.0000064     0.0020478   -0.0219152 
   0.290985500    -0.0510792   -0.1016241    -0.0000003   -0.0000019    -0.0000030   -0.0000078    -0.0007531   -0.0182052 
   0.292985400    -0.0510687   -0.0972677     0.0000001   -0.0000017    -0.0000019   -0.0000074    -0.0027553   -0.0141033 
   0.294985300    -0.0503319   -0.0932289     0.0000003   -0.0000021    -0.0000023   -0.0000057    -0.0039539   -0.0098107 
   0.296985200    -0.0489115   -0.0896474    -0.0000005   -0.0000033    -0.0000032   -0.0000070    -0.0042553   -0.0054005 
   0.298985100    -0.0470799   -0.0866111    -0.0000019   -0.0000013    -0.0000049   -0.0000068    -0.0037327   -0.0011378 
   0.300985000    -0.0447916   -0.0843473    -0.0000037   -0.0000013    -0.0000051   -0.0000064    -0.0023722    0.0028950 
   0.302984900    -0.0423549   -0.0830479    -0.0000040   -0.0000024    -0.0000064   -0.0000068    -0.0003043    0.0064869 
   0.304984800    -0.0399066   -0.0826986    -0.0000047   -0.0000014    -0.0000056   -0.0000045     0.0024681    0.0095522 
   0.306984700    -0.0376353   -0.0833506    -0.0000027   -0.0000008    -0.0000064   -0.0000022     0.0057543    0.0119454 
   0.308984600    -0.0358523   -0.0849314    -0.0000029    0.0000031    -0.0000074   -0.0000026     0.0094795    0.0135734 
   0.310984500    -0.0346937   -0.0874040    -0.0000031    0.0000031    -0.0000058   -0.0000002     0.0134115    0.0144044 
   0.312984400    -0.0344891   -0.0905703    -0.0000004    0.0000023    -0.0000055   -0.0000005     0.0174578    0.0143457 
   0.314984300    -0.0354257   -0.0942444    -0.0000009    0.0000027    -0.0000051    0.0000007     0.0214036    0.0134027 
