! MS46122B
! 2250307/22442219
! 2/20/2026 8:53:12 AM
! C:\USERS\SPARKY\DOCUMENTS\VNA_DATA\FEB20_2026\OPEN.S2P
! CHANNEL.1
! TR.MEASUREMENT
! RAW.DATA
# GHZ S RI R 50.0
! FREQ.GHZ         S11RE         S11IM         S21RE         S21IM         S12RE         S12IM         S22RE         S22IM         
!; PortSelection: Port_12
   0.001000000     1.0467180   -0.0661295    -0.0000069    0.0000050     0.0000033   -0.0000044     0.7982950   -0.5578822 
   0.002999900     0.9573606   -0.2054085    -0.0000013    0.0000013    -0.0000051   -0.0000067     0.0190134   -0.8501061 
   0.004999800     0.7586752   -0.4440141    -0.0000026    0.0000022    -0.0000016   -0.0000048    -0.7310255   -0.4032261 
   0.006999700     0.9577057    0.1150264    -0.0000030    0.0000005    -0.0000021    0.0000010    -0.7713248    0.4996597 
   0.008999600     0.9398603   -0.1946559     0.0000006   -0.0000009    -0.0000017   -0.0000017    -0.0440963    0.9791572 
   0.010999500     0.8945723   -0.3111855     0.0000003    0.0000031     0.0000012    0.0000008     0.6512321    0.7307392 
   0.012999400     0.8505181   -0.3982228     0.0000018    0.0000009    -0.0000027   -0.0000002     0.9298139    0.2156513 
   0.014999300     0.8056426   -0.4738910    -0.0000015    0.0000006    -0.0000013    0.0000017     0.9009376   -0.2508152 
   0.016999200     0.7572984   -0.5434309     0.0000017   -0.0000001     0.0000028    0.0000014     0.7150988   -0.5887237 
   0.018999100     0.7042725   -0.6084762     0.0000009    0.0000014    -0.0000002    0.0000003     0.4620662   -0.8007543 
   0.020999000     0.6455297   -0.6686906     0.0000019   -0.0000006    -0.0000027   -0.0000015     0.1914397   -0.9064304 
   0.022998900     0.5795636   -0.7239819    -0.0000001   -0.0000005    -0.0000011   -0.0000033    -0.0702402   -0.9263207 
   0.024998800     0.5015793   -0.7380621    -0.0000007   -0.0000005    -0.0000043   -0.0000028    -0.3111334   -0.9488842 
   0.026998700     0.4214044   -0.8165424     0.0000005    0.0000010    -0.0000020   -0.0000008    -0.5070131   -0.7791421 
   0.028998600     0.3272597   -0.8503984    -0.0000016   -0.0000014    -0.0000023   -0.0000020    -0.6684615   -0.6425393 
   0.030998500     0.2218435   -0.8729573     0.0000016    0.0000011    -0.0000065   -0.0000025    -0.7883024   -0.4816183 
   0.032998400     0.1165371   -0.8502317    -0.0000006   -0.0000002    -0.0000030   -0.0000009    -0.9247769   -0.3424545 
   0.034998300    -0.0220486   -0.8710038     0.0000014   -0.0000035    -0.0000017   -0.0000014    -0.9060508   -0.1260834 
   0.036998200    -0.1585845   -0.8363094     0.0000016   -0.0000023    -0.0000008   -0.0000008    -0.9098412    0.0519237 
   0.038998100    -0.3009405   -0.7718513    -0.0000009    0.0000006    -0.0000020   -0.0000024    -0.8808633    0.2223938 
   0.040998000    -0.4426531   -0.6697112     0.0000002   -0.0000016     0.0000004    0.0000006    -0.8227779    0.3812399 
   0.042997900    -0.5722323   -0.5238862    -0.0000045    0.0000000    -0.0000029    0.0000006    -0.7396224    0.5248008 
   0.044997800    -0.6471893   -0.3306241    -0.0000014   -0.0000003    -0.0000019    0.0000009    -0.6925251    0.6928458 
   0.046997700    -0.7223195   -0.0868865    -0.0000013    0.0000025     0.0000020    0.0000018    -0.5095503    0.7535813 
   0.048997600    -0.6916018    0.1840062    -0.0000026    0.0000026     0.0000006    0.0000027    -0.3686227    0.8338235 
   0.050997500    -0.5619498    0.4479385    -0.0000099   -0.0000090     0.0000105   -0.0000026    -0.2174822    0.8881510 
   0.052997400    -0.3325356    0.6591218    -0.0000070   -0.0000050     0.0000010    0.0000014    -0.0564982    0.9148120 
   0.054997300    -0.0390332    0.7700801    -0.0000023    0.0000002     0.0000009   -0.0000012     0.1053921    0.9128010 
   0.056997200     0.2646839    0.7645281     0.0000012    0.0000002    -0.0000014    0.0000025     0.2663016    0.8810373 
   0.058997100     0.5287796    0.6593155    -0.0000010   -0.0000004    -0.0000009    0.0000013     0.4197147    0.8204937 
   0.060997000     0.7251996    0.4896759     0.0000023   -0.0000004    -0.0000028   -0.0000006     0.5610629    0.7321143 
   0.062996900     0.8491119    0.2917616     0.0000005    0.0000018     0.0000017    0.0000030     0.6852103    0.6183747 
   0.064996800     0.9093812    0.0916323     0.0000021    0.0000001     0.0000041    0.0000003     0.7877886    0.4815842 
   0.066996700     0.9194497   -0.0961044     0.0000019   -0.0000003     0.0000001    0.0000005     0.8640662    0.3270923 
   0.068996600     0.8928593   -0.2644569    -0.0000008   -0.0000012     0.0000010   -0.0000001     0.9105322    0.1588816 
   0.070996500     0.8401089   -0.4113604     0.0000028   -0.0000006     0.0000008   -0.0000008     0.9245367   -0.0170391 
   0.072996400     0.7676398   -0.5363533    -0.0000004   -0.0000002     0.0000007   -0.0000006     0.9044409   -0.1950760 
   0.074996300     0.6811010   -0.6408939    -0.0000002   -0.0000033     0.0000006   -0.0000028     0.8500426   -0.3669733 
   0.076996200     0.5849570   -0.7262621    -0.0000029   -0.0000009     0.0000010   -0.0000038     0.7621750   -0.5264324 
   0.078996100     0.4818417   -0.7940969     0.0000007    0.0000003    -0.0000026   -0.0000017     0.6436736   -0.6662627 
   0.080996000     0.3737877   -0.8449053    -0.0000014   -0.0000006     0.0000004   -0.0000005     0.4988682   -0.7807623 
   0.082995900     0.2612914   -0.8799771     0.0000016   -0.0000029    -0.0000002   -0.0000027     0.3338840   -0.8639494 
   0.084995800     0.1470432   -0.8983467    -0.0000011   -0.0000025    -0.0000041   -0.0000021     0.1554619   -0.9123921 
   0.086995700     0.0317731   -0.9024132    -0.0000008   -0.0000025    -0.0000023   -0.0000042    -0.0290303   -0.9242694 
   0.088995600    -0.0843075   -0.8907468    -0.0000022   -0.0000043    -0.0000035   -0.0000017    -0.2114343   -0.8996849 
   0.090995500    -0.1993097   -0.8635985    -0.0000043   -0.0000024    -0.0000040   -0.0000019    -0.3843671   -0.8390870 
   0.092995400    -0.3126699   -0.8213505    -0.0000041    0.0000015    -0.0000048    0.0000016    -0.5409041   -0.7461997 
   0.094995300    -0.4214565   -0.7605364    -0.0000026    0.0000020    -0.0000039    0.0000006    -0.6757979   -0.6260864 
   0.096995200    -0.5244467   -0.6812748    -0.0000017    0.0000013    -0.0000027    0.0000027    -0.7835490   -0.4829588 
   0.098995100    -0.6179451   -0.5839274     0.0000039    0.0000007    -0.0000042   -0.0000011    -0.8610016   -0.3233717 
   0.100995000    -0.7013154   -0.4653563    -0.0000048    0.0000019    -0.0000046    0.0000035    -0.9074089   -0.1520273 
   0.102994900    -0.7642154   -0.3292978    -0.0000001    0.0000059    -0.0000018    0.0000069    -0.9193858    0.0216496 
   0.104994800    -0.8049064   -0.1752912     0.0000025    0.0000031     0.0000024    0.0000034    -0.8990318    0.1928708 
   0.106994700    -0.8158599   -0.0069225     0.0000017    0.0000016     0.0000022    0.0000019    -0.8476774    0.3556920 
   0.108994600    -0.7919560    0.1707132     0.0000016    0.0000007     0.0000019    0.0000013    -0.7680832    0.5049007 
   0.110994500    -0.7275043    0.3495409     0.0000017   -0.0000013     0.0000014    0.0000003    -0.6634861    0.6360372 
   0.112994400    -0.6186628    0.5180366     0.0000027    0.0000003     0.0000025    0.0000001    -0.5377046    0.7451273 
   0.114994300    -0.4657876    0.6625604     0.0000030   -0.0000014     0.0000039   -0.0000016    -0.3956280    0.8294328 
   0.116994200    -0.2749413    0.7688668     0.0000031   -0.0000017     0.0000016   -0.0000005    -0.2414777    0.8862774 
   0.118994100    -0.0575066    0.8245625     0.0000025    0.0000003     0.0000019   -0.0000007    -0.0803484    0.9147661 
   0.120994000     0.1697922    0.8231659     0.0000018   -0.0000011     0.0000021   -0.0000025     0.0824399    0.9140821 
   0.122993900     0.3884479    0.7609047     0.0000017   -0.0000018     0.0000022   -0.0000023     0.2421916    0.8846734 
   0.124993800     0.5802413    0.6459682     0.0000001   -0.0000029     0.0000005   -0.0000034     0.3943480    0.8274798 
   0.126993700     0.7321098    0.4901908    -0.0000002   -0.0000016     0.0000002   -0.0000031     0.5337878    0.7446919 
   0.128993600     0.8354530    0.3084956     0.0000003   -0.0000009     0.0000004   -0.0000032     0.6566946    0.6382636 
   0.130993500     0.8918913    0.1175544     0.0000003   -0.0000005    -0.0000001   -0.0000036     0.7586090    0.5113432 
   0.132993400     0.9031920   -0.0712697    -0.0000021   -0.0000008    -0.0000004   -0.0000034     0.8368238    0.3678901 
   0.134993300     0.8757008   -0.2489331    -0.0000010   -0.0000001     0.0000002   -0.0000023     0.8881455    0.2123133 
   0.136993200     0.8162069   -0.4081619    -0.0000013   -0.0000014     0.0000002   -0.0000038     0.9108412    0.0494186 
   0.138993100     0.7317684   -0.5459851    -0.0000013    0.0000013    -0.0000003   -0.0000038     0.9034814   -0.1156483 
   0.140993000     0.6284553   -0.6603931    -0.0000010   -0.0000013    -0.0000012   -0.0000020     0.8662856   -0.2774449 
   0.142992900     0.5119256   -0.7511126    -0.0000013    0.0000022    -0.0000023   -0.0000033     0.8000261   -0.4305001 
   0.144992800     0.3874278   -0.8194467    -0.0000025   -0.0000001    -0.0000031   -0.0000022     0.7055547   -0.5688793 
   0.146992700     0.2572856   -0.8641586    -0.0000016    0.0000007    -0.0000034   -0.0000025     0.5873242   -0.6882932 
   0.148992600     0.1246759   -0.8874313    -0.0000007    0.0000004    -0.0000021   -0.0000015     0.4484141   -0.7840400 
   0.150992500    -0.0073724   -0.8890342    -0.0000010    0.0000006    -0.0000030   -0.0000017     0.2942349   -0.8530693 
   0.152992400    -0.1363858   -0.8721954    -0.0000010    0.0000014    -0.0000029   -0.0000005     0.1289861   -0.8916887 
   0.154992300    -0.2608482   -0.8363283    -0.0000007    0.0000014    -0.0000024   -0.0000007    -0.0409852   -0.8987538 
   0.156992200    -0.3786889   -0.7820599     0.0000000    0.0000014    -0.0000032    0.0000002    -0.2093034   -0.8737718 
   0.158992100    -0.4878507   -0.7101306    -0.0000007    0.0000011    -0.0000029    0.0000000    -0.3700359   -0.8176365 
   0.160992000    -0.5862290   -0.6218151    -0.0000010    0.0000004    -0.0000020    0.0000007    -0.5174067   -0.7323174 
   0.162991900    -0.6712229   -0.5174325    -0.0000004    0.0000010    -0.0000016    0.0000021    -0.6457651   -0.6210181 
   0.164991800    -0.7408115   -0.3979260    -0.0000005   -0.0000010    -0.0000030    0.0000015    -0.7510375   -0.4881153 
   0.166991700    -0.7914855   -0.2653995     0.0000011    0.0000005    -0.0000014    0.0000016    -0.8292031   -0.3384236 
   0.168991600    -0.8203088   -0.1215954     0.0000004   -0.0000006    -0.0000017    0.0000034    -0.8780663   -0.1770557 
   0.170991500    -0.8245848    0.0302151     0.0000008    0.0000006    -0.0000013    0.0000014    -0.8961891   -0.0101559 
   0.172991400    -0.8003767    0.1860367     0.0000007    0.0000014    -0.0000002    0.0000020    -0.8831293    0.1564948 
   0.174991300    -0.7464753    0.3405158     0.0000010   -0.0000007     0.0000009    0.0000030    -0.8400558    0.3171462 
   0.176991200    -0.6601161    0.4875216    -0.0000005    0.0000004     0.0000008    0.0000022    -0.7684519    0.4666804 
   0.178991100    -0.5418187    0.6195931     0.0000011   -0.0000005     0.0000036    0.0000009    -0.6713102    0.6003343 
   0.180991000    -0.3939548    0.7289766     0.0000004   -0.0000020     0.0000027    0.0000007    -0.5520076    0.7134289 
   0.182990900    -0.2206766    0.8058338    -0.0000006   -0.0000009     0.0000031    0.0000004    -0.4145772    0.8028393 
   0.184990800    -0.0298498    0.8436691    -0.0000003   -0.0000033     0.0000027   -0.0000010    -0.2636770    0.8661470 
   0.186990700     0.1687296    0.8373203     0.0000012   -0.0000025     0.0000025   -0.0000029    -0.1043782    0.9012560 
   0.188990600     0.3396866    0.7951025    -0.0000025   -0.0000027     0.0000009   -0.0000042     0.0332397    0.9091126 
   0.190990500     0.5367524    0.6921434    -0.0000012   -0.0000013     0.0000012   -0.0000027     0.2162503    0.8847753 
   0.192990400     0.6895964    0.5571902    -0.0000007   -0.0000026     0.0000001   -0.0000037     0.3740734    0.8322319 
   0.194990300     0.8047248    0.3955480    -0.0000033    0.0000001     0.0000004   -0.0000034     0.5170704    0.7538302 
   0.196990200     0.8790118    0.2164497    -0.0000038   -0.0000016    -0.0000003   -0.0000052     0.6439641    0.6509047 
   0.198990100     0.9112214    0.0298507    -0.0000024   -0.0000002    -0.0000005   -0.0000067     0.7502496    0.5264295 
   0.200990000     0.9032757   -0.1540717    -0.0000019    0.0000009    -0.0000016   -0.0000045     0.8327956    0.3844471 
   0.202989900     0.8590744   -0.3268197    -0.0000028    0.0000016    -0.0000020   -0.0000059     0.8887484    0.2292557 
   0.204989800     0.7833739   -0.4818177    -0.0000035    0.0000020    -0.0000038   -0.0000044     0.9154246    0.0659598 
   0.206989700     0.6839631   -0.6150578    -0.0000039    0.0000022    -0.0000046   -0.0000044     0.9120503   -0.1001216 
   0.208989600     0.5640444   -0.7231405    -0.0000030    0.0000045    -0.0000044   -0.0000022     0.8781318   -0.2635446 
   0.210989500     0.4307060   -0.8051808    -0.0000010    0.0000054    -0.0000047    0.0000006     0.8142589   -0.4187255 
   0.212989400     0.2883101   -0.8608176     0.0000010    0.0000054    -0.0000016    0.0000009     0.7226115   -0.5601024 
   0.214989300     0.1420555   -0.8902886     0.0000032    0.0000033    -0.0000004   -0.0000010     0.6055287   -0.6823483 
   0.216989200    -0.0039455   -0.8946126     0.0000024    0.0000011    -0.0000012   -0.0000010     0.4670295   -0.7807938 
   0.218989100    -0.1464065   -0.8747681     0.0000050   -0.0000009    -0.0000004   -0.0000022     0.3121408   -0.8521049 
   0.220989000    -0.2825883   -0.8317847     0.0000045   -0.0000012     0.0000008   -0.0000025     0.1461062   -0.8928394 
   0.222988900    -0.4091935   -0.7671828     0.0000033   -0.0000012    -0.0000015   -0.0000020    -0.0251353   -0.9014134 
   0.224988800    -0.5238398   -0.6826219     0.0000017   -0.0000026    -0.0000017   -0.0000022    -0.1953471   -0.8771904 
   0.226988700    -0.6236779   -0.5796340     0.0000018   -0.0000038    -0.0000023   -0.0000009    -0.3576770   -0.8209659 
   0.228988600    -0.7052710   -0.4605931     0.0000020   -0.0000032    -0.0000005   -0.0000002    -0.5065075   -0.7347718 
   0.230988500    -0.7666015   -0.3275818     0.0000002   -0.0000032    -0.0000005   -0.0000015    -0.6358841   -0.6218193 
   0.232988400    -0.8035648   -0.1822927     0.0000007   -0.0000027     0.0000008   -0.0000012    -0.7412243   -0.4863013 
   0.234988300    -0.8158555   -0.0295180    -0.0000006   -0.0000037     0.0000003   -0.0000021    -0.8182481   -0.3337950 
   0.236988200    -0.7998098    0.1267093    -0.0000014   -0.0000027     0.0000015   -0.0000017    -0.8645955   -0.1699835 
   0.238988100    -0.7535072    0.2819395    -0.0000014   -0.0000029     0.0000020   -0.0000007    -0.8789577   -0.0011088 
   0.240988000    -0.6762080    0.4291501    -0.0000027   -0.0000009     0.0000019   -0.0000017    -0.8611255    0.1660174 
   0.242987900    -0.5685572    0.5618004    -0.0000023   -0.0000021     0.0000017   -0.0000015    -0.8125929    0.3256946 
   0.244987800    -0.4324730    0.6726123    -0.0000037   -0.0000010     0.0000029   -0.0000030    -0.7357163    0.4723976 
   0.246987700    -0.2714927    0.7553417    -0.0000058   -0.0000012     0.0000037   -0.0000045    -0.6338811    0.6015589 
   0.248987600    -0.0925336    0.8024985    -0.0000029   -0.0000021     0.0000045   -0.0000053    -0.5109438    0.7087498 
   0.250987500     0.0960018    0.8095242    -0.0000052    0.0000001     0.0000028   -0.0000070    -0.3717114    0.7911751 
   0.252987400     0.2841870    0.7741113    -0.0000049    0.0000010     0.0000032   -0.0000089    -0.2208703    0.8468727 
   0.254987300     0.4597393    0.6968709    -0.0000029    0.0000008     0.0000029   -0.0000087    -0.0634099    0.8743927 
   0.256987200     0.6138200    0.5824587    -0.0000021    0.0000019     0.0000011   -0.0000121     0.0954745    0.8731591 
   0.258987100     0.7382884    0.4379438    -0.0000022    0.0000020    -0.0000022   -0.0000107     0.2509431    0.8440104 
   0.260987000     0.8257679    0.2710692    -0.0000033    0.0000025    -0.0000051   -0.0000114     0.3984763    0.7879836 
   0.262986900     0.8737770    0.0918227    -0.0000028    0.0000018    -0.0000064   -0.0000116     0.5334448    0.7069952 
   0.264986800     0.8825760   -0.0894811    -0.0000006    0.0000030    -0.0000081   -0.0000075     0.6520070    0.6037127 
   0.266986700     0.8539530   -0.2637683     0.0000009    0.0000022    -0.0000073   -0.0000048     0.7506104    0.4810972 
   0.268986600     0.7926949   -0.4237948     0.0000002    0.0000019    -0.0000076   -0.0000017     0.8262426    0.3430785 
   0.270986500     0.7036998   -0.5635492     0.0000011    0.0000009    -0.0000051    0.0000009     0.8764242    0.1931633 
   0.272986400     0.5936687   -0.6806057     0.0000011    0.0000016    -0.0000015    0.0000008     0.8995271    0.0362818 
   0.274986300     0.4679825   -0.7724795     0.0000018   -0.0000009     0.0000020    0.0000003     0.8942703   -0.1230148 
   0.276986200     0.3315524   -0.8384382     0.0000015   -0.0000013     0.0000052   -0.0000047     0.8600782   -0.2795171 
   0.278986100     0.1890300   -0.8789178     0.0000017   -0.0000012     0.0000046   -0.0000065     0.7986921   -0.4284699 
   0.280986000     0.0446791   -0.8941820     0.0000020   -0.0000013     0.0000047   -0.0000077     0.7108439   -0.5645971 
   0.282985900    -0.0974866   -0.8853738     0.0000008   -0.0000029    -0.0000004   -0.0000105     0.5988823   -0.6835586 
   0.284985800    -0.2342703   -0.8536187     0.0000018   -0.0000017    -0.0000027   -0.0000124     0.4662433   -0.7804407 
   0.286985700    -0.3630234   -0.8005438     0.0000000   -0.0000039    -0.0000032   -0.0000089     0.3172747   -0.8519235 
   0.288985600    -0.4799802   -0.7283704    -0.0000001   -0.0000021    -0.0000048   -0.0000106     0.1564979   -0.8947130 
   0.290985500    -0.5834159   -0.6387935    -0.0000006   -0.0000037    -0.0000070   -0.0000083    -0.0101600   -0.9070683 
   0.292985400    -0.6715438   -0.5335850    -0.0000019   -0.0000026    -0.0000085   -0.0000074    -0.1772680   -0.8878186 
   0.294985300    -0.7418303   -0.4145833    -0.0000013   -0.0000036    -0.0000068   -0.0000064    -0.3381693   -0.8372461 
   0.296985200    -0.7928299   -0.2833024    -0.0000032   -0.0000028    -0.0000079   -0.0000030    -0.4871788   -0.7569274 
   0.298985100    -0.8213408   -0.1421909    -0.0000068   -0.0000026    -0.0000083   -0.0000031    -0.6183515   -0.6500435 
   0.300985000    -0.8253332    0.0053589    -0.0000059   -0.0000036    -0.0000089   -0.0000021    -0.7270817   -0.5199180 
   0.302984900    -0.8021796    0.1549091    -0.0000073   -0.0000010    -0.0000078    0.0000000    -0.8087853   -0.3720531 
   0.304984800    -0.7505859    0.3018794    -0.0000067    0.0000020    -0.0000075    0.0000030    -0.8609796   -0.2114530 
   0.306984700    -0.6687185    0.4397721    -0.0000059    0.0000032    -0.0000067    0.0000042    -0.8819712   -0.0446597 
   0.308984600    -0.5579697    0.5618651    -0.0000057    0.0000048    -0.0000026    0.0000041    -0.8710651    0.1226267 
   0.310984500    -0.4202783    0.6605995    -0.0000041    0.0000064    -0.0000010    0.0000046    -0.8291337    0.2839895 
   0.312984400    -0.2596854    0.7285720    -0.0000001    0.0000051     0.0000008    0.0000045    -0.7579753    0.4338320 
   0.314984300    -0.0843977    0.7584361     0.0000012    0.0000046     0.0000028    0.0000033    -0.6608397    0.5668526 
