! MS46122B
! 2250307/22442219
! 2/20/2026 8:59:14 AM
! C:\USERS\SPARKY\DOCUMENTS\VNA_DATA\FEB20_2026\PORT6.S2P
! CHANNEL.1
! TR.MEASUREMENT
! RAW.DATA
# GHZ S RI R 50.0
! FREQ.GHZ         S11RE         S11IM         S21RE         S21IM         S12RE         S12IM         S22RE         S22IM         
!; PortSelection: Port_12
   0.001000000     1.0466030   -0.0658507    -0.0003101   -0.0009361    -0.0002599   -0.0009434     0.7998638   -0.5564314 
   0.002999900     0.9627617   -0.1917568    -0.0202254   -0.0140479    -0.0210868   -0.0144256     0.0535564   -0.8513052 
   0.004999800     0.8810560   -0.3107254    -0.1189207    0.0016400    -0.1246656    0.0046636    -0.6943107   -0.4304219 
   0.006999700     0.7159059   -0.3888123    -0.2326237    0.2850875    -0.2259590    0.3052822    -0.4164405    0.6534044 
   0.008999600     0.6354739   -0.2984031     0.2291562    0.5060813     0.2411933    0.5053059     0.5438464   -0.0361735 
   0.010999500     0.6671931   -0.3188587     0.4760466    0.2319863     0.4898617    0.2343249     0.0011068   -0.5466145 
   0.012999400     0.6502821   -0.3836055     0.5071997    0.0170412     0.5244647    0.0105362    -0.4269365   -0.4139724 
   0.014999300     0.6052907   -0.4430616     0.4874062   -0.1432571     0.5006297   -0.1594138    -0.6043489   -0.1342560 
   0.016999200     0.5462606   -0.4902546     0.4426722   -0.2805730     0.4457732   -0.3013677    -0.6020560    0.1441822 
   0.018999100     0.4783524   -0.5225068     0.3723697   -0.4056339     0.3651390   -0.4246218    -0.4774376    0.3624273 
   0.020999000     0.4045310   -0.5370780     0.2720141   -0.5173665     0.2568103   -0.5291752    -0.2785932    0.4899477 
   0.022998900     0.3318332   -0.5315098     0.1372592   -0.6081292     0.1199226   -0.6092670    -0.0532426    0.5129959 
   0.024998800     0.2657293   -0.4832566     0.0008842   -0.6907988    -0.0519089   -0.6554645     0.1587079    0.4738069 
   0.026998700     0.2177309   -0.4630294    -0.2219248   -0.6662473    -0.2257499   -0.6534758     0.2893995    0.2771855 
   0.028998600     0.1899139   -0.4120640    -0.4152859   -0.6051988    -0.4110426   -0.5953277     0.3335292    0.0821051 
   0.030998500     0.1848091   -0.3638010    -0.5844989   -0.4811673    -0.5764168   -0.4774010     0.2781660   -0.0988999 
   0.032998400     0.1945653   -0.3134916    -0.7181925   -0.3557637    -0.7048979   -0.3020170     0.1655225   -0.2301392 
   0.034998300     0.2154006   -0.3105279    -0.7662945   -0.1103759    -0.7648839   -0.1132408    -0.0155437   -0.2513110 
   0.036998200     0.2312498   -0.3087699    -0.7675573    0.0888507    -0.7682418    0.0894391    -0.1613973   -0.2001673 
   0.038998100     0.2381975   -0.3167365    -0.7193628    0.2727840    -0.7191731    0.2773367    -0.2565130   -0.0932246 
   0.040998000     0.2359473   -0.3294670    -0.6315624    0.4348829    -0.6270681    0.4405903    -0.2907609    0.0386197 
   0.042997900     0.2236628   -0.3421247    -0.5120885    0.5679694    -0.5021698    0.5721048    -0.2629580    0.1673009 
   0.044997800     0.2017232   -0.3351241    -0.4174791    0.6775094    -0.3490647    0.6745483    -0.2006871    0.2888408 
   0.046997700     0.1786661   -0.3517050    -0.2092859    0.7375569    -0.1971063    0.7313432    -0.0730792    0.3247010 
   0.048997600     0.1544317   -0.3452025    -0.0383241    0.7701967    -0.0297636    0.7588071     0.0489733    0.3299952 
   0.050997500     0.1344054   -0.3315743     0.1368553    0.7643536     0.1375803    0.7510507     0.1611002    0.2856328 
   0.052997400     0.1192258   -0.3145399     0.3107750    0.7184654     0.3042034    0.7068731     0.2450320    0.1999913 
   0.054997300     0.1122122   -0.2962557     0.4684279    0.6342487     0.4598275    0.6258186     0.2861998    0.0894703 
   0.056997200     0.1125613   -0.2806490     0.6034584    0.5137391     0.5947551    0.5090424     0.2792854   -0.0265396 
   0.058997100     0.1181293   -0.2708599     0.7073234    0.3631739     0.6993889    0.3626123     0.2271417   -0.1283693 
   0.060997000     0.1256247   -0.2684696     0.7718853    0.1924567     0.7661438    0.1935833     0.1407133   -0.1982943 
   0.062996900     0.1313939   -0.2733431     0.7936773    0.0127351     0.7906574    0.0137701     0.0365326   -0.2264295 
   0.064996800     0.1323427   -0.2837368     0.7736914   -0.1650059     0.7712249   -0.1649374    -0.0658078   -0.2102892 
   0.066996700     0.1266150   -0.2968274     0.7151035   -0.3308168     0.7108452   -0.3316449    -0.1489826   -0.1563316 
   0.068996600     0.1134155   -0.3094237     0.6227265   -0.4770754     0.6166762   -0.4769426    -0.2004975   -0.0768215 
   0.070996500     0.0944092   -0.3188106     0.5033273   -0.5993271     0.4958619   -0.5963748    -0.2143507    0.0124248 
   0.072996400     0.0710138   -0.3220395     0.3624744   -0.6925140     0.3548666   -0.6855660    -0.1919101    0.0954819 
   0.074996300     0.0459233   -0.3183383     0.2060315   -0.7538170     0.2010387   -0.7430283    -0.1399116    0.1596241 
   0.076996200     0.0221125   -0.3070733     0.0403099   -0.7818221     0.0398287   -0.7690446    -0.0691954    0.1956320 
   0.078996100     0.0021637   -0.2893518    -0.1282935   -0.7751597    -0.1232357   -0.7619526     0.0076824    0.1996787 
   0.080996000    -0.0120565   -0.2670072    -0.2931813   -0.7324399    -0.2833404   -0.7215514     0.0771009    0.1727351 
   0.082995900    -0.0189626   -0.2425694    -0.4467314   -0.6544318    -0.4338155   -0.6485472     0.1281824    0.1207780 
   0.084995800    -0.0178116   -0.2186440    -0.5804245   -0.5442697    -0.5666602   -0.5435462     0.1520293    0.0540536 
   0.086995700    -0.0105289   -0.1986869    -0.6876550   -0.4059181    -0.6751805   -0.4093566     0.1454936   -0.0153632 
   0.088995600     0.0010788   -0.1844348    -0.7617592   -0.2462139    -0.7520661   -0.2529252     0.1105219   -0.0745730 
   0.090995500     0.0143504   -0.1769516    -0.7983788   -0.0734588    -0.7915311   -0.0812757     0.0541925   -0.1124391 
   0.092995400     0.0263859   -0.1759543    -0.7958936    0.1028820    -0.7904714    0.0953276    -0.0126393   -0.1224974 
   0.094995300     0.0349871   -0.1796533    -0.7532596    0.2729555    -0.7491353    0.2663790    -0.0772436   -0.1030073 
   0.096995200     0.0387784   -0.1861109    -0.6750053    0.4288792    -0.6708863    0.4224544    -0.1272035   -0.0579457 
   0.098995100     0.0375377   -0.1928834    -0.5657938    0.5630298    -0.5615763    0.5553283    -0.1535843    0.0036094 
   0.100995000     0.0302464   -0.1989941    -0.4291693    0.6716197    -0.4265909    0.6615382    -0.1513891    0.0717476 
   0.102994900     0.0217939   -0.2004972    -0.2754924    0.7463998    -0.2755231    0.7347537    -0.1226021    0.1318882 
   0.104994800     0.0124360   -0.1980422    -0.1100676    0.7870086    -0.1136758    0.7747745    -0.0720774    0.1752837 
   0.106994700     0.0038752   -0.1917114     0.0598790    0.7918020     0.0523002    0.7808969    -0.0089465    0.1951192 
   0.108994600    -0.0019858   -0.1826761     0.2271284    0.7611561     0.2160716    0.7531477     0.0563911    0.1884726 
   0.110994500    -0.0043554   -0.1722328     0.3842856    0.6955330     0.3713100    0.6916882     0.1137080    0.1569805 
   0.112994400    -0.0030270   -0.1620921     0.5247114    0.5980459     0.5113323    0.5987819     0.1535838    0.1065417 
   0.114994300     0.0014883   -0.1537502     0.6411159    0.4723515     0.6293839    0.4767131     0.1701042    0.0453826 
   0.116994200     0.0080834   -0.1482508     0.7279614    0.3239679     0.7189190    0.3311360     0.1613365   -0.0163526 
   0.118994100     0.0152827   -0.1462916     0.7805757    0.1599736     0.7744818    0.1682704     0.1294975   -0.0681606 
   0.120994000     0.0218087   -0.1475232     0.7964094   -0.0110211     0.7928740   -0.0032508     0.0804903   -0.1019484 
   0.122993900     0.0259510   -0.1513084     0.7747403   -0.1813926     0.7724035   -0.1741456     0.0234297   -0.1122340 
   0.124993800     0.0273244   -0.1564343     0.7168801   -0.3424961     0.7150644   -0.3356259    -0.0315598   -0.0980766 
   0.126993700     0.0258307   -0.1614714     0.6262040   -0.4868104     0.6248022   -0.4792628    -0.0744191   -0.0627678 
   0.128993600     0.0218677   -0.1649975     0.5070022   -0.6077685     0.5068573   -0.5993068    -0.0977135   -0.0137025 
   0.130993500     0.0165565   -0.1666996     0.3655424   -0.7003106     0.3674399   -0.6907612    -0.0979312    0.0395708 
   0.132993400     0.0110133   -0.1661398     0.2085027   -0.7611964     0.2130635   -0.7512359    -0.0756700    0.0874699 
   0.134993300     0.0061324   -0.1636915     0.0421934   -0.7873597     0.0501521   -0.7783990    -0.0355175    0.1213381 
   0.136993200     0.0027217   -0.1599366    -0.1255642   -0.7778782    -0.1145723   -0.7713916     0.0153822    0.1353311 
   0.138993100     0.0011458   -0.1559955    -0.2877573   -0.7332109    -0.2748601   -0.7302539     0.0677881    0.1269233 
   0.140993000     0.0013385   -0.1528591    -0.4365305   -0.6551499    -0.4235875   -0.6562741     0.1126284    0.0976783 
   0.142992900     0.0024965   -0.1513607    -0.5655674   -0.5470172    -0.5538604   -0.5519708     0.1421549    0.0521702 
   0.144992800     0.0037584   -0.1519888    -0.6686584   -0.4139271    -0.6597144   -0.4217294     0.1510411   -0.0017496 
   0.146992700     0.0038612   -0.1543694    -0.7405673   -0.2620569    -0.7343022   -0.2709124     0.1379757   -0.0553300 
   0.148992600     0.0019033   -0.1580216    -0.7778112   -0.0985215    -0.7744404   -0.1075565     0.1047774   -0.0999279 
   0.150992500    -0.0025625   -0.1617555    -0.7789907    0.0683928    -0.7773733    0.0597534     0.0565923   -0.1281330 
   0.152992400    -0.0098602   -0.1648675    -0.7454875    0.2312523    -0.7445970    0.2232374     0.0011390   -0.1355019 
   0.154992300    -0.0193308   -0.1658231    -0.6785005    0.3823771    -0.6784026    0.3743492    -0.0526903   -0.1208254 
   0.156992200    -0.0302000   -0.1636626    -0.5815010    0.5156162    -0.5828170    0.5073327    -0.0962088   -0.0868953 
   0.158992100    -0.0412659   -0.1578388    -0.4597763    0.6254054    -0.4623976    0.6164898    -0.1229152   -0.0397077 
   0.160992000    -0.0510770   -0.1487446    -0.3180430    0.7072265    -0.3229389    0.6981696    -0.1293038    0.0130462 
   0.162991900    -0.0584221   -0.1367436    -0.1629525    0.7578729    -0.1704039    0.7498394    -0.1152078    0.0630629 
   0.164991800    -0.0623494   -0.1227050    -0.0003401    0.7753208    -0.0102448    0.7693511    -0.0839419    0.1024768 
   0.166991700    -0.0624498   -0.1083231     0.1624266    0.7588161     0.1508829    0.7554722    -0.0410676    0.1259162 
   0.168991600    -0.0587493   -0.0947561     0.3187887    0.7083063     0.3066835    0.7088610     0.0058225    0.1304583 
   0.170991500    -0.0519422   -0.0832111     0.4614213    0.6257966     0.4504444    0.6296046     0.0488957    0.1165674 
   0.172991400    -0.0429529   -0.0746220     0.5840663    0.5148486     0.5750185    0.5209758     0.0814347    0.0876215 
   0.174991300    -0.0331213   -0.0694154     0.6803871    0.3797215     0.6738265    0.3877209     0.0985874    0.0495062 
   0.176991200    -0.0236819   -0.0673439     0.7458060    0.2271255     0.7417417    0.2353014     0.0980355    0.0093849 
   0.178991100    -0.0156674   -0.0678017     0.7772747    0.0636753     0.7748272    0.0715403     0.0810958   -0.0255035 
   0.180991000    -0.0097846   -0.0697438     0.7733190   -0.1026085     0.7717147   -0.0950049     0.0515195   -0.0487814 
   0.182990900    -0.0061736   -0.0720101     0.7334855   -0.2641143     0.7331234   -0.2562554     0.0152732   -0.0564597 
   0.184990800    -0.0043627   -0.0736167     0.6605822   -0.4130902     0.6609064   -0.4051882    -0.0205045   -0.0474485 
   0.186990700    -0.0036477   -0.0738382     0.5581596   -0.5427625     0.5595098   -0.5347822    -0.0482123   -0.0238019 
   0.188990600    -0.0015237   -0.0723231     0.4497385   -0.6340781     0.4496657   -0.6285441    -0.0637888    0.0081894 
   0.190990500    -0.0011971   -0.0695327     0.2865800   -0.7223079     0.2922782   -0.7149255    -0.0620499    0.0468538 
   0.192990400     0.0019578   -0.0659477     0.1244661   -0.7671989     0.1328643   -0.7611662    -0.0447012    0.0810619 
   0.194990300     0.0075038   -0.0625710    -0.0406697   -0.7760795    -0.0305040   -0.7726642    -0.0146307    0.1054303 
   0.196990200     0.0151827   -0.0605794    -0.2038450   -0.7500131    -0.1929313   -0.7496618     0.0234626    0.1158390 
   0.198990100     0.0242855   -0.0610519    -0.3583846   -0.6897501    -0.3475194   -0.6926339     0.0634600    0.1101188 
   0.200990000     0.0339000   -0.0646745    -0.4966054   -0.5977263    -0.4870586   -0.6033286     0.0984020    0.0891127 
   0.202989900     0.0427068   -0.0717351    -0.6119342   -0.4782933    -0.6047423   -0.4857960     0.1227596    0.0560742 
   0.204989800     0.0493474   -0.0819569    -0.6990690   -0.3368885    -0.6941060   -0.3449627     0.1328560    0.0160309 
   0.206989700     0.0527154   -0.0945643    -0.7536985   -0.1803224    -0.7503954   -0.1886647     0.1269662   -0.0244416 
   0.208989600     0.0519957   -0.1081553    -0.7730107   -0.0160356    -0.7713811   -0.0247845     0.1064755   -0.0593844 
   0.210989500     0.0469285   -0.1213333    -0.7570729    0.1474838    -0.7564189    0.1392916     0.0750198   -0.0834799 
   0.212989400     0.0376781   -0.1327043    -0.7067027    0.3033448    -0.7073297    0.2954527     0.0377608   -0.0936214 
   0.214989300     0.0250824   -0.1409386    -0.6249958    0.4442673    -0.6268688    0.4362149     0.0007041   -0.0889650 
   0.216989200     0.0104697   -0.1451120    -0.5162458    0.5640554    -0.5200108    0.5562177    -0.0301324   -0.0713379 
   0.218989100    -0.0048686   -0.1448456    -0.3857396    0.6579817    -0.3915008    0.6508107    -0.0506255   -0.0447936 
   0.220989000    -0.0196079   -0.1401446    -0.2390103    0.7226889    -0.2467772    0.7167324    -0.0587000   -0.0145628 
   0.222988900    -0.0324784   -0.1313049    -0.0829282    0.7553213    -0.0917665    0.7519753    -0.0544303    0.0142417 
   0.224988800    -0.0423750   -0.1190737     0.0768004    0.7555001     0.0674598    0.7544425    -0.0402237    0.0368634 
   0.226988700    -0.0485278   -0.1047465     0.2327375    0.7224965     0.2238717    0.7238951    -0.0198556    0.0501123 
   0.228988600    -0.0505497   -0.0892833     0.3786096    0.6580464     0.3705480    0.6614603     0.0018883    0.0527897 
   0.230988500    -0.0483581   -0.0736793     0.5083997    0.5646554     0.5017295    0.5695412     0.0204183    0.0458668 
   0.232988400    -0.0418779   -0.0592379     0.6158074    0.4457142     0.6109630    0.4516870     0.0317886    0.0320996 
   0.234988300    -0.0318653   -0.0469889     0.6965885    0.3064843     0.6928871    0.3125447     0.0337502    0.0155483 
   0.236988200    -0.0188728   -0.0377952     0.7462356    0.1527350     0.7437889    0.1588428     0.0260486    0.0009873 
   0.238988100    -0.0038743   -0.0322912     0.7626505   -0.0084315     0.7605979   -0.0025514     0.0107000   -0.0071822 
   0.240988000     0.0120465   -0.0308890     0.7439087   -0.1700410     0.7425064   -0.1633480    -0.0085792   -0.0057418 
   0.242987900     0.0278666   -0.0335355     0.6907588   -0.3241047     0.6912221   -0.3162369    -0.0267930    0.0066213 
   0.244987800     0.0426151   -0.0400089     0.6059692   -0.4635758     0.6085860   -0.4545584    -0.0388922    0.0287951 
   0.246987700     0.0553028   -0.0497257     0.4931655   -0.5813276     0.4984952   -0.5727339    -0.0405590    0.0575886 
   0.248987600     0.0654704   -0.0620581     0.3579666   -0.6718748     0.3656785   -0.6649218    -0.0291461    0.0881556 
   0.250987500     0.0727223   -0.0763268     0.2064399   -0.7316078     0.2159536   -0.7270356    -0.0043200    0.1147556 
   0.252987400     0.0768749   -0.0918158     0.0461302   -0.7570491     0.0568475   -0.7558482     0.0315432    0.1317743 
   0.254987300     0.0778764   -0.1079786    -0.1150006   -0.7477009    -0.1046178   -0.7496755     0.0743847    0.1352249 
   0.256987200     0.0759354   -0.1243581    -0.2701546   -0.7042437    -0.2607743   -0.7094879     0.1187345    0.1226570 
   0.258987100     0.0709405   -0.1405134    -0.4115206   -0.6294488    -0.4046239   -0.6364934     0.1580594    0.0943040 
   0.260987000     0.0627318   -0.1555067    -0.5334387   -0.5265899    -0.5289410   -0.5342578     0.1867928    0.0526862 
   0.262986900     0.0515343   -0.1690447    -0.6301292   -0.4009115    -0.6278573   -0.4084746     0.2005361    0.0022964 
   0.264986800     0.0374139   -0.1808531    -0.6978027   -0.2585227    -0.6971954   -0.2652630     0.1967775   -0.0508573 
   0.266986700     0.0208569   -0.1898339    -0.7339212   -0.1058567    -0.7340614   -0.1115523     0.1755652   -0.1005157 
   0.268986600     0.0024659   -0.1957617    -0.7371782    0.0498575    -0.7378033    0.0446955     0.1392805   -0.1403037 
   0.270986500    -0.0172252   -0.1981033    -0.7082890    0.2019300    -0.7094022    0.1967229     0.0923584   -0.1659529 
   0.272986400    -0.0376624   -0.1965774    -0.6487788    0.3439107    -0.6508554    0.3383278     0.0407321   -0.1744717 
   0.274986300    -0.0576230   -0.1908249    -0.5617469    0.4700806    -0.5650762    0.4641392    -0.0091512   -0.1658362 
   0.276986200    -0.0764309   -0.1807314    -0.4511169    0.5755293    -0.4565322    0.5700138    -0.0512438   -0.1420858 
   0.278986100    -0.0928873   -0.1667064    -0.3214799    0.6557510    -0.3283051    0.6513708    -0.0814470   -0.1076450 
   0.280986000    -0.1061896   -0.1490031    -0.1783227    0.7078149    -0.1859021    0.7053445    -0.0968167   -0.0680756 
   0.282985900    -0.1153633   -0.1288440    -0.0273464    0.7295940    -0.0349760    0.7290887    -0.0976394   -0.0289483 
   0.284985800    -0.1199451   -0.1071206     0.1251524    0.7197980     0.1184056    0.7210916    -0.0858217    0.0041706 
   0.286985700    -0.1192478   -0.0852143     0.2728963    0.6786742     0.2674951    0.6811670    -0.0653480    0.0275044 
   0.288985600    -0.1134715   -0.0643193     0.4094760    0.6073688     0.4050181    0.6108766    -0.0412322    0.0393422 
   0.290985500    -0.1030013   -0.0456592     0.5290228    0.5086694     0.5248796    0.5127982    -0.0186156    0.0400419 
   0.292985400    -0.0886624   -0.0306673     0.6251874    0.3862632     0.6215191    0.3913170    -0.0021027    0.0318668 
   0.294985300    -0.0714765   -0.0199160     0.6937140    0.2454666     0.6906275    0.2514513     0.0054742    0.0189591 
   0.296985200    -0.0522798   -0.0138190     0.7307144    0.0928368     0.7281448    0.0995386     0.0033549    0.0062671 
   0.298985100    -0.0329503   -0.0127760     0.7339612   -0.0647836     0.7323505   -0.0578778    -0.0069490   -0.0013285 
   0.300985000    -0.0145722   -0.0165594     0.7026848   -0.2196985     0.7027161   -0.2127409    -0.0219053   -0.0002567 
   0.302984900     0.0018364   -0.0247322     0.6386722   -0.3643678     0.6405330   -0.3572098    -0.0364609    0.0113425 
   0.304984800     0.0153447   -0.0365160     0.5446736   -0.4914788     0.5486820   -0.4849464    -0.0452393    0.0325406 
   0.306984700     0.0253481   -0.0509783     0.4256238   -0.5947264     0.4315354   -0.5899162    -0.0436251    0.0601748 
   0.308984600     0.0315467   -0.0672317     0.2876371   -0.6691981     0.2950699   -0.6665875    -0.0287221    0.0887757 
   0.310984500     0.0338189   -0.0843794     0.1378684   -0.7114772     0.1453433   -0.7115126    -0.0001016    0.1121864 
   0.312984400     0.0321511   -0.1016466    -0.0165805   -0.7203499    -0.0094510   -0.7225614     0.0393273    0.1241429 
   0.314984300     0.0266728   -0.1184811    -0.1677268   -0.6956413    -0.1620376   -0.6995849     0.0841951    0.1200007 
