! MS46122B
! 2250307/22442219
! 2/20/2026 8:55:05 AM
! C:\USERS\SPARKY\DOCUMENTS\VNA_DATA\FEB20_2026\PORT4.S2P
! CHANNEL.1
! TR.MEASUREMENT
! RAW.DATA
# GHZ S RI R 50.0
! FREQ.GHZ         S11RE         S11IM         S21RE         S21IM         S12RE         S12IM         S22RE         S22IM         
!; PortSelection: Port_12
   0.001000000     1.0466860   -0.0658325    -0.0002993   -0.0009386    -0.0002449   -0.0009410     0.7996135   -0.5563008 
   0.002999900     0.9628466   -0.1916776    -0.0201488   -0.0141214    -0.0209965   -0.0144939     0.0536412   -0.8507417 
   0.004999800     0.8810437   -0.3105003    -0.1188854    0.0014885    -0.1245531    0.0045373    -0.6936961   -0.4301409 
   0.006999700     0.7157063   -0.3878360    -0.2318491    0.2852009    -0.2250045    0.3052196    -0.4160203    0.6525281 
   0.008999600     0.6366976   -0.2974585     0.2295624    0.5035571     0.2416066    0.5026180     0.5401676   -0.0344537 
   0.010999500     0.6683909   -0.3187189     0.4742942    0.2301536     0.4879341    0.2321351     0.0019120   -0.5411000 
   0.012999400     0.6513189   -0.3836613     0.5048472    0.0161360     0.5217608    0.0096466    -0.4220564   -0.4101333 
   0.014999300     0.6063192   -0.4431792     0.4848756   -0.1432773     0.4977524   -0.1593709    -0.5977392   -0.1335744 
   0.016999200     0.5472850   -0.4904245     0.4399544   -0.2798174     0.4428711   -0.3003356    -0.5954024    0.1415456 
   0.018999100     0.4795786   -0.5229418     0.3697040   -0.4040341     0.3624354   -0.4226298    -0.4720946    0.3568315 
   0.020999000     0.4058599   -0.5377998     0.2697413   -0.5148141     0.2545325   -0.5263114    -0.2758214    0.4823561 
   0.022998900     0.3332408   -0.5326790     0.1356830   -0.6045723     0.1185012   -0.6056545    -0.0537626    0.5047499 
   0.024998800     0.2670099   -0.4848687     0.0003161   -0.6863908    -0.0521681   -0.6511369     0.1546933    0.4655512 
   0.026998700     0.2185370   -0.4653365    -0.2207657   -0.6618479    -0.2246555   -0.6490181     0.2828464    0.2718777 
   0.028998600     0.1898328   -0.4148708    -0.4125579   -0.6013469    -0.4084688   -0.5913528     0.3258694    0.0798781 
   0.030998500     0.1836783   -0.3666632    -0.5805391   -0.4785227    -0.5725178   -0.4744731     0.2706921   -0.0979904 
   0.032998400     0.1925448   -0.3159641    -0.7136081   -0.3543627    -0.7002795   -0.3006515     0.1590477   -0.2267203 
   0.034998300     0.2123826   -0.3121807    -0.7621210   -0.1106275    -0.7604612   -0.1132188    -0.0193071   -0.2468806 
   0.036998200     0.2278334   -0.3093434    -0.7639414    0.0875412    -0.7640409    0.0882939    -0.1632855   -0.1955426 
   0.038998100     0.2347502   -0.3162229    -0.7164331    0.2708428    -0.7158138    0.2753696    -0.2569587   -0.0889988 
   0.040998000     0.2328667   -0.3279628    -0.6293199    0.4327332    -0.6244907    0.4382015    -0.2902025    0.0420497 
   0.042997900     0.2211421   -0.3397784    -0.5103664    0.5656085    -0.5002060    0.5695015    -0.2618332    0.1700178 
   0.044997800     0.1999712   -0.3322653    -0.4159805    0.6749531    -0.3476281    0.6718037    -0.1992227    0.2910383 
   0.046997700     0.1778340   -0.3484017    -0.2082958    0.7350430    -0.1959424    0.7286114    -0.0716537    0.3261058 
   0.048997600     0.1545644   -0.3417150    -0.0376218    0.7674486    -0.0290725    0.7558817     0.0502357    0.3309303 
   0.050997500     0.1353463   -0.3282229     0.1365798    0.7615224     0.1386209    0.7477749     0.1621258    0.2863754 
   0.052997400     0.1211248   -0.3115309     0.3105202    0.7152843     0.3037939    0.7035991     0.2457857    0.2006753 
   0.054997300     0.1148176   -0.2938741     0.4671740    0.6311395     0.4591555    0.6220451     0.2868015    0.0902914 
   0.056997200     0.1156854   -0.2790092     0.6016669    0.5105343     0.5929830    0.5055490     0.2799245   -0.0254471 
   0.058997100     0.1215359   -0.2700334     0.7046408    0.3603452     0.6966394    0.3594700     0.2280665   -0.1268942 
   0.060997000     0.1290036   -0.2684683     0.7685547    0.1902389     0.7626368    0.1910451     0.1421424   -0.1967569 
   0.062996900     0.1346116   -0.2740828     0.7897103    0.0113322     0.7863942    0.0121826     0.0387131   -0.2249684 
   0.064996800     0.1352543   -0.2851540     0.7694526   -0.1654089     0.7666270   -0.1654460    -0.0628726   -0.2093123 
   0.066996700     0.1290235   -0.2986881     0.7108780   -0.3301977     0.7063008   -0.3310199    -0.1455550   -0.1561954 
   0.068996600     0.1154037   -0.3116536     0.6187146   -0.4754750     0.6123520   -0.4752292    -0.1968243   -0.0777577 
   0.070996500     0.0959261   -0.3213069     0.4998228   -0.5968137     0.4920565   -0.5936744    -0.2108470    0.0103380 
   0.072996400     0.0720677   -0.3246754     0.3596420   -0.6892571     0.3518341   -0.6821251    -0.1890857    0.0923541 
   0.074996300     0.0465021   -0.3210419     0.2039488   -0.7499521     0.1988604   -0.7389743    -0.1380226    0.1557216 
   0.076996200     0.0222321   -0.3098148     0.0392054   -0.7776122     0.0386027   -0.7645987    -0.0684761    0.1912621 
   0.078996100     0.0018257   -0.2920589    -0.1284197   -0.7708113    -0.1235249   -0.7573808     0.0070772    0.1953100 
   0.080996000    -0.0129106   -0.2696213    -0.2922863   -0.7281646    -0.2825165   -0.7169845     0.0753387    0.1688555 
   0.082995900    -0.0202556   -0.2450862    -0.4449137   -0.6505534    -0.4321111   -0.6443070     0.1254262    0.1176102 
   0.084995800    -0.0196259   -0.2208513    -0.5776837   -0.5408589    -0.5639426   -0.5397630     0.1486215    0.0519568 
   0.086995700    -0.0127550   -0.2005150    -0.6842896   -0.4032598    -0.6717925   -0.4063206     0.1419321   -0.0162799 
   0.088995600    -0.0015092   -0.1857490    -0.7578741   -0.2444585    -0.7479585   -0.2507745     0.1072005   -0.0743474 
   0.090995500     0.0115224   -0.1777090    -0.7942578   -0.0726158    -0.7871592   -0.0801536     0.0513528   -0.1113590 
   0.092995400     0.0234850   -0.1760426    -0.7918552    0.1028488    -0.7861306    0.0954634    -0.0146854   -0.1208877 
   0.094995300     0.0320585   -0.1790468    -0.7494019    0.2720762    -0.7449751    0.2655824    -0.0784591   -0.1011598 
   0.096995200     0.0360872   -0.1848875    -0.6714588    0.4272452    -0.6670973    0.4208344    -0.1277095   -0.0562112 
   0.098995100     0.0352236   -0.1911942    -0.5627695    0.5608466    -0.5581319    0.5531232    -0.1535224    0.0049471 
   0.100995000     0.0283866   -0.1968219    -0.4266164    0.6689479    -0.4238961    0.6588114    -0.1509833    0.0726308 
   0.102994900     0.0204435   -0.1979997    -0.2734255    0.7433942    -0.2733619    0.7316174    -0.1220915    0.1322289 
   0.104994800     0.0117173   -0.1953813    -0.1087031    0.7836889    -0.1120700    0.7713425    -0.0717688    0.1751859 
   0.106994700     0.0037441   -0.1889766     0.0605712    0.7883000     0.0532488    0.7772548    -0.0089837    0.1946713 
   0.108994600    -0.0015338   -0.1800231     0.2272478    0.7576429     0.2162953    0.7494137     0.0558630    0.1879373 
   0.110994500    -0.0033572   -0.1697224     0.3836690    0.6919829     0.3708777    0.6879383     0.1126923    0.1566281 
   0.112994400    -0.0015801   -0.1598769     0.5234265    0.5946448     0.5102046    0.5950609     0.1521669    0.1065147 
   0.114994300     0.0033162   -0.1518077     0.6391540    0.4692174     0.6273783    0.4732576     0.1684221    0.0459283 
   0.116994200     0.0102258   -0.1466957     0.7253979    0.3212337     0.7162643    0.3280511     0.1596667   -0.0151251 
   0.118994100     0.0175940   -0.1451157     0.7774985    0.1577731     0.7712049    0.1658021     0.1280510   -0.0662438 
   0.120994000     0.0243223   -0.1468176     0.7928669   -0.0124157     0.7890891   -0.0049934     0.0795676   -0.0994417 
   0.122993900     0.0285498   -0.1510223     0.7709046   -0.1821699     0.7682365   -0.1750627     0.0232390   -0.1092821 
   0.124993800     0.0299687   -0.1565353     0.7129641   -0.3424142     0.7108079   -0.3356291    -0.0308849   -0.0949742 
   0.126993700     0.0284607   -0.1619761     0.6223406   -0.4859259     0.6206281   -0.4783874    -0.0728501   -0.0597625 
   0.128993600     0.0244286   -0.1659063     0.5032836   -0.6060106     0.5028830   -0.5975008    -0.0952677   -0.0111575 
   0.130993500     0.0190627   -0.1680203     0.3622917   -0.6979109     0.3639284   -0.6881788    -0.0948211    0.0414705 
   0.132993400     0.0132971   -0.1679039     0.2056295   -0.7581120     0.2101901   -0.7480054    -0.0722097    0.0885388 
   0.134993300     0.0082154   -0.1658564     0.0400906   -0.7837049     0.0479909   -0.7745435    -0.0318850    0.1215508 
   0.136993200     0.0045239   -0.1625340    -0.1268709   -0.7737639    -0.1159319   -0.7671140     0.0189842    0.1346700 
   0.138993100     0.0025065   -0.1589273    -0.2881282   -0.7289488    -0.2753145   -0.7257981     0.0710623    0.1255982 
   0.140993000     0.0021901   -0.1561254    -0.4360071   -0.6508383    -0.4229334   -0.6516337     0.1154456    0.0957782 
   0.142992900     0.0027663   -0.1548220    -0.5640493   -0.5428739    -0.5523058   -0.5476007     0.1444881    0.0498871 
   0.144992800     0.0033799   -0.1555865    -0.6662975   -0.4101915    -0.6572444   -0.4178406     0.1529457   -0.0042634 
   0.146992700     0.0027877   -0.1579401    -0.7374497   -0.2588281    -0.7310448   -0.2675429     0.1394833   -0.0580028 
   0.148992600     0.0001564   -0.1613941    -0.7739909   -0.0961886    -0.7703069   -0.1051132     0.1059265   -0.1026916 
   0.150992500    -0.0049893   -0.1648353    -0.7748080    0.0698301    -0.7729205    0.0612498     0.0575264   -0.1310608 
   0.152992400    -0.0128792   -0.1675234    -0.7410316    0.2316769    -0.7399588    0.2237365     0.0017894   -0.1386038 
   0.154992300    -0.0228355   -0.1678102    -0.6740605    0.3819680    -0.6738800    0.3738177    -0.0523324   -0.1242234 
   0.156992200    -0.0340791   -0.1649857    -0.5774363    0.5141662    -0.5785047    0.5058857    -0.0962710   -0.0906709 
   0.158992100    -0.0454261   -0.1584000    -0.4561609    0.6231054    -0.4585921    0.6142823    -0.1236507   -0.0437502 
   0.160992000    -0.0553852   -0.1484769    -0.3150972    0.7042235    -0.3197582    0.6951677    -0.1308414    0.0087897 
   0.162991900    -0.0626656   -0.1356826    -0.1605975    0.7543395    -0.1680324    0.7462991    -0.1177183    0.0587814 
   0.164991800    -0.0663995   -0.1207678     0.0009267    0.7715212    -0.0084113    0.7654918    -0.0875344    0.0984817 
   0.166991700    -0.0661544   -0.1055505     0.1630299    0.7548985     0.1517286    0.7513754    -0.0458239    0.1224902 
   0.168991600    -0.0619821   -0.0912383     0.3185275    0.7044176     0.3065445    0.7046213     0.0000693    0.1279796 
   0.170991500    -0.0544713   -0.0789361     0.4603738    0.6222613     0.4496587    0.6256200     0.0423589    0.1153577 
   0.172991400    -0.0446570   -0.0697851     0.5823896    0.5115435     0.5733991    0.5172446     0.0743659    0.0879729 
   0.174991300    -0.0338601   -0.0641289     0.6781807    0.3768981     0.6715673    0.3844388     0.0914270    0.0515410 
   0.176991200    -0.0233227   -0.0617953     0.7432889    0.2246688     0.7388346    0.2325380     0.0912383    0.0131961 
   0.178991100    -0.0141695   -0.0622053     0.7744530    0.0617068     0.7716032    0.0694456     0.0750915   -0.0199819 
   0.180991000    -0.0070917   -0.0643531     0.7702146   -0.1039608     0.7682257   -0.0964774     0.0467388   -0.0417124 
   0.182990900    -0.0022206   -0.0671212     0.7302232   -0.2649546     0.7294460   -0.2570950     0.0121082   -0.0480941 
   0.184990800     0.0007193   -0.0694724     0.6573482   -0.4133424     0.6572018   -0.4054131    -0.0215949   -0.0383865 
   0.186990700     0.0024093   -0.0706885     0.5546323   -0.5425636     0.5557507   -0.5343188    -0.0472359   -0.0144854 
   0.188990600     0.0052457   -0.0702268     0.4462624   -0.6333676     0.4459545   -0.6275117    -0.0609044    0.0172890 
   0.190990500     0.0061547   -0.0690320     0.2834028   -0.7209796     0.2887062   -0.7132263    -0.0568363    0.0551120 
   0.192990400     0.0095205   -0.0670290     0.1211333   -0.7649196     0.1295727   -0.7587268    -0.0376485    0.0880093 
   0.194990300     0.0149057   -0.0652618    -0.0434036   -0.7732573    -0.0334788   -0.7694770    -0.0061056    0.1106932 
   0.196990200     0.0220018   -0.0649203    -0.2063512   -0.7461988    -0.1952032   -0.7458819     0.0330588    0.1191168 
   0.198990100     0.0302411   -0.0668941    -0.3599369   -0.6856451    -0.3490193   -0.6883026     0.0735304    0.1112984 
   0.200990000     0.0385859   -0.0718364    -0.4972247   -0.5930078    -0.4875763   -0.5985188     0.1085315    0.0881383 
   0.202989900     0.0458138   -0.0799234    -0.6114247   -0.4733932    -0.6041883   -0.4808000     0.1325124    0.0530358 
   0.204989800     0.0506061   -0.0908429    -0.6973333   -0.3319243    -0.6924151   -0.3400199     0.1418197    0.0110499 
   0.206989700     0.0521161   -0.1036754    -0.7509736   -0.1759107    -0.7474505   -0.1841413     0.1348022   -0.0310762 
   0.208989600     0.0494241   -0.1170638    -0.7691575   -0.0123981    -0.7674334   -0.0209712     0.1129660   -0.0674551 
   0.210989500     0.0424303   -0.1295980    -0.7523841    0.1501709    -0.7517514    0.1420381     0.0798579   -0.0927325 
   0.212989400     0.0314427   -0.1399170    -0.7016152    0.3046465    -0.7021287    0.2969356     0.0408464   -0.1037826 
   0.214989300     0.0174324   -0.1467777    -0.6197730    0.4443871    -0.6214706    0.4365587     0.0019159   -0.0997401 
   0.216989200     0.0016361   -0.1491688    -0.5113268    0.5629366    -0.5147259    0.5553233    -0.0310717   -0.0823865 
   0.218989100    -0.0145596   -0.1471381    -0.3810626    0.6559359    -0.3865999    0.6487769    -0.0537152   -0.0556867 
   0.220989000    -0.0296697   -0.1402784    -0.2351249    0.7197192    -0.2424888    0.7137007    -0.0639677   -0.0248438 
   0.222988900    -0.0423929   -0.1292507    -0.0798671    0.7517176    -0.0882996    0.7481585    -0.0618617    0.0049433 
   0.224988800    -0.0517341   -0.1148586     0.0789853    0.7514352     0.0700262    0.7500992    -0.0495721    0.0290809 
   0.226988700    -0.0569136   -0.0985722     0.2340132    0.7181952     0.2254582    0.7191780    -0.0309304    0.0442331 
   0.228988600    -0.0575501   -0.0812976     0.3789391    0.6536889     0.3711251    0.6566086    -0.0105376    0.0492175 
   0.230988500    -0.0535582   -0.0642953     0.5080317    0.5605148     0.5014365    0.5647967     0.0071884    0.0449913 
   0.232988400    -0.0450202   -0.0487693     0.6148046    0.4415937     0.6097369    0.4470007     0.0183262    0.0340297 
   0.234988300    -0.0327204   -0.0359123     0.6949060    0.3026817     0.6909139    0.3082933     0.0206895    0.0204172 
   0.236988200    -0.0172511   -0.0265594     0.7439680    0.1490871     0.7410960    0.1551268     0.0141482    0.0087739 
   0.238988100     0.0001233   -0.0215285     0.7597021   -0.0116447     0.7572213   -0.0058575     0.0005687    0.0032155 
   0.240988000     0.0183993   -0.0210334     0.7401827   -0.1729617     0.7384863   -0.1661002    -0.0162923    0.0069027 
   0.242987900     0.0363342   -0.0252080     0.6866992   -0.3263013     0.6867150   -0.3182954    -0.0315549    0.0208481 
   0.244987800     0.0527269   -0.0335718     0.6011233   -0.4650664     0.6035840   -0.4557532    -0.0404230    0.0439329 
   0.246987700     0.0666935   -0.0454939     0.4878023   -0.5818676     0.4929722   -0.5729164    -0.0386049    0.0728362 
   0.248987600     0.0776455   -0.0604067     0.3523523   -0.6712518     0.3600392   -0.6639879    -0.0237165    0.1026916 
   0.250987500     0.0850851   -0.0773124     0.2007147   -0.7295347     0.2104634   -0.7249317     0.0041257    0.1277117 
   0.252987400     0.0888562   -0.0954555     0.0409298   -0.7536764     0.0516463   -0.7523682     0.0426192    0.1425698 
   0.254987300     0.0890332   -0.1142507    -0.1196044   -0.7428623    -0.1090518   -0.7449540     0.0875115    0.1433086 
   0.256987200     0.0854921   -0.1329556    -0.2734568   -0.6984634    -0.2641676   -0.7036915     0.1330823    0.1276520 
   0.258987100     0.0785270   -0.1508197    -0.4133938   -0.6228895    -0.4066036   -0.6297442     0.1729716    0.0962658 
   0.260987000     0.0679835   -0.1671516    -0.5333562   -0.5195413    -0.5291114   -0.5271091     0.2016046    0.0515382 
   0.262986900     0.0540840   -0.1817153    -0.6285206   -0.3940001    -0.6264024   -0.4013986     0.2145799   -0.0017526 
   0.264986800     0.0373267   -0.1937311    -0.6943518   -0.2522668    -0.6939070   -0.2587549     0.2096749   -0.0574369 
   0.266986700     0.0181973   -0.2024829    -0.7290306   -0.1006113    -0.7292374   -0.1060535     0.1869156   -0.1093049 
   0.268986600    -0.0030065   -0.2074330    -0.7311972    0.0536062    -0.7318218    0.0488330     0.1487259   -0.1510844 
   0.270986500    -0.0250125   -0.2083965    -0.7016718    0.2040914    -0.7025689    0.1993094     0.0996326   -0.1782759 
   0.272986400    -0.0474958   -0.2050110    -0.6419715    0.3443813    -0.6437338    0.3391536     0.0457331   -0.1879728 
   0.274986300    -0.0689910   -0.1969765    -0.5552172    0.4689449    -0.5581107    0.4632877    -0.0068008   -0.1801414 
   0.276986200    -0.0888699   -0.1843084    -0.4452975    0.5729630    -0.4501479    0.5675967    -0.0516401   -0.1567718 
   0.278986100    -0.1058227   -0.1675876    -0.3164677    0.6520966    -0.3227458    0.6476134    -0.0847015   -0.1222137 
   0.280986000    -0.1190841   -0.1471269    -0.1743671    0.7033668    -0.1814768    0.7005633    -0.1029630   -0.0819397 
   0.282985900    -0.1277656   -0.1241594    -0.0246633    0.7246003    -0.0318555    0.7237492    -0.1065549   -0.0415562 
   0.284985800    -0.1309048   -0.1000128     0.1267326    0.7146103     0.1201914    0.7153670    -0.0972978   -0.0064868 
   0.286985700    -0.1284755   -0.0757975     0.2734961    0.6735053     0.2680799    0.6754246    -0.0790208    0.0192688 
   0.288985600    -0.1204393   -0.0531037     0.4091211    0.6024359     0.4044417    0.6053160    -0.0565383    0.0340932 
   0.290985500    -0.1074404   -0.0332112     0.5277468    0.5039447     0.5233821    0.5076464    -0.0349834    0.0380032 
   0.292985400    -0.0903764   -0.0174695     0.6233865    0.3818460     0.6191719    0.3866388    -0.0187008    0.0333746 
   0.294985300    -0.0702208   -0.0066090     0.6911645    0.2414546     0.6876020    0.2473651    -0.0105242    0.0240830 
   0.296985200    -0.0482336   -0.0010566     0.7276247    0.0891698     0.7245719    0.0960321    -0.0112829    0.0148674 
   0.298985100    -0.0261727   -0.0011776     0.7299409   -0.0679354     0.7281715   -0.0607962    -0.0194943    0.0103206 
   0.300985000    -0.0054086   -0.0067179     0.6981189   -0.2223306     0.6980265   -0.2149551    -0.0315969    0.0140130 
   0.302984900     0.0129136   -0.0171875     0.6335034   -0.3659814     0.6353871   -0.3586642    -0.0427627    0.0274007 
   0.304984800     0.0278065   -0.0316213     0.5389316   -0.4921176     0.5431081   -0.4854400    -0.0478365    0.0496564 
   0.306984700     0.0385915   -0.0489298     0.4195744   -0.5941126     0.4256670   -0.5892435    -0.0424631    0.0772524 
   0.308984600     0.0447936   -0.0681506     0.2816311   -0.6671098     0.2890521   -0.6646190    -0.0238385    0.1049744 
   0.310984500     0.0463611   -0.0880820     0.1321630   -0.7079680     0.1398203   -0.7080671     0.0081383    0.1266995 
   0.312984400     0.0434660   -0.1080111    -0.0212690   -0.7153495    -0.0143435   -0.7177035     0.0501525    0.1362510 
   0.314984300     0.0362599   -0.1269838    -0.1712977   -0.6895183    -0.1656560   -0.6934838     0.0970142    0.1293294 
