! MS46122B
! 2250307/22442219
! 2/20/2026 8:52:08 AM
! C:\USERS\SPARKY\DOCUMENTS\VNA_DATA\FEB20_2026\PORT1.S2P
! CHANNEL.1
! TR.MEASUREMENT
! RAW.DATA
# GHZ S RI R 50.0
! FREQ.GHZ         S11RE         S11IM         S21RE         S21IM         S12RE         S12IM         S22RE         S22IM         
!; PortSelection: Port_12
   0.001000000     1.0467710   -0.0656358    -0.0002789   -0.0009357    -0.0002278   -0.0009444     0.7992380   -0.5563474 
   0.002999900     0.9630158   -0.1915146    -0.0200975   -0.0141747    -0.0209296   -0.0145425     0.0533648   -0.8500254 
   0.004999800     0.8811175   -0.3104020    -0.1187869    0.0014203    -0.1243700    0.0044173    -0.6929606   -0.4299461 
   0.006999700     0.7157101   -0.3871588    -0.2312742    0.2849687    -0.2244300    0.3047827    -0.4169066    0.6513963 
   0.008999600     0.6374977   -0.2967934     0.2294459    0.5019938     0.2413236    0.5008528     0.5375305   -0.0312596 
   0.010999500     0.6692248   -0.3183337     0.4730687    0.2290995     0.4864616    0.2309453     0.0036853   -0.5362162 
   0.012999400     0.6521636   -0.3833697     0.5033667    0.0156369     0.5198795    0.0091061    -0.4174297   -0.4070914 
   0.014999300     0.6073285   -0.4429592     0.4831375   -0.1433575     0.4956681   -0.1592333    -0.5918381   -0.1330061 
   0.016999200     0.5484859   -0.4902433     0.4380512   -0.2793614     0.4406941   -0.2995968    -0.5893706    0.1394862 
   0.018999100     0.4808978   -0.5228817     0.3677424   -0.4029301     0.3603808   -0.4212040    -0.4672435    0.3524004 
   0.020999000     0.4074901   -0.5380316     0.2679253   -0.5128974     0.2528465   -0.5240718    -0.2729824    0.4761989 
   0.022998900     0.3350809   -0.5333768     0.1343814   -0.6017576     0.1173654   -0.6026428    -0.0533829    0.4977425 
   0.024998800     0.2688586   -0.4861518    -0.0003281   -0.6828771    -0.0523517   -0.6476536     0.1523098    0.4584661 
   0.026998700     0.2202483   -0.4673365    -0.2197186   -0.6581557    -0.2235208   -0.6453001     0.2784735    0.2669810 
   0.028998600     0.1908664   -0.4176390    -0.4100553   -0.5980809    -0.4059407   -0.5880216     0.3202472    0.0772277 
   0.030998500     0.1837304   -0.3698114    -0.5769444   -0.4763755    -0.5688429   -0.4720940     0.2652425   -0.0983307 
   0.032998400     0.1916466   -0.3189752    -0.7094933   -0.3533573    -0.6960887   -0.2997632     0.1544392   -0.2254567 
   0.034998300     0.2103603   -0.3148130    -0.7582239   -0.1113675    -0.7562088   -0.1137867    -0.0222485   -0.2447892 
   0.036998200     0.2250260   -0.3112656    -0.7607132    0.0857431    -0.7603996    0.0864613    -0.1650510   -0.1935512 
   0.038998100     0.2317908   -0.3171547    -0.7140900    0.2685411    -0.7131701    0.2728492    -0.2579699   -0.0875140 
   0.040998000     0.2297656   -0.3279479    -0.6277757    0.4299708    -0.6225787    0.4352800    -0.2910394    0.0430581 
   0.042997900     0.2182238   -0.3389269    -0.5095441    0.5628674    -0.4992720    0.5664102    -0.2628034    0.1707051 
   0.044997800     0.1975559   -0.3308197    -0.4155448    0.6722891    -0.3474447    0.6688921    -0.2005791    0.2917290 
   0.046997700     0.1758788   -0.3462382    -0.2085789    0.7325205    -0.1962762    0.7258056    -0.0732291    0.3269812 
   0.048997600     0.1532210   -0.3391824    -0.0382061    0.7650639    -0.0298117    0.7533165     0.0485616    0.3323163 
   0.050997500     0.1346488   -0.3256191     0.1354263    0.7593986     0.1380469    0.7452952     0.1605327    0.2882628 
   0.052997400     0.1212114   -0.3087808     0.3091314    0.7132709     0.3021269    0.7015516     0.2444134    0.2032332 
   0.054997300     0.1155211   -0.2911968     0.4652909    0.6294960     0.4573921    0.6199456     0.2859835    0.0933918 
   0.056997200     0.1169646   -0.2765780     0.5995774    0.5090847     0.5906797    0.5039190     0.2798477   -0.0218866 
   0.058997100     0.1232699   -0.2680123     0.7022355    0.3593413     0.6939992    0.3583522     0.2289644   -0.1232111 
   0.060997000     0.1311784   -0.2668647     0.7658079    0.1897388     0.7595750    0.1904994     0.1441659   -0.1931489 
   0.062996900     0.1370050   -0.2729808     0.7868994    0.0114615     0.7832286    0.0122705     0.0417856   -0.2218802 
   0.064996800     0.1377459   -0.2845023     0.7667468   -0.1646680     0.7635936   -0.1646439    -0.0589745   -0.2071548 
   0.066996700     0.1316345   -0.2985398     0.7082150   -0.3287798     0.7034146   -0.3294075    -0.1409913   -0.1551320 
   0.068996600     0.1180165   -0.3119157     0.6163633   -0.4734388     0.6098714   -0.4729622    -0.1921125   -0.0780338 
   0.070996500     0.0983943   -0.3220116     0.4979834   -0.5942799     0.4901147   -0.5909333    -0.2064368    0.0088236 
   0.072996400     0.0743776   -0.3258234     0.3583649   -0.6862730     0.3505518   -0.6789769    -0.1853092    0.0896975 
   0.074996300     0.0486191   -0.3226326     0.2034087   -0.7466996     0.1983208   -0.7355230    -0.1352078    0.1521231 
   0.076996200     0.0240043   -0.3117419     0.0393944   -0.7742677     0.0387910   -0.7610431    -0.0668198    0.1872213 
   0.078996100     0.0031915   -0.2943260    -0.1274768   -0.7674328    -0.1225108   -0.7538919     0.0074942    0.1912845 
   0.080996000    -0.0119388   -0.2722229    -0.2905223   -0.7250385    -0.2806803   -0.7137217     0.0746474    0.1650404 
   0.082995900    -0.0199278   -0.2477482    -0.4423887   -0.6477977    -0.4295262   -0.6414680     0.1238796    0.1144194 
   0.084995800    -0.0198532   -0.2235094    -0.5745773   -0.5389321    -0.5607389   -0.5376955     0.1465829    0.0496703 
   0.086995700    -0.0135899   -0.2031387    -0.6807346   -0.4021316    -0.6680026   -0.4050022     0.1395670   -0.0177590 
   0.088995600    -0.0029518   -0.1880162    -0.7541569   -0.2442986    -0.7438396   -0.2504235     0.1049218   -0.0750216 
   0.090995500     0.0096762   -0.1794610    -0.7906658   -0.0733617    -0.7832913   -0.0808356     0.0494651   -0.1114767 
   0.092995400     0.0213018   -0.1772286    -0.7885013    0.1012346    -0.7825012    0.0938200    -0.0161655   -0.1206021 
   0.094995300     0.0297839   -0.1796011    -0.7465727    0.2697242    -0.7418960    0.2631251    -0.0795201   -0.1007800 
   0.096995200     0.0339030   -0.1848603    -0.6693390    0.4244392    -0.6647531    0.4177761    -0.1283627   -0.0559555 
   0.098995100     0.0331942   -0.1905299    -0.5613785    0.5576245    -0.5565193    0.5497842    -0.1539931    0.0050228 
   0.100995000     0.0267485   -0.1957545    -0.4259475    0.6656513    -0.4230875    0.6552528    -0.1514800    0.0725530 
   0.102994900     0.0192680   -0.1966460    -0.2735004    0.7400896    -0.2733574    0.7280266    -0.1227065    0.1320447 
   0.104994800     0.0109943   -0.1938336    -0.1094375    0.7804906    -0.1128519    0.7679402    -0.0725517    0.1749836 
   0.106994700     0.0035333   -0.1873857     0.0591799    0.7853596     0.0518773    0.7739691    -0.0099838    0.1946483 
   0.108994600    -0.0012662   -0.1784908     0.2250942    0.7549376     0.2143362    0.7465562     0.0547376    0.1881518 
   0.110994500    -0.0027550   -0.1684834     0.3813164    0.6899687     0.3682645    0.6855286     0.1115608    0.1571376 
   0.112994400    -0.0006539   -0.1588547     0.5205897    0.5930491     0.5072320    0.5931916     0.1511641    0.1074029 
   0.114994300     0.0044550   -0.1511123     0.6360416    0.4682620     0.6239797    0.4719828     0.1676990    0.0471341 
   0.116994200     0.0114110   -0.1463507     0.7221637    0.3209979     0.7127288    0.3276036     0.1593385   -0.0137410 
   0.118994100     0.0188004   -0.1451377     0.7741594    0.1582363     0.7675566    0.1661099     0.1282117   -0.0648048 
   0.120994000     0.0254204   -0.1471597     0.7896626   -0.0112905     0.7855096   -0.0038817     0.0802224   -0.0981155 
   0.122993900     0.0294751   -0.1515863     0.7680730   -0.1803136     0.7650102   -0.1731524     0.0243057   -0.1083586 
   0.124993800     0.0306543   -0.1573263     0.7104737   -0.3400215     0.7080266   -0.3330068    -0.0295547   -0.0945316 
   0.126993700     0.0288966   -0.1629023     0.6203856   -0.4829946     0.6184970   -0.4751941    -0.0714613   -0.0598859 
   0.128993600     0.0246060   -0.1668474     0.5021400   -0.6026882     0.5014689   -0.5938376    -0.0940933   -0.0118723 
   0.130993500     0.0189274   -0.1689319     0.3619329   -0.6943772     0.3634447   -0.6843954    -0.0941137    0.0403240 
   0.132993400     0.0129224   -0.1687075     0.2060604   -0.7545364     0.2104628   -0.7440432    -0.0720795    0.0871544 
   0.134993300     0.0076341   -0.1664845     0.0413954   -0.7803106     0.0491760   -0.7707950    -0.0324023    0.1201530 
   0.136993200     0.0037316   -0.1629203    -0.1248253   -0.7707838    -0.1139316   -0.7638332     0.0177832    0.1336311 
   0.138993100     0.0016255   -0.1590116    -0.2853223   -0.7264563    -0.2725984   -0.7229750     0.0693940    0.1250889 
   0.140993000     0.0012656   -0.1558703    -0.4328510   -0.6489611    -0.4196311   -0.6494872     0.1135466    0.0959919 
   0.142992900     0.0019242   -0.1542023    -0.5605993   -0.5419352    -0.5486460   -0.5463346     0.1426547    0.0509348 
   0.144992800     0.0027097   -0.1546133    -0.6626729   -0.4100384    -0.6532766   -0.4174678     0.1514390   -0.0024708 
   0.146992700     0.0024137   -0.1566347    -0.7337187   -0.2595526    -0.7270988   -0.2680849     0.1385736   -0.0555807 
   0.148992600     0.0001570   -0.1598943    -0.7708536   -0.0975331    -0.7667568   -0.1063853     0.1058620   -0.0999133 
   0.150992500    -0.0044955   -0.1631574    -0.7720177    0.0677756    -0.7698326    0.0592258     0.0583372   -0.1281803 
   0.152992400    -0.0118602   -0.1658985    -0.7388002    0.2290821    -0.7373471    0.2211203     0.0035635   -0.1359497 
   0.154992300    -0.0213143   -0.1663458    -0.6724425    0.3790708    -0.6719297    0.3707825    -0.0497847   -0.1220592 
   0.156992200    -0.0320509   -0.1638221    -0.5764421    0.5110702    -0.5772543    0.5025823    -0.0931404   -0.0891888 
   0.158992100    -0.0429492   -0.1576921    -0.4557563    0.6198054    -0.4580016    0.6107986    -0.1200973   -0.0431168 
   0.160992000    -0.0525924   -0.1483521    -0.3153283    0.7009808    -0.3198269    0.6916606    -0.1271118    0.0085160 
   0.162991900    -0.0597260   -0.1361956    -0.1614925    0.7512351    -0.1687828    0.7429311    -0.1141678    0.0576501 
   0.164991800    -0.0634765   -0.1220388    -0.0004233    0.7685027    -0.0099492    0.7621975    -0.0842832    0.0965351 
   0.166991700    -0.0634137   -0.1075669     0.1609557    0.7522056     0.1497087    0.7483570    -0.0430594    0.1198603 
   0.168991600    -0.0595957   -0.0939018     0.3159807    0.7021842     0.3039047    0.7019951     0.0022169    0.1248820 
   0.170991500    -0.0526860   -0.0822677     0.4572628    0.6205390     0.4464122    0.6235397     0.0437890    0.1119062 
   0.172991400    -0.0436270   -0.0735743     0.5788786    0.5103753     0.5696942    0.5158361     0.0751267    0.0843633 
   0.174991300    -0.0336361   -0.0681840     0.6745400    0.3765218     0.6675386    0.3838930     0.0915539    0.0479060 
   0.176991200    -0.0240393   -0.0659519     0.7393904    0.2251994     0.7345704    0.2329215     0.0908046    0.0095976 
   0.178991100    -0.0158352   -0.0662255     0.7706466    0.0631268     0.7675179    0.0707596     0.0740884   -0.0234826 
   0.180991000    -0.0096232   -0.0680190     0.7667884   -0.1016057     0.7644147   -0.0941561     0.0452322   -0.0450910 
   0.182990900    -0.0056089   -0.0702003     0.7274492   -0.2616487     0.7263072   -0.2538550     0.0100394   -0.0514385 
   0.184990800    -0.0034079   -0.0717828     0.6552645   -0.4095291     0.6548306   -0.4014412    -0.0242731   -0.0414875 
   0.186990700    -0.0022393   -0.0720872     0.5535885   -0.5381923     0.5543959   -0.5298335    -0.0505389   -0.0172800 
   0.188990600     0.0002999   -0.0707649     0.4461520   -0.6288716     0.4456476   -0.6228921    -0.0648563    0.0148006 
   0.190990500     0.0010548   -0.0683231     0.2842925   -0.7164599     0.2896225   -0.7085682    -0.0615659    0.0533689 
   0.192990400     0.0045715   -0.0651294     0.1233722   -0.7609567     0.1315783   -0.7544321    -0.0429934    0.0872214 
   0.194990300     0.0103694   -0.0623340    -0.0405092   -0.7698656    -0.0303261   -0.7656540    -0.0118921    0.1110201 
   0.196990200     0.0181047   -0.0608870    -0.2025085   -0.7437335    -0.1914365   -0.7430717     0.0270539    0.1208240 
   0.198990100     0.0271879   -0.0619102    -0.3557030   -0.6841799    -0.3446769   -0.6864504     0.0677875    0.1144866 
   0.200990000     0.0366214   -0.0661333    -0.4928548   -0.5927329    -0.4830219   -0.5978464     0.1033998    0.0927642 
   0.202989900     0.0451396   -0.0737048    -0.6071817   -0.4741468    -0.5997245   -0.4812140     0.1283721    0.0589456 
   0.204989800     0.0514103   -0.0843444    -0.6934929   -0.3336082    -0.6882166   -0.3415050     0.1390726    0.0180548 
   0.206989700     0.0543309   -0.0973020    -0.7477247   -0.1783530    -0.7438014   -0.1863958     0.1336920   -0.0233842 
   0.208989600     0.0530783   -0.1111145    -0.7665651   -0.0155523    -0.7646295   -0.0239920     0.1136486   -0.0594810 
   0.210989500     0.0474988   -0.1244271    -0.7506700    0.1467497    -0.7496316    0.1386365     0.0824385   -0.0849607 
   0.212989400     0.0377484   -0.1358265    -0.7006263    0.3011907    -0.7007589    0.2933992     0.0452077   -0.0966183 
   0.214989300     0.0245650   -0.1439976    -0.6195309    0.4409971    -0.6208657    0.4328701     0.0077491   -0.0936515 
   0.216989200     0.0094685   -0.1480228    -0.5116454    0.5595713    -0.5148709    0.5517107    -0.0239719   -0.0776629 
   0.218989100    -0.0064044   -0.1476116    -0.3819400    0.6527002    -0.3873632    0.6452936    -0.0457253   -0.0525685 
   0.220989000    -0.0216251   -0.1425967    -0.2365723    0.7167256    -0.2438675    0.7104611    -0.0554705   -0.0234454 
   0.222988900    -0.0349200   -0.1333494    -0.0815447    0.7490910    -0.0902222    0.7451954    -0.0532364    0.0045905 
   0.224988800    -0.0451051   -0.1206199     0.0765896    0.7490096     0.0675339    0.7473942    -0.0411966    0.0269726 
   0.226988700    -0.0514944   -0.1057058     0.2311003    0.7162641     0.2224250    0.7169600    -0.0230878    0.0405344 
   0.228988600    -0.0537156   -0.0896175     0.3757294    0.6523399     0.3676118    0.6550387    -0.0034859    0.0440882 
   0.230988500    -0.0515813   -0.0734152     0.5043641    0.5596586     0.4975092    0.5638528     0.0131208    0.0385810 
   0.232988400    -0.0450365   -0.0582674     0.6108028    0.4417143     0.6055307    0.4468744     0.0229437    0.0266107 
   0.234988300    -0.0347898   -0.0453376     0.6909170    0.3036500     0.6867312    0.3092425     0.0239435    0.0122420 
   0.236988200    -0.0214828   -0.0354706     0.7400739    0.1510537     0.7369986    0.1570766     0.0158136   -0.0000104 
   0.238988100    -0.0060091   -0.0293854     0.7563517   -0.0086140     0.7536115   -0.0028833     0.0005655   -0.0058940 
   0.240988000     0.0105842   -0.0274817     0.7377628   -0.1690354     0.7357194   -0.1622880    -0.0179125   -0.0022898 
   0.242987900     0.0271463   -0.0297262     0.6851942   -0.3217286     0.6848359   -0.3138101    -0.0349972    0.0119593 
   0.244987800     0.0426786   -0.0359663     0.6008505   -0.4602101     0.6029708   -0.4508354    -0.0456828    0.0356148 
   0.246987700     0.0563624   -0.0457021     0.4890007   -0.5771393     0.4935575   -0.5679682    -0.0456129    0.0654973 
   0.248987600     0.0674108   -0.0582584     0.3545854   -0.6669294     0.3619169   -0.6594025    -0.0323873    0.0967283 
   0.250987500     0.0755193   -0.0729003     0.2039231   -0.7259413     0.2134496   -0.7210122    -0.0058206    0.1236244 
   0.252987400     0.0804532   -0.0890426     0.0450232   -0.7512503     0.0555085   -0.7493577     0.0317757    0.1406273 
   0.254987300     0.0820300   -0.1059803    -0.1151620   -0.7416785    -0.1046463   -0.7431600     0.0762072    0.1437169 
   0.256987200     0.0805498   -0.1232071    -0.2689896   -0.6982968    -0.2595523   -0.7030166     0.1220074    0.1306191 
   0.258987100     0.0757712   -0.1403909    -0.4094364   -0.6239767    -0.4020841   -0.6302943     0.1626716    0.1016291 
   0.260987000     0.0675266   -0.1563309    -0.5299399   -0.5214223    -0.5252575   -0.5287519     0.1926173    0.0590871 
   0.262986900     0.0561517   -0.1708660    -0.6255485   -0.3965553    -0.6230318   -0.4036933     0.2074562    0.0076516 
   0.264986800     0.0416402   -0.1835760    -0.6923454   -0.2550576    -0.6914388   -0.2615287     0.2047291   -0.0465999 
   0.266986700     0.0245134   -0.1934162    -0.7278464   -0.1035670    -0.7275337   -0.1091131     0.1843718   -0.0977145 
   0.268986600     0.0052456   -0.1999197    -0.7305984    0.0507426    -0.7308786    0.0457733     0.1487495   -0.1391336 
   0.270986500    -0.0152631   -0.2027469    -0.7015827    0.2014321    -0.7022381    0.1963526     0.1022044   -0.1666240 
   0.272986400    -0.0367035   -0.2014666    -0.6423619    0.3419067    -0.6439043    0.3364200     0.0506393   -0.1771114 
   0.274986300    -0.0576768   -0.1957741    -0.5557392    0.4668527    -0.5586300    0.4607858     0.0002015   -0.1706056 
   0.276986200    -0.0774260   -0.1856099    -0.4459536    0.5708935    -0.4508607    0.5652673    -0.0428017   -0.1489694 
   0.278986100    -0.0948526   -0.1712355    -0.3174533    0.6501311    -0.3237256    0.6453263    -0.0744688   -0.1164069 
   0.280986000    -0.1090450   -0.1530559    -0.1756086    0.7014371    -0.1827497    0.6984829    -0.0919600   -0.0783100 
   0.282985900    -0.1189730   -0.1322671    -0.0261236    0.7226494    -0.0334339    0.7217015    -0.0950874   -0.0403002 
   0.284985800    -0.1242024   -0.1097365     0.1248097    0.7127798     0.1182211    0.7133582    -0.0859188   -0.0075664 
   0.286985700    -0.1239071   -0.0868245     0.2709322    0.6720325     0.2656161    0.6737770    -0.0682204    0.0160788 
   0.288985600    -0.1184392   -0.0648889     0.4061908    0.6012588     0.4015315    0.6040544    -0.0467134    0.0288780 
   0.290985500    -0.1080229   -0.0451764     0.5243605    0.5034518     0.5199014    0.5069976    -0.0263902    0.0310576 
   0.292985400    -0.0934469   -0.0290595     0.6196990    0.3822832     0.6154709    0.3867505    -0.0116241    0.0250322 
   0.294985300    -0.0758361   -0.0172411     0.6875415    0.2427742     0.6838008    0.2484434    -0.0051815    0.0146083 
   0.296985200    -0.0561657   -0.0101535     0.7241575    0.0915477     0.7209417    0.0981033    -0.0078233    0.0045517 
   0.298985100    -0.0357679   -0.0083207     0.7272969   -0.0646491     0.7251182   -0.0577598    -0.0179805   -0.0004904 
   0.300985000    -0.0163382   -0.0114936     0.6964207   -0.2183750     0.6958593   -0.2111048    -0.0320802    0.0030287 
   0.302984900     0.0012097   -0.0192945     0.6328544   -0.3617013     0.6342916   -0.3543296    -0.0453827    0.0166373 
   0.304984800     0.0159823   -0.0310137     0.5395742   -0.4877548     0.5431696   -0.4808754    -0.0525622    0.0394631 
   0.306984700     0.0272883   -0.0458081     0.4214559   -0.5901136     0.4270110   -0.5849511    -0.0491033    0.0681249 
   0.308984600     0.0346309   -0.0625751     0.2843394   -0.6638544     0.2915224   -0.6608855    -0.0323338    0.0973249 
   0.310984500     0.0378626   -0.0804719     0.1355799   -0.7056562     0.1430479   -0.7051373    -0.0019454    0.1209280 
   0.312984400     0.0369189   -0.0987475    -0.0176282   -0.7141390    -0.0105352   -0.7158663     0.0391595    0.1327672 
   0.314984300     0.0319806   -0.1167213    -0.1677265   -0.6892970    -0.1618143   -0.6927699     0.0854732    0.1282668 
