! MS46122B
! 2250307/22442219
! 2/20/2026 8:49:42 AM
! C:\USERS\SPARKY\DOCUMENTS\VNA_DATA\FEB20_2026\PORT2.S2P
! CHANNEL.1
! TR.MEASUREMENT
! RAW.DATA
# GHZ S RI R 50.0
! FREQ.GHZ         S11RE         S11IM         S21RE         S21IM         S12RE         S12IM         S22RE         S22IM         
!; PortSelection: Port_12
   0.001000000     1.0472040   -0.0654567    -0.0002694   -0.0009419    -0.0002167   -0.0009366     0.7992439   -0.5561290 
   0.002999900     0.9630174   -0.1914800    -0.0200570   -0.0142262    -0.0208795   -0.0145900     0.0532477   -0.8498659 
   0.004999800     0.8810279   -0.3102551    -0.1187989    0.0014010    -0.1243348    0.0043457    -0.6930766   -0.4296870 
   0.006999700     0.7155610   -0.3865267    -0.2306764    0.2852744    -0.2237881    0.3048971    -0.4166344    0.6511853 
   0.008999600     0.6384424   -0.2962526     0.2298652    0.5002051     0.2416621    0.4989810     0.5349568   -0.0302408 
   0.010999500     0.6700429   -0.3184531     0.4718966    0.2278027     0.4850492    0.2295834     0.0041864   -0.5324944 
   0.012999400     0.6528617   -0.3836240     0.5017514    0.0151044     0.5180327    0.0085762    -0.4141531   -0.4044871 
   0.014999300     0.6078944   -0.4432646     0.4814667   -0.1432917     0.4937223   -0.1590081    -0.5873757   -0.1326551 
   0.016999200     0.5490329   -0.4906642     0.4363510   -0.2787800     0.4388829   -0.2987422    -0.5850819    0.1376190 
   0.018999100     0.4815260   -0.5234791     0.3661760   -0.4017716     0.3587653   -0.4197527    -0.4639713    0.3485808 
   0.020999000     0.4079885   -0.5388356     0.2666517   -0.5111928     0.2516574   -0.5221273    -0.2714517    0.4711614 
   0.022998900     0.3354140   -0.5344055     0.1337169   -0.5995857     0.1167909   -0.6003166    -0.0540112    0.4924601 
   0.024998800     0.2689528   -0.4874870    -0.0003516   -0.6803259    -0.0520213   -0.6451114     0.1494815    0.4533477 
   0.026998700     0.2197984   -0.4688268    -0.2187713   -0.6557930    -0.2224976   -0.6429245     0.2741838    0.2637802 
   0.028998600     0.1898101   -0.4190598    -0.4083976   -0.5962406    -0.4041160   -0.5860087     0.3153582    0.0759565 
   0.030998500     0.1820568   -0.3709101    -0.5747888   -0.4752256    -0.5666242   -0.4708290     0.2605558   -0.0977608 
   0.032998400     0.1895855   -0.3194742    -0.7071964   -0.3528142    -0.6935894   -0.2993028     0.1501995   -0.2234511 
   0.034998300     0.2081221   -0.3144203    -0.7562259   -0.1115725    -0.7540311   -0.1139528    -0.0249935   -0.2421461 
   0.036998200     0.2229100   -0.3101272    -0.7589992    0.0852595    -0.7585143    0.0859160    -0.1667902   -0.1906531 
   0.038998100     0.2300353   -0.3153195    -0.7125967    0.2677367    -0.7114753    0.2720056    -0.2588921   -0.0845302 
   0.040998000     0.2287243   -0.3256029    -0.6264775    0.4292048    -0.6211141    0.4344130    -0.2911592    0.0457501 
   0.042997900     0.2179369   -0.3362987    -0.5082672    0.5620021    -0.4979146    0.5653841    -0.2623799    0.1731260 
   0.044997800     0.1979649   -0.3281395    -0.4141986    0.6712199    -0.3461575    0.6675575    -0.1996709    0.2939484 
   0.046997700     0.1771730   -0.3437222    -0.2073990    0.7311333    -0.1950786    0.7242947    -0.0721151    0.3285576 
   0.048997600     0.1552881   -0.3369972    -0.0371745    0.7632686    -0.0288322    0.7514325     0.0497206    0.3334546 
   0.050997500     0.1372031   -0.3240495     0.1361813    0.7572128     0.1389655    0.7429554     0.1616417    0.2890878 
   0.052997400     0.1243532   -0.3079119     0.3093501    0.7106805     0.3019691    0.6990594     0.2453328    0.2040355 
   0.054997300     0.1188207   -0.2912716     0.4646155    0.6268871     0.4568362    0.6171011     0.2868577    0.0941981 
   0.056997200     0.1202131   -0.2775880     0.5981705    0.5065387     0.5892730    0.5012133     0.2807848   -0.0209602 
   0.058997100     0.1261530   -0.2698444     0.7000310    0.3571163     0.6917324    0.3559844     0.2301759   -0.1220492 
   0.060997000     0.1334422   -0.2694431     0.7631076    0.1881817     0.7566856    0.1888404     0.1458798   -0.1920496 
   0.062996900     0.1385330   -0.2760990     0.7838166    0.0107421     0.7798633    0.0115645     0.0440837   -0.2210466 
   0.064996800     0.1384693   -0.2878798     0.7634851   -0.1644464     0.7601110   -0.1643733    -0.0560693   -0.2068471 
   0.066996700     0.1314529   -0.3019230     0.7052912   -0.3278137     0.7002704   -0.3282986    -0.1378832   -0.1557518 
   0.068996600     0.1170150   -0.3151103     0.6138710   -0.4717397     0.6071919   -0.4711053    -0.1890651   -0.0796283 
   0.070996500     0.0967353   -0.3248937     0.4960373   -0.5920669     0.4881255   -0.5884808    -0.2037657    0.0062670 
   0.072996400     0.0720715   -0.3281775     0.3570910   -0.6837834     0.3492474   -0.6762834    -0.1834337    0.0863647 
   0.074996300     0.0458297   -0.3243403     0.2027644   -0.7440861     0.1977173   -0.7327362    -0.1343188    0.1483703 
   0.076996200     0.0209325   -0.3127964     0.0393622   -0.7716240     0.0388013   -0.7583650    -0.0669799    0.1832805 
   0.078996100    -0.0000649   -0.2946575    -0.1268754   -0.7650365    -0.1219094   -0.7513334     0.0062782    0.1874891 
   0.080996000    -0.0152672   -0.2716989    -0.2895212   -0.7229328    -0.2796524   -0.7115440     0.0724909    0.1618198 
   0.082995900    -0.0230631   -0.2465114    -0.4410322   -0.6459784    -0.4281035   -0.6396264     0.1210001    0.1118385 
   0.084995800    -0.0226236   -0.2215558    -0.5729660   -0.5374693    -0.5590792   -0.5361565     0.1431633    0.0479300 
   0.086995700    -0.0158369   -0.2004333    -0.6790171   -0.4010104    -0.6662096   -0.4038900     0.1360206   -0.0185459 
   0.088995600    -0.0045174   -0.1848372    -0.7523115   -0.2434409    -0.7419172   -0.2495890     0.1013619   -0.0749212 
   0.090995500     0.0088975   -0.1759571    -0.7886791   -0.0729051    -0.7811928   -0.0802980     0.0461384   -0.1105239 
   0.092995400     0.0214837   -0.1735863    -0.7865865    0.1013814    -0.7804689    0.0940249    -0.0190075   -0.1190058 
   0.094995300     0.0308339   -0.1760329    -0.7446638    0.2696261    -0.7397958    0.2630391    -0.0818012   -0.0986310 
   0.096995200     0.0357827   -0.1815605    -0.6673526    0.4239021    -0.6625915    0.4172855    -0.1300086   -0.0534450 
   0.098995100     0.0358728   -0.1877774    -0.5594389    0.5567836    -0.5543176    0.5489899    -0.1549514    0.0076723 
   0.100995000     0.0301122   -0.1937433    -0.4241424    0.6643952    -0.4211026    0.6539572    -0.1517472    0.0751183 
   0.102994900     0.0230421   -0.1954453    -0.2718211    0.7384362    -0.2715667    0.7262928    -0.1224570    0.1344409 
   0.104994800     0.0150348   -0.1935867    -0.1080712    0.7784817    -0.1113109    0.7657712    -0.0719039    0.1770373 
   0.106994700     0.0075650   -0.1881455     0.0602306    0.7830128     0.0529174    0.7714059    -0.0091008    0.1963369 
   0.108994600     0.0025167   -0.1802177     0.2256201    0.7523203     0.2147660    0.7437025     0.0557302    0.1895569 
   0.110994500     0.0005901   -0.1710620     0.3810122    0.6870235     0.3679808    0.6824728     0.1125604    0.1583741 
   0.112994400     0.0019758   -0.1622482     0.5195848    0.5903221     0.5061834    0.5903191     0.1521951    0.1085196 
   0.114994300     0.0062260   -0.1551437     0.6343772    0.4657821     0.6222544    0.4693215     0.1688215    0.0482729 
   0.116994200     0.0121977   -0.1507219     0.7198816    0.3189558     0.7102203    0.3254234     0.1606580   -0.0125848 
   0.118994100     0.0184938   -0.1495866     0.7714217    0.1568742     0.7646567    0.1646767     0.1298207   -0.0637296 
   0.120994000     0.0240679   -0.1513010     0.7867615   -0.0120362     0.7823718   -0.0044904     0.0822453   -0.0972027 
   0.122993900     0.0271858   -0.1553180     0.7650259   -0.1802104     0.7618303   -0.1729118     0.0267265   -0.1077539 
   0.124993800     0.0275734   -0.1604268     0.7076987   -0.3392338     0.7051324   -0.3320176    -0.0268381   -0.0945304 
   0.126993700     0.0252053   -0.1650330     0.6179715   -0.4815990     0.6160703   -0.4735876    -0.0686661   -0.0605277 
   0.128993600     0.0205422   -0.1680445     0.5001572   -0.6008388     0.4995421   -0.5917474    -0.0913525   -0.0132135 
   0.130993500     0.0147634   -0.1690945     0.3605517   -0.6921745     0.3621053   -0.6821202    -0.0916966    0.0382756 
   0.132993400     0.0088942   -0.1678744     0.2053616   -0.7521751     0.2096550   -0.7417261    -0.0701597    0.0845634 
   0.134993300     0.0039226   -0.1647386     0.0410925   -0.7779862     0.0488860   -0.7684118    -0.0311507    0.1171410 
   0.136993200     0.0004869   -0.1602870    -0.1246876   -0.7685218    -0.1137906   -0.7616049     0.0182999    0.1304038 
   0.138993100    -0.0008026   -0.1557860    -0.2849077   -0.7244306    -0.2721064   -0.7209690     0.0691702    0.1218911 
   0.140993000    -0.0002799   -0.1521543    -0.4320222   -0.6471927    -0.4188516   -0.6476306     0.1126001    0.0929609 
   0.142992900     0.0013176   -0.1502382    -0.5594727   -0.5403167    -0.5475871   -0.5446311     0.1411140    0.0481962 
   0.144992800     0.0030959   -0.1506225    -0.6614066   -0.4086437    -0.6520612   -0.4158994     0.1493869   -0.0047381 
   0.146992700     0.0037614   -0.1528442    -0.7322974   -0.2584069    -0.7256494   -0.2667088     0.1361531   -0.0572931 
   0.148992600     0.0023732   -0.1565603    -0.7693766   -0.0964663    -0.7649247   -0.1053421     0.1032212   -0.1010240 
   0.150992500    -0.0015334   -0.1604473    -0.7702365    0.0685070    -0.7678807    0.0600849     0.0556119   -0.1286762 
   0.152992400    -0.0083065   -0.1638285    -0.7368318    0.2295866    -0.7351707    0.2216218     0.0008854   -0.1358491 
   0.154992300    -0.0174016   -0.1652764    -0.6703041    0.3791565    -0.6695621    0.3708945    -0.0521988   -0.1214263 
   0.156992200    -0.0279983   -0.1637150    -0.5742501    0.5108481    -0.5747097    0.5021754    -0.0952209   -0.0881611 
   0.158992100    -0.0389381   -0.1585445    -0.4535888    0.6190705    -0.4556430    0.6098699    -0.1218575   -0.0418219 
   0.160992000    -0.0488046   -0.1501427    -0.3132406    0.6996741    -0.3176356    0.6901556    -0.1285380    0.0099572 
   0.162991900    -0.0564983   -0.1388374    -0.1596277    0.7493511    -0.1668420    0.7408677    -0.1152365    0.0591291 
   0.164991800    -0.0609463   -0.1253609     0.0009724    0.7662815    -0.0085311    0.7597368    -0.0851447    0.0980258 
   0.166991700    -0.0617347   -0.1114228     0.1618697    0.7495707     0.1504966    0.7455803    -0.0437640    0.1213624 
   0.168991600    -0.0589070   -0.0980992     0.3161973    0.6993166     0.3039717    0.6989057     0.0016158    0.1264005 
   0.170991500    -0.0529965   -0.0865089     0.4569428    0.6176598     0.4457873    0.6206745     0.0433109    0.1135873 
   0.172991400    -0.0449780   -0.0775898     0.5777605    0.5078071     0.5683365    0.5131625     0.0748026    0.0861857 
   0.174991300    -0.0359513   -0.0717542     0.6726422    0.3742821     0.6655580    0.3816631     0.0914317    0.0499655 
   0.176991200    -0.0271498   -0.0688346     0.7371498    0.2236526     0.7321821    0.2312400     0.0910763    0.0118598 
   0.178991100    -0.0195370   -0.0682024     0.7681568    0.0620790     0.7648854    0.0698119     0.0748291   -0.0210946 
   0.180991000    -0.0137401   -0.0689964     0.7641323   -0.1020941     0.7617773   -0.0944939     0.0465408   -0.0427516 
   0.182990900    -0.0097895   -0.0701141     0.7248299   -0.2616399     0.7237464   -0.2535751     0.0119388   -0.0492045 
   0.184990800    -0.0073834   -0.0706607     0.6529350   -0.4088409     0.6525322   -0.4006995    -0.0218047   -0.0396421 
   0.186990700    -0.0057770   -0.0700054     0.5515502   -0.5371069     0.5523119   -0.5287049    -0.0476349   -0.0159823 
   0.188990600    -0.0026736   -0.0679170     0.4444344   -0.6275406     0.4438875   -0.6215079    -0.0616524    0.0155813 
   0.190990500    -0.0010104   -0.0647721     0.2829750   -0.7149471     0.2882340   -0.7070101    -0.0581933    0.0533838 
   0.192990400     0.0034688   -0.0611812     0.1222709   -0.7592445     0.1303509   -0.7526844    -0.0396484    0.0864835 
   0.194990300     0.0103661   -0.0581522    -0.0411911   -0.7680239    -0.0312274   -0.7637968    -0.0087022    0.1096043 
   0.196990200     0.0191103   -0.0568974    -0.2029765   -0.7419936    -0.1919735   -0.7411613     0.0299077    0.1187330 
   0.198990100     0.0291787   -0.0583105    -0.3559456   -0.6822664    -0.3449912   -0.6843969     0.0701518    0.1118144 
   0.200990000     0.0394777   -0.0631190    -0.4927631   -0.5908519    -0.4829737   -0.5956327     0.1052033    0.0896852 
   0.202989900     0.0486113   -0.0715291    -0.6068401   -0.4719568    -0.5992435   -0.4789458     0.1294857    0.0556052 
   0.204989800     0.0553362   -0.0831061    -0.6927634   -0.3316505    -0.6873007   -0.3393167     0.1394842    0.0145717 
   0.206989700     0.0584797   -0.0970423    -0.7463181   -0.1765392    -0.7424279   -0.1842982     0.1334306   -0.0268395 
   0.208989600     0.0571574   -0.1118925    -0.7651299   -0.0136342    -0.7626591   -0.0222114     0.1127244   -0.0627783 
   0.210989500     0.0512696   -0.1261580    -0.7485844    0.1481042    -0.7473029    0.1400068     0.0809309   -0.0879509 
   0.212989400     0.0409729   -0.1384175    -0.6981573    0.3021787    -0.6980309    0.2943114     0.0432121   -0.0992497 
   0.214989300     0.0271906   -0.1474127    -0.6168032    0.4412744    -0.6180096    0.4330032     0.0054292   -0.0958494 
   0.216989200     0.0111904   -0.1519057    -0.5088458    0.5593500    -0.5120000    0.5512433    -0.0266323   -0.0794015 
   0.218989100    -0.0056938   -0.1518010    -0.3792788    0.6518183    -0.3846360    0.6441681    -0.0485919   -0.0538476 
   0.220989000    -0.0218248   -0.1468060    -0.2341675    0.7150937    -0.2414151    0.7086780    -0.0585049   -0.0242890 
   0.222988900    -0.0361306   -0.1373644    -0.0797245    0.7470447    -0.0883015    0.7429590    -0.0564272    0.0042404 
   0.224988800    -0.0472748   -0.1243125     0.0779732    0.7465848     0.0688557    0.7447680    -0.0444656    0.0271585 
   0.226988700    -0.0545682   -0.1087678     0.2319193    0.7135143     0.2231106    0.7141412    -0.0264164    0.0412504 
   0.228988600    -0.0573425   -0.0918316     0.3758104    0.6495736     0.3676843    0.6521573    -0.0068014    0.0454547 
   0.230988500    -0.0556944   -0.0746637     0.5039060    0.5570610     0.4969487    0.5611500     0.0100019    0.0405971 
   0.232988400    -0.0493937   -0.0584784     0.6097724    0.4391651     0.6044236    0.4444064     0.0201691    0.0292902 
   0.234988300    -0.0391018   -0.0444518     0.6894341    0.3014959     0.6851249    0.3070962     0.0216306    0.0155400 
   0.236988200    -0.0254718   -0.0335227     0.7384430    0.1495137     0.7351531    0.1553496     0.0142204    0.0038620 
   0.238988100    -0.0094320   -0.0264700     0.7544110   -0.0100501     0.7515722   -0.0042006    -0.0002410   -0.0016035 
   0.240988000     0.0079102   -0.0237430     0.7355113   -0.1700411     0.7334346   -0.1631917    -0.0178680    0.0022390 
   0.242987900     0.0254921   -0.0254270     0.6829671   -0.3224052     0.6825895   -0.3143268    -0.0339006    0.0164671 
   0.244987800     0.0421149   -0.0312914     0.5985765   -0.4604103     0.6005926   -0.4510239    -0.0436199    0.0398938 
   0.246987700     0.0569488   -0.0409244     0.4866089   -0.5769321     0.4911668   -0.5677567    -0.0426321    0.0693510 
   0.248987600     0.0692095   -0.0537817     0.3523158   -0.6664270     0.3595582   -0.6587798    -0.0285407    0.0998895 
   0.250987500     0.0783995   -0.0689588     0.2017755   -0.7250434     0.2110803   -0.7199371    -0.0013365    0.1258938 
   0.252987400     0.0842455   -0.0858145     0.0428131   -0.7497135     0.0533046   -0.7477456     0.0366499    0.1419283 
   0.254987300     0.0865753   -0.1037869    -0.1170885   -0.7397528    -0.1066264   -0.7410824     0.0812805    0.1439620 
   0.256987200     0.0854749   -0.1221517    -0.2705822   -0.6958684    -0.2611012   -0.7004625     0.1269571    0.1297591 
   0.258987100     0.0808852   -0.1404929    -0.4103056   -0.6210409    -0.4030257   -0.6272641     0.1673012    0.0997707 
   0.260987000     0.0724961   -0.1576859    -0.5304136   -0.5183075    -0.5255634   -0.5254309     0.1967052    0.0563867 
   0.262986900     0.0606669   -0.1733581    -0.6252754   -0.3932787    -0.6224936   -0.4003266     0.2108276    0.0042348 
   0.264986800     0.0454755   -0.1870816    -0.6912751   -0.2517899    -0.6901357   -0.2582964     0.2073067   -0.0505459 
   0.266986700     0.0275374   -0.1977437    -0.7259008   -0.1006402    -0.7254268   -0.1061715     0.1861345   -0.1018730 
   0.268986600     0.0070970   -0.2048451    -0.7281305    0.0532611    -0.7281477    0.0480890     0.1496688   -0.1434769 
   0.270986500    -0.0146324   -0.2079534    -0.6984889    0.2031507    -0.6989841    0.1980085     0.1023513   -0.1709266 
   0.272986400    -0.0372511   -0.2067536    -0.6387953    0.3428305    -0.6402630    0.3372512     0.0501467   -0.1813310 
   0.274986300    -0.0594117   -0.2007359    -0.5522593    0.4667931    -0.5549626    0.4607490    -0.0009832   -0.1746304 
   0.276986200    -0.0802982   -0.1900461    -0.4425422    0.5700600    -0.4473379    0.5643244    -0.0445778   -0.1527276 
   0.278986100    -0.0986626   -0.1749679    -0.3143492    0.6485325    -0.3205411    0.6436973    -0.0768516   -0.1198670 
   0.280986000    -0.1136690   -0.1558124    -0.1730289    0.6991947    -0.1800610    0.6961406    -0.0948698   -0.0814099 
   0.282985900    -0.1242182   -0.1337991    -0.0241866    0.7200208    -0.0314326    0.7188787    -0.0985797   -0.0428976 
   0.284985800    -0.1296263   -0.1100907     0.1259939    0.7098382     0.1194606    0.7102913    -0.0899919   -0.0096035 
   0.286985700    -0.1293309   -0.0858781     0.2715809    0.6689446     0.2661254    0.6704863    -0.0726990    0.0147122 
   0.288985600    -0.1234704   -0.0626706     0.4061646    0.5983371     0.4013458    0.6008602    -0.0515386    0.0284161 
   0.290985500    -0.1124449   -0.0417856     0.5237902    0.5006592     0.5192028    0.5039373    -0.0314068    0.0316078 
   0.292985400    -0.0971028   -0.0247079     0.6185205    0.3797430     0.6141744    0.3840537    -0.0166013    0.0265810 
   0.294985300    -0.0782929   -0.0120721     0.6860751    0.2405196     0.6821299    0.2461096    -0.0098297    0.0172701 
   0.296985200    -0.0573316   -0.0044976     0.7223752    0.0896180     0.7189435    0.0961487    -0.0118885    0.0082459 
   0.298985100    -0.0356453   -0.0024115     0.7252510   -0.0663643     0.7228010   -0.0593512    -0.0212416    0.0041010 
   0.300985000    -0.0147057   -0.0057552     0.6940143   -0.2196527     0.6933138   -0.2122800    -0.0343206    0.0083297 
   0.302984900     0.0041779   -0.0140783     0.6302080   -0.3626215     0.6315145   -0.3551224    -0.0464293    0.0223534 
   0.304984800     0.0201227   -0.0265859     0.5366267   -0.4881552     0.5402191   -0.4811160    -0.0523374    0.0453398 
   0.306984700     0.0323855   -0.0424874     0.4182896   -0.5899932     0.4239033   -0.5846511    -0.0476370    0.0738499 
   0.308984600     0.0403893   -0.0605974     0.2811545   -0.6631269     0.2883603   -0.6599694    -0.0296190    0.1025373 
   0.310984500     0.0439024   -0.0798936     0.1325126   -0.7040892     0.1400273   -0.7035251     0.0017883    0.1254254 
   0.312984400     0.0429300   -0.0995748    -0.0203596   -0.7118312    -0.0133121   -0.7134591     0.0436380    0.1362745 
   0.314984300     0.0375796   -0.1189643    -0.1696960   -0.6862878    -0.1639178   -0.6897170     0.0904533    0.1306419 
