! MS46122B
! 2250307/22442219
! 2/20/2026 8:48:08 AM
! C:\USERS\SPARKY\DOCUMENTS\VNA_DATA\FEB20_2026\PORT3.S2P
! CHANNEL.1
! TR.MEASUREMENT
! RAW.DATA
# GHZ S RI R 50.0
! FREQ.GHZ         S11RE         S11IM         S21RE         S21IM         S12RE         S12IM         S22RE         S22IM         
!; PortSelection: Port_12
   0.001000000     1.0473670   -0.0658579    -0.0000008   -0.0000020     0.0000046   -0.0000040     0.7982739   -0.5578317 
   0.002999900     0.9575654   -0.2054047     0.0000023    0.0000041    -0.0000036    0.0000002     0.0158303   -0.8491405 
   0.004999800     0.7512614   -0.4446228     0.0000569   -0.0000132     0.0000602   -0.0000204    -0.7430045   -0.3731361 
   0.006999700     0.9532902    0.0885598    -0.0002265    0.0000252    -0.0002345    0.0000332    -0.6861765    0.6044363 
   0.008999600     0.9354490   -0.2013815    -0.0001262    0.0001607    -0.0001208    0.0001676     0.2440511    0.9285803 
   0.010999500     0.8906897   -0.3160914    -0.0000161    0.0002185    -0.0000098    0.0002154     0.8559693    0.3756011 
   0.012999400     0.8464974   -0.4023744     0.0000786    0.0002192     0.0000793    0.0002190     0.8657594   -0.2536413 
   0.014999300     0.8011156   -0.4778806     0.0001560    0.0001942     0.0001573    0.0001926     0.5942190   -0.6583146 
   0.016999200     0.7520344   -0.5474329     0.0002302    0.0001441     0.0002280    0.0001444     0.2476250   -0.8493425 
   0.018999100     0.6980726   -0.6125279     0.0002623    0.0000926     0.0002707    0.0000923    -0.0867088   -0.8843513 
   0.020999000     0.6379994   -0.6728218     0.0002986    0.0000377     0.0003042    0.0000366    -0.3732684   -0.8121034 
   0.022998900     0.5705752   -0.7277843     0.0003208   -0.0000313     0.0003285   -0.0000340    -0.5980543   -0.6680537 
   0.024998800     0.4910016   -0.7415727     0.0003537   -0.0000836     0.0003418   -0.0001113    -0.8036959   -0.5280893 
   0.026998700     0.4082829   -0.8192323     0.0003433   -0.0001698     0.0003461   -0.0001843    -0.8537052   -0.2702801 
   0.028998600     0.3112554   -0.8517540     0.0003368   -0.0002543     0.0003364   -0.0002669    -0.8905718   -0.0539164 
   0.030998500     0.2028059   -0.8722384     0.0003208   -0.0003453     0.0003148   -0.0003623    -0.8749359    0.1558290 
   0.032998400     0.0946097   -0.8468528     0.0003190   -0.0004472     0.0002631   -0.0004610    -0.8792052    0.3651952 
   0.034998300    -0.0486105   -0.8622178     0.0002230   -0.0005583     0.0001982   -0.0005594    -0.7125289    0.5207483 
   0.036998200    -0.1887391   -0.8201927     0.0001174   -0.0006681     0.0001000   -0.0006599    -0.5802771    0.6632987 
   0.038998100    -0.3338285   -0.7455328    -0.0000265   -0.0007751    -0.0000400   -0.0007528    -0.4230458    0.7733372 
   0.040998000    -0.4756028   -0.6295857    -0.0002211   -0.0008587    -0.0002317   -0.0008264    -0.2460384    0.8476273 
   0.042997900    -0.6004378   -0.4656970    -0.0004796   -0.0008969    -0.0004618   -0.0008536    -0.0577365    0.8830429 
   0.044997800    -0.6626055   -0.2555892    -0.0007774   -0.0009255    -0.0007625   -0.0008080     0.1347965    0.9523684 
   0.046997700    -0.7112170    0.0091291    -0.0011249   -0.0006870    -0.0010626   -0.0006653     0.3255448    0.8284864 
   0.048997600    -0.6419253    0.2871843    -0.0014112   -0.0003624    -0.0013430   -0.0003768     0.5021182    0.7371475 
   0.050997500    -0.4668103    0.5389359    -0.0015577   -0.0000089    -0.0014984   -0.0000590     0.6556877    0.6062714 
   0.052997400    -0.1996683    0.7124244    -0.0016336    0.0005654    -0.0016043    0.0004903     0.7776031    0.4394883 
   0.054997300     0.1101894    0.7703131    -0.0014431    0.0010849    -0.0014569    0.0010177     0.8575459    0.2465685 
   0.056997200     0.4034885    0.7119271    -0.0010796    0.0014982    -0.0011145    0.0014484     0.8898001    0.0369182 
   0.058997100     0.6379152    0.5673617    -0.0006061    0.0017488    -0.0006547    0.0017294     0.8704202   -0.1772104 
   0.060997000     0.7971843    0.3769584    -0.0000993    0.0018395    -0.0001589    0.0018393     0.7985906   -0.3833560 
   0.062996900     0.8853762    0.1731978     0.0003793    0.0017775     0.0003364    0.0017931     0.6776145   -0.5665948 
   0.064996800     0.9154691   -0.0230054     0.0008023    0.0015907     0.0007779    0.0016196     0.5143088   -0.7148188 
   0.066996700     0.9026413   -0.2012562     0.0011310    0.0013285     0.0011288    0.0013503     0.3190918   -0.8184467 
   0.068996600     0.8579378   -0.3574922     0.0013705    0.0010194     0.0013784    0.0010270     0.1047338   -0.8697232 
   0.070996500     0.7924974   -0.4919510     0.0015304    0.0006844     0.0015428    0.0006817    -0.1140801   -0.8657087 
   0.072996400     0.7098437   -0.6045206     0.0016136    0.0003419     0.0016202    0.0003273    -0.3230546   -0.8089366 
   0.074996300     0.6163184   -0.6968088     0.0016312    0.0000072     0.0016203   -0.0000158    -0.5091817   -0.7033684 
   0.076996200     0.5146775   -0.7711437     0.0015823   -0.0003032     0.0015611   -0.0003304    -0.6617050   -0.5581773 
   0.078996100     0.4073544   -0.8277721     0.0014851   -0.0005980     0.0014529   -0.0006206    -0.7730408   -0.3837795 
   0.080996000     0.2955744   -0.8679246     0.0013513   -0.0008719     0.0012985   -0.0008753    -0.8388702   -0.1914247 
   0.082995900     0.1809143   -0.8922113     0.0011728   -0.0011071     0.0011115   -0.0010938    -0.8580124    0.0077481 
   0.084995800     0.0647287   -0.8996922     0.0009596   -0.0013139     0.0009055   -0.0012810    -0.8320208    0.2021007 
   0.086995700    -0.0523422   -0.8924286     0.0007191   -0.0014865     0.0006740   -0.0014297    -0.7634077    0.3826081 
   0.088995600    -0.1688407   -0.8687639     0.0004520   -0.0016275     0.0004212   -0.0015507    -0.6580766    0.5411946 
   0.090995500    -0.2834121   -0.8289533     0.0001558   -0.0017319     0.0001542   -0.0016382    -0.5225270    0.6712540 
   0.092995400    -0.3949548   -0.7726119    -0.0001648   -0.0017862    -0.0001380   -0.0016912    -0.3632029    0.7672999 
   0.094995300    -0.5005066   -0.6964292    -0.0005132   -0.0017915    -0.0004535   -0.0017047    -0.1879612    0.8259014 
   0.096995200    -0.5972158   -0.6011914    -0.0008727   -0.0017382    -0.0007838   -0.0016657    -0.0050985    0.8456917 
   0.098995100    -0.6816655   -0.4861836    -0.0012385   -0.0016161    -0.0011269   -0.0015728     0.1769123    0.8251301 
   0.100995000    -0.7511890   -0.3489408    -0.0016385   -0.0014013    -0.0015026   -0.0013929     0.3507214    0.7654741 
   0.102994900    -0.7954537   -0.1950844    -0.0019912   -0.0010959    -0.0018555   -0.0011379     0.5063430    0.6693196 
   0.104994800    -0.8104672   -0.0256300    -0.0022982   -0.0007007    -0.0021854   -0.0007887     0.6377169    0.5416855 
   0.106994700    -0.7888188    0.1539735    -0.0025296   -0.0002029    -0.0024591   -0.0003214     0.7380612    0.3874537 
   0.108994600    -0.7259068    0.3359271    -0.0026520    0.0003878    -0.0026341    0.0002499     0.8021199    0.2139986 
   0.110994500    -0.6171866    0.5076697    -0.0026193    0.0010346    -0.0026611    0.0009069     0.8263625    0.0295564 
   0.112994400    -0.4627423    0.6550471    -0.0024092    0.0016805    -0.0024938    0.0015952     0.8084382   -0.1568699 
   0.114994300    -0.2685843    0.7628452    -0.0020373    0.0023142    -0.0021444    0.0022759     0.7482789   -0.3352402 
   0.116994200    -0.0475813    0.8176782    -0.0014632    0.0028459    -0.0015602    0.0028659     0.6481178   -0.4964336 
   0.118994100     0.1829188    0.8115038    -0.0007267    0.0032136    -0.0007861    0.0032714     0.5128165   -0.6308790 
   0.120994000     0.4034623    0.7458991     0.0000939    0.0033655     0.0000921    0.0034300     0.3488656   -0.7307178 
   0.122993900     0.5944905    0.6249872     0.0009359    0.0032761     0.0009809    0.0033155     0.1654678   -0.7893978 
   0.124993800     0.7431848    0.4637584     0.0017253    0.0029568     0.0017891    0.0029477    -0.0270091   -0.8037043 
   0.126993700     0.8428882    0.2784518     0.0023811    0.0024466     0.0024302    0.0023908    -0.2171351   -0.7718245 
   0.128993600     0.8912501    0.0845253     0.0028671    0.0017994     0.0028802    0.0017050    -0.3945574   -0.6958563 
   0.130993500     0.8956507   -0.1050572     0.0031660    0.0010742     0.0031234    0.0009691    -0.5485944   -0.5803412 
   0.132993400     0.8615066   -0.2812127     0.0032767    0.0003344     0.0031846    0.0002441    -0.6704215   -0.4322294 
   0.134993300     0.7961864   -0.4379732     0.0032232   -0.0003784     0.0030865   -0.0004328    -0.7533996   -0.2602103 
   0.136993200     0.7062738   -0.5716982     0.0030236   -0.0010409     0.0028640   -0.0010388    -0.7935570   -0.0748265 
   0.138993100     0.5986512   -0.6818060     0.0027069   -0.0016197     0.0025509   -0.0015591    -0.7893809    0.1137125 
   0.140993000     0.4788983   -0.7673360     0.0023006   -0.0021054     0.0021706   -0.0019902    -0.7417406    0.2946177 
   0.142992900     0.3511078   -0.8294711     0.0018218   -0.0024943     0.0017346   -0.0023401    -0.6543639    0.4586764 
   0.144992800     0.2195619   -0.8694929     0.0012960   -0.0027930     0.0012638   -0.0026119    -0.5321369    0.5967809 
   0.146992700     0.0859837   -0.8870289     0.0007360   -0.0029866     0.0007660   -0.0028017    -0.3826485    0.7029959 
   0.148992600    -0.0466979   -0.8839930     0.0001541   -0.0030776     0.0002445   -0.0029116    -0.2139955    0.7723861 
   0.150992500    -0.1754796   -0.8596109    -0.0004358   -0.0030644    -0.0002951   -0.0029403    -0.0349285    0.8023233 
   0.152992400    -0.2990818   -0.8174472    -0.0010201   -0.0029591    -0.0008460   -0.0028848     0.1459199    0.7902324 
   0.154992300    -0.4150103   -0.7565078    -0.0015790   -0.0027506    -0.0013939   -0.0027377     0.3190328    0.7379794 
   0.156992200    -0.5221694   -0.6777677    -0.0021096   -0.0024388    -0.0019302   -0.0024914     0.4755558    0.6481326 
   0.158992100    -0.6168302   -0.5822855    -0.0025897   -0.0020264    -0.0024429   -0.0021365     0.6080853    0.5252987 
   0.160992000    -0.6971834   -0.4707040    -0.0029984   -0.0015211    -0.0029010   -0.0016742     0.7095744    0.3753554 
   0.162991900    -0.7600392   -0.3441214    -0.0033198   -0.0009324    -0.0032826   -0.0011050     0.7748427    0.2061116 
   0.164991800    -0.8025330   -0.2042257    -0.0035343   -0.0002677    -0.0035624   -0.0004313     0.7998398    0.0258005 
   0.166991700    -0.8210575   -0.0547069    -0.0036187    0.0004534    -0.0037033    0.0003266     0.7828795   -0.1560010 
   0.168991600    -0.8123837    0.1018816    -0.0035591    0.0012096    -0.0036772    0.0011345     0.7247323   -0.3298391 
   0.170991500    -0.7732052    0.2607316    -0.0033413    0.0019768    -0.0034608    0.0019614     0.6278452   -0.4862759 
   0.172991400    -0.7014726    0.4148769    -0.0029502    0.0027191    -0.0030448    0.0027591     0.4965824   -0.6165797 
   0.174991300    -0.5966737    0.5570970    -0.0023919    0.0033920    -0.0024347    0.0034680     0.3382458   -0.7131321 
   0.176991200    -0.4590630    0.6790710    -0.0016607    0.0039557    -0.0016413    0.0040360     0.1611453   -0.7704329 
   0.178991100    -0.2925333    0.7718105    -0.0007809    0.0043638    -0.0006993    0.0044122    -0.0246198   -0.7847275 
   0.180991000    -0.1046743    0.8277822     0.0002213    0.0045688     0.0003349    0.0045535    -0.2089392   -0.7549523 
   0.182990900     0.0955815    0.8384006     0.0012896    0.0045283     0.0013938    0.0044346    -0.3814737   -0.6829838 
   0.184990800     0.2963291    0.8017949     0.0023517    0.0042180     0.0024229    0.0040484    -0.5322455   -0.5728467 
   0.186990700     0.4838329    0.7189698     0.0033323    0.0036316     0.0033201    0.0034185    -0.6528773   -0.4306770 
   0.188990600     0.6278384    0.6118175     0.0040682    0.0029168     0.0039745    0.0026805    -0.7304336   -0.2851152 
   0.190990500     0.7705202    0.4396496     0.0047398    0.0017815     0.0045252    0.0016168    -0.7803570   -0.0872260 
   0.192990400     0.8588266    0.2577282     0.0050531    0.0006071     0.0047776    0.0005480    -0.7811899    0.1006954 
   0.194990300     0.9011039    0.0685994     0.0050605   -0.0005758     0.0047725   -0.0005177    -0.7393534    0.2803585 
   0.196990200     0.9008642   -0.1192520     0.0047845   -0.0017099     0.0045348   -0.0015358    -0.6580310    0.4452586 
   0.198990100     0.8621334   -0.2966163     0.0042535   -0.0027247     0.0040924   -0.0024630    -0.5417535    0.5868767 
   0.200990000     0.7902734   -0.4568909     0.0035255   -0.0035662     0.0034748   -0.0032635    -0.3967502    0.6984271 
   0.202989900     0.6910392   -0.5947757     0.0026482   -0.0042149     0.0027178   -0.0039141    -0.2306378    0.7747365 
   0.204989800     0.5715989   -0.7073163     0.0016762   -0.0046449     0.0018486   -0.0043965    -0.0516254    0.8115600 
   0.206989700     0.4385224   -0.7933735     0.0006632   -0.0048609     0.0009094   -0.0046958     0.1312564    0.8075585 
   0.208989600     0.2953511   -0.8514104    -0.0003538   -0.0048672    -0.0000674   -0.0048027     0.3089575    0.7629628 
   0.210989500     0.1477918   -0.8822630    -0.0013288   -0.0046752    -0.0010588   -0.0047144     0.4731803    0.6793539 
   0.212989400    -0.0004139   -0.8874530    -0.0022372   -0.0043033    -0.0020176   -0.0044300     0.6149229    0.5607799 
   0.214989300    -0.1450828   -0.8673906    -0.0030557   -0.0037676    -0.0029056   -0.0039520     0.7272755    0.4123923 
   0.216989200    -0.2820846   -0.8235867    -0.0037535   -0.0030958    -0.0036876   -0.0032971     0.8039180    0.2413560 
   0.218989100    -0.4093720   -0.7578736    -0.0043118   -0.0023030    -0.0043228   -0.0024878     0.8403584    0.0560928 
   0.220989000    -0.5244612   -0.6715013    -0.0047147   -0.0014296    -0.0047867   -0.0015731     0.8335347   -0.1343752 
   0.222988900    -0.6239103   -0.5663676    -0.0049683   -0.0004886    -0.0050687   -0.0005691     0.7831644   -0.3200234 
   0.224988800    -0.7048832   -0.4443662    -0.0050485    0.0005061    -0.0051468    0.0004962     0.6902891   -0.4908741 
   0.226988700    -0.7643690   -0.3079949    -0.0049494    0.0015285    -0.0050163    0.0015717     0.5589527   -0.6370862 
   0.228988600    -0.7994885   -0.1608536    -0.0046356    0.0025577    -0.0046536    0.0026266     0.3955818   -0.7497106 
   0.230988500    -0.8078552   -0.0060134    -0.0041091    0.0035223    -0.0040640    0.0035910     0.2081437   -0.8212435 
   0.232988400    -0.7855800    0.1513618    -0.0033768    0.0043958    -0.0032809    0.0044390     0.0070280   -0.8463637 
   0.234988300    -0.7332256    0.3069170    -0.0024485    0.0051436    -0.0023207    0.0051243    -0.1957645   -0.8224522 
   0.236988200    -0.6489064    0.4531412    -0.0013432    0.0057039    -0.0012067    0.0056123    -0.3879622   -0.7496434 
   0.238988100    -0.5334677    0.5831707    -0.0000827    0.0060257     0.0000286    0.0058651    -0.5572585   -0.6316661 
   0.240988000    -0.3896417    0.6886801     0.0012816    0.0060644     0.0013249    0.0058471    -0.6933026   -0.4761581 
   0.242987900    -0.2228651    0.7632653     0.0026806    0.0057780     0.0026259    0.0055322    -0.7871932   -0.2923255 
   0.244987800    -0.0397189    0.8002855     0.0040278    0.0051325     0.0038692    0.0049095    -0.8338016   -0.0920195 
   0.246987700     0.1504878    0.7957062     0.0052199    0.0041389     0.0049666    0.0039880    -0.8308296    0.1128132 
   0.248987600     0.3367763    0.7472676     0.0061457    0.0028442     0.0058376    0.0027983    -0.7793689    0.3096253 
   0.250987500     0.5083337    0.6570519     0.0067160    0.0013159     0.0064059    0.0013981    -0.6836998    0.4873169 
   0.252987400     0.6542935    0.5309522     0.0068722   -0.0003236     0.0066216   -0.0001167    -0.5501196    0.6365495 
   0.254987300     0.7664878    0.3767768     0.0066039   -0.0019483     0.0064572   -0.0016520    -0.3871376    0.7497504 
   0.256987200     0.8401958    0.2041637     0.0059204   -0.0034344     0.0059121   -0.0031083    -0.2037499    0.8221754 
   0.258987100     0.8748854    0.0235241     0.0049080   -0.0046712     0.0050278   -0.0043738    -0.0098542    0.8506801 
   0.260987000     0.8693584   -0.1560323     0.0036560   -0.0055932     0.0038728   -0.0053761     0.1841526    0.8349596 
   0.262986900     0.8276509   -0.3258062     0.0022713   -0.0061676     0.0025328   -0.0060629     0.3691299    0.7764263 
   0.264986800     0.7546051   -0.4790795     0.0008365   -0.0064022     0.0010939   -0.0064039     0.5358335    0.6783388 
   0.266986700     0.6555380   -0.6110212    -0.0005564   -0.0063143    -0.0003461   -0.0064002     0.6767987    0.5460935 
   0.268986600     0.5370904   -0.7183332    -0.0018438   -0.0059446    -0.0017019   -0.0060768     0.7850142    0.3855062 
   0.270986500     0.4052094   -0.7993808    -0.0029850   -0.0053430    -0.0029212   -0.0054806     0.8550024    0.2044029 
   0.272986400     0.2651432   -0.8538424    -0.0039555   -0.0045555    -0.0039409   -0.0046750     0.8835358    0.0114645 
   0.274986300     0.1210214   -0.8822046    -0.0047232   -0.0036234    -0.0047433   -0.0037062     0.8680537   -0.1841361 
   0.276986200    -0.0227310   -0.8855895    -0.0052938   -0.0025869    -0.0053230   -0.0026316     0.8081360   -0.3723074 
   0.278986100    -0.1629993   -0.8652700    -0.0056564   -0.0014892    -0.0056772   -0.0014992     0.7072567   -0.5437952 
   0.280986000    -0.2965858   -0.8223194    -0.0058170   -0.0003574    -0.0058060   -0.0003437     0.5688387   -0.6890039 
   0.282985900    -0.4206532   -0.7582440    -0.0057632    0.0007742    -0.0057246    0.0007913     0.3995258   -0.7993872 
   0.284985800    -0.5321785   -0.6749082    -0.0055146    0.0018751    -0.0054443    0.0018810     0.2082625   -0.8684658 
   0.286985700    -0.6285027   -0.5741572    -0.0050777    0.0029192    -0.0049874    0.0028928     0.0048470   -0.8912888 
   0.288985600    -0.7072266   -0.4587253    -0.0044598    0.0038728    -0.0043637    0.0038080    -0.1992763   -0.8658217 
   0.290985500    -0.7657031   -0.3307307    -0.0036656    0.0047215    -0.0035913    0.0046147    -0.3923720   -0.7931313 
   0.292985400    -0.8026122   -0.1927363    -0.0027158    0.0054279    -0.0026744    0.0052855    -0.5632154   -0.6766388 
   0.294985300    -0.8150206   -0.0472914    -0.0016176    0.0059685    -0.0016256    0.0058065    -0.7017914   -0.5233468 
   0.296985200    -0.8010079    0.1017791    -0.0003959    0.0063021    -0.0004551    0.0061406    -0.7999689   -0.3422862 
   0.298985100    -0.7583700    0.2507782     0.0009204    0.0063941     0.0008215    0.0062502    -0.8525040   -0.1440865 
   0.300985000    -0.6856557    0.3934331     0.0022948    0.0062207     0.0021503    0.0061028    -0.8571047    0.0594365 
   0.302984900    -0.5827981    0.5220979     0.0036572    0.0057342     0.0034866    0.0056600    -0.8147829    0.2568847 
   0.304984800    -0.4512685    0.6294802     0.0049470    0.0049106     0.0047642    0.0048949    -0.7283551    0.4373134 
   0.306984700    -0.2955339    0.7081583     0.0060659    0.0037644     0.0058847    0.0038042    -0.6040403    0.5914027 
   0.308984600    -0.1219348    0.7507490     0.0069044    0.0023233     0.0067487    0.0024153    -0.4496825    0.7118024 
   0.310984500     0.0595636    0.7513925     0.0073712    0.0006501     0.0072570    0.0007872    -0.2739302    0.7933791 
   0.312984400     0.2383254    0.7078378     0.0073842   -0.0011393     0.0073250   -0.0009725    -0.0862207    0.8329704 
   0.314984300     0.4004877    0.6217248     0.0069079   -0.0028830     0.0069064   -0.0027171     0.1037858    0.8296771 
