! MS46122B
! 2250307/22442219
! 2/20/2026 8:58:00 AM
! C:\USERS\SPARKY\DOCUMENTS\VNA_DATA\FEB20_2026\PORT5.S2P
! CHANNEL.1
! TR.MEASUREMENT
! RAW.DATA
# GHZ S RI R 50.0
! FREQ.GHZ         S11RE         S11IM         S21RE         S21IM         S12RE         S12IM         S22RE         S22IM         
!; PortSelection: Port_12
   0.001000000     1.0464360   -0.0659565    -0.0002995   -0.0009326    -0.0002406   -0.0009413     0.7997401   -0.5564589 
   0.002999900     0.9627577   -0.1918164    -0.0201894   -0.0140945    -0.0210300   -0.0144675     0.0535811   -0.8511643 
   0.004999800     0.8810394   -0.3108241    -0.1189400    0.0016031    -0.1246143    0.0046351    -0.6939996   -0.4302896 
   0.006999700     0.7156749   -0.3883438    -0.2320007    0.2852932    -0.2252700    0.3053395    -0.4159029    0.6528333 
   0.008999600     0.6361727   -0.2979915     0.2294634    0.5043682     0.2414870    0.5035834     0.5413358   -0.0352076 
   0.010999500     0.6678230   -0.3188875     0.4749336    0.2307340     0.4886708    0.2329444     0.0015513   -0.5431600 
   0.012999400     0.6507753   -0.3837483     0.5057316    0.0164508     0.5227794    0.0099176    -0.4238642   -0.4115548 
   0.014999300     0.6057935   -0.4432218     0.4857787   -0.1433560     0.4988511   -0.1594205    -0.6001959   -0.1339156 
   0.016999200     0.5467908   -0.4904310     0.4408584   -0.2801847     0.4439159   -0.3007945    -0.5979171    0.1424669 
   0.018999100     0.4789947   -0.5228392     0.3706451   -0.4047026     0.3633886   -0.4234405    -0.4741288    0.3588493 
   0.020999000     0.4052348   -0.5376089     0.2704619   -0.5158077     0.2552852   -0.5273726    -0.2769766    0.4849835 
   0.022998900     0.3325943   -0.5323146     0.1360561   -0.6058449     0.1189565   -0.6070068    -0.0537821    0.5078201 
   0.024998800     0.2664046   -0.4842995     0.0003560   -0.6879491    -0.0521734   -0.6527358     0.1559143    0.4686084 
   0.026998700     0.2181004   -0.4644808    -0.2213025   -0.6633283    -0.2251212   -0.6505910     0.2849569    0.2739267 
   0.028998600     0.1898159   -0.4138561    -0.4135832   -0.6025747    -0.4094391   -0.5927892     0.3284983    0.0809647 
   0.030998500     0.1840464   -0.3655851    -0.5819638   -0.4793286    -0.5739216   -0.4754699     0.2732525   -0.0979617 
   0.032998400     0.1932684   -0.3150153    -0.7152480   -0.3547176    -0.7019717   -0.3010750     0.1613699   -0.2275500 
   0.034998300     0.2134393   -0.3116195    -0.7635050   -0.1104794    -0.7620702   -0.1132340    -0.0178372   -0.2480928 
   0.036998200     0.2290910   -0.3091920    -0.7651393    0.0880574    -0.7655612    0.0886735    -0.1623782   -0.1968841 
   0.038998100     0.2360547   -0.3165124    -0.7173750    0.2716942    -0.7170481    0.2759797    -0.2565730   -0.0902637 
   0.040998000     0.2339724   -0.3286363    -0.6300356    0.4334021    -0.6254402    0.4390487    -0.2901023    0.0409921 
   0.042997900     0.2219682   -0.3407509    -0.5108610    0.5663554    -0.5009375    0.5703728    -0.2619222    0.1691379 
   0.044997800     0.2004966   -0.3335190    -0.4164551    0.6758344    -0.3481780    0.6727955    -0.1994319    0.2903198 
   0.046997700     0.1779942   -0.3497770    -0.2086735    0.7358441    -0.1965210    0.7294996    -0.0719146    0.3256033 
   0.048997600     0.1543175   -0.3430999    -0.0379880    0.7682647    -0.0294718    0.7569073     0.0500239    0.3305938 
   0.050997500     0.1347625   -0.3296221     0.1367233    0.7623972     0.1378503    0.7489715     0.1619558    0.2860924 
   0.052997400     0.1201056   -0.3127338     0.3104000    0.7164271     0.3038438    0.7048098     0.2457486    0.2004041 
   0.054997300     0.1135020   -0.2947163     0.4675617    0.6321822     0.4591631    0.6236041     0.2868685    0.0899463 
   0.056997200     0.1141243   -0.2795455     0.6022200    0.5117280     0.5935522    0.5070171     0.2799943   -0.0259164 
   0.058997100     0.1198967   -0.2701798     0.7055176    0.3614942     0.6976338    0.3608333     0.2280483   -0.1275783 
   0.060997000     0.1274488   -0.2681998     0.7697144    0.1911603     0.7639604    0.1922044     0.1419183   -0.1975422 
   0.062996900     0.1331349   -0.2734727     0.7911779    0.0119531     0.7880975    0.0129918     0.0381888   -0.2258151 
   0.064996800     0.1339356   -0.2842447     0.7710979   -0.1651344     0.7684724   -0.1651175    -0.0637521   -0.2100272 
   0.066996700     0.1280193   -0.2975749     0.7125278   -0.3303551     0.7081932   -0.3311496    -0.1467382   -0.1566592 
   0.068996600     0.1146558   -0.3103504     0.6202173   -0.4760024     0.6141701   -0.4758788    -0.1982245   -0.0778369 
   0.070996500     0.0954514   -0.3198607     0.5012095   -0.5977574     0.4936182   -0.5947019    -0.2122350    0.0107304 
   0.072996400     0.0718829   -0.3232830     0.3607757   -0.6905010     0.3531140   -0.6834715    -0.1903016    0.0931605 
   0.074996300     0.0465869   -0.3196738     0.2047258   -0.7513751     0.1997262   -0.7406160    -0.1389441    0.1568816 
   0.076996200     0.0225743   -0.3084480     0.0395533   -0.7791700     0.0390640   -0.7663429    -0.0690213    0.1926605 
   0.078996100     0.0024088   -0.2908325    -0.1283879   -0.7723827    -0.1233685   -0.7591929     0.0069775    0.1967594 
   0.080996000    -0.0121140   -0.2685578    -0.2926555   -0.7296074    -0.2828222   -0.7187594     0.0756791    0.1702268 
   0.082995900    -0.0192172   -0.2441662    -0.4455443   -0.6518426    -0.4327599   -0.6458988     0.1261390    0.1187007 
   0.084995800    -0.0183994   -0.2201864    -0.5786794   -0.5420498    -0.5649421   -0.5411700     0.1495587    0.0527285 
   0.086995700    -0.0114226   -0.2001943    -0.6854521   -0.4041148    -0.6730291   -0.4074363     0.1429638   -0.0159054 
   0.088995600    -0.0001134   -0.1857720    -0.7591740   -0.2450642    -0.7494494   -0.2516186     0.1081335   -0.0743711 
   0.090995500     0.0129315   -0.1780201    -0.7957127   -0.0729196    -0.7887242   -0.0805988     0.0521153   -0.1116811 
   0.092995400     0.0247400   -0.1767281    -0.7931514    0.1027825    -0.7876492    0.0953125    -0.0141809   -0.1213465 
   0.094995300     0.0331505   -0.1800957    -0.7506242    0.2722735    -0.7464430    0.2657341    -0.0782917   -0.1017235 
   0.096995200     0.0369061   -0.1861725    -0.6726962    0.4276824    -0.6684951    0.4212694    -0.1278243   -0.0566888 
   0.098995100     0.0356772   -0.1926053    -0.5638471    0.5613998    -0.5593948    0.5537600    -0.1538035    0.0046165 
   0.100995000     0.0284599   -0.1983136    -0.4275990    0.6696452    -0.4250583    0.6595925    -0.1514748    0.0725261 
   0.102994900     0.0201652   -0.1995266    -0.2743215    0.7442918    -0.2743829    0.7325613    -0.1226404    0.1324060 
   0.104994800     0.0110309   -0.1968011    -0.1094876    0.7847076    -0.1129326    0.7724606    -0.0722301    0.1756046 
   0.106994700     0.0027257   -0.1902037     0.0600250    0.7894277     0.0525092    0.7785468    -0.0092899    0.1953109 
   0.108994600    -0.0028435   -0.1809999     0.2268464    0.7589633     0.2158255    0.7508624     0.0557859    0.1887649 
   0.110994500    -0.0049112   -0.1703877     0.3835358    0.6934195     0.3705549    0.6894654     0.1128888    0.1574866 
   0.112994400    -0.0032651   -0.1601328     0.5235443    0.5960672     0.5103068    0.5968060     0.1527030    0.1073288 
   0.114994300     0.0016074   -0.1516767     0.6396270    0.4706828     0.6278791    0.4749048     0.1692498    0.0465889 
   0.116994200     0.0085383   -0.1461406     0.7262307    0.3226380     0.7171640    0.3296695     0.1606842   -0.0147460 
   0.118994100     0.0161084   -0.1442197     0.7786419    0.1589680     0.7725000    0.1672036     0.1291692   -0.0661972 
   0.120994000     0.0230378   -0.1456433     0.7942246   -0.0116241     0.7907276   -0.0039581     0.0806452   -0.0997298 
   0.122993900     0.0275556   -0.1495849     0.7725667   -0.1816375     0.7701223   -0.1744086     0.0241678   -0.1098743 
   0.124993800     0.0293329   -0.1549637     0.7147466   -0.3421860     0.7127560   -0.3354543    -0.0301789   -0.0958023 
   0.126993700     0.0281464   -0.1603498     0.6239534   -0.4862475     0.6225798   -0.4786838    -0.0724334   -0.0606980 
   0.128993600     0.0244574   -0.1642569     0.5049251   -0.6066694     0.5047165   -0.5982837    -0.0951197   -0.0121096 
   0.130993500     0.0194034   -0.1664403     0.3637145   -0.6989182     0.3655149   -0.6893136    -0.0948968    0.0405748 
   0.132993400     0.0139532   -0.1664633     0.2067584   -0.7594071     0.2114177   -0.7494505    -0.0724591    0.0877814 
   0.134993300     0.0091385   -0.1645915     0.0409311   -0.7852023     0.0488432   -0.7762108    -0.0322116    0.1208806 
   0.136993200     0.0056773   -0.1615098    -0.1264164   -0.7754304    -0.1154254   -0.7688996     0.0186126    0.1341332 
   0.138993100     0.0038001   -0.1581655    -0.2880406   -0.7305721    -0.2752247   -0.7276191     0.0706765    0.1251100 
   0.140993000     0.0035841   -0.1556406    -0.4362138   -0.6523858    -0.4232849   -0.6534286     0.1150379    0.0953000 
   0.142992900     0.0042113   -0.1546552    -0.5646604   -0.5443574    -0.5529536   -0.5491977     0.1440511    0.0493809 
   0.144992800     0.0048166   -0.1557155    -0.6669698   -0.4114886    -0.6580887   -0.4193221     0.1524022   -0.0047920 
   0.146992700     0.0041197   -0.1583953    -0.7384859   -0.2598630    -0.7322297   -0.2686887     0.1387726   -0.0585620 
   0.148992600     0.0013259   -0.1621225    -0.7752783   -0.0969373    -0.7717522   -0.1060172     0.1050390   -0.1031982 
   0.150992500    -0.0040150   -0.1658193    -0.7760966    0.0692838    -0.7743953    0.0606544     0.0563848   -0.1314558 
   0.152992400    -0.0121674   -0.1686760    -0.7423725    0.2313723    -0.7414452    0.2234337     0.0004419   -0.1388044 
   0.154992300    -0.0224239   -0.1691008    -0.6754473    0.3819163    -0.6753675    0.3737713    -0.0538419   -0.1241256 
   0.156992200    -0.0339806   -0.1663549    -0.5787773    0.5144626    -0.5799627    0.5060835    -0.0978745   -0.0901929 
   0.158992100    -0.0456231   -0.1597414    -0.4574311    0.6234960    -0.4600645    0.6146888    -0.1252723   -0.0428662 
   0.160992000    -0.0559002   -0.1497447    -0.3162796    0.7048876    -0.3211159    0.6958497    -0.1323444    0.0101219 
   0.162991900    -0.0634708   -0.1367841    -0.1617972    0.7552297    -0.1692868    0.7472358    -0.1189698    0.0605338 
   0.164991800    -0.0674494   -0.1217037    -0.0000188    0.7725583    -0.0096692    0.7666774    -0.0884281    0.1006234 
   0.166991700    -0.0673826   -0.1062230     0.1622513    0.7561585     0.1508321    0.7528057    -0.0461969    0.1248985 
   0.168991600    -0.0633249   -0.0915986     0.3179670    0.7059310     0.3059795    0.7063032     0.0002790    0.1305142 
   0.170991500    -0.0558930   -0.0790079     0.4600909    0.6238230     0.4494020    0.6274293     0.0432128    0.1178842 
   0.172991400    -0.0460788   -0.0695542     0.5824996    0.5131346     0.5735869    0.5191280     0.0758617    0.0902852 
   0.174991300    -0.0351273   -0.0636143     0.6787040    0.3785298     0.6721607    0.3862952     0.0934568    0.0534653 
   0.176991200    -0.0244996   -0.0610431     0.7443022    0.2260782     0.7398869    0.2342681     0.0937019    0.0146127 
   0.178991100    -0.0151573   -0.0612537     0.7755788    0.0629944     0.7730590    0.0708581     0.0778696   -0.0192045 
   0.180991000    -0.0078333   -0.0632530     0.7716885   -0.1029454     0.7698876   -0.0954110     0.0496341   -0.0416387 
   0.182990900    -0.0027500   -0.0659355     0.7319043   -0.2642609     0.7313238   -0.2564052     0.0149591   -0.0487228 
   0.184990800     0.0004137   -0.0682211     0.6589147   -0.4130950     0.6591929   -0.4051897    -0.0190112   -0.0396126 
   0.186990700     0.0023416   -0.0694617     0.5564705   -0.5426303     0.5576997   -0.5345870    -0.0450669   -0.0162790 
   0.188990600     0.0053523   -0.0690564     0.4480508   -0.6338270     0.4478170   -0.6280996    -0.0591550    0.0151427 
   0.190990500     0.0064616   -0.0679102     0.2848579   -0.7218217     0.2903752   -0.7142165    -0.0556972    0.0526501 
   0.192990400     0.0100045   -0.0659883     0.1224377   -0.7660140     0.1309303   -0.7600539    -0.0370741    0.0854069 
   0.194990300     0.0155491   -0.0643986    -0.0423099   -0.7746906    -0.0323131   -0.7710280    -0.0060617    0.1080500 
   0.196990200     0.0227603   -0.0641657    -0.2056019   -0.7477233    -0.1945633   -0.7475750     0.0325621    0.1165799 
   0.198990100     0.0310929   -0.0662858    -0.3595532   -0.6872437    -0.3487482   -0.6900367     0.0725815    0.1088994 
   0.200990000     0.0394790   -0.0714382    -0.4971879   -0.5947169    -0.4876262   -0.6003343     0.1071615    0.0859658 
   0.202989900     0.0467735   -0.0796980    -0.6117805   -0.4750148    -0.6045642   -0.4825256     0.1307344    0.0511350 
   0.204989800     0.0516161   -0.0907694    -0.6979629   -0.3336380    -0.6931468   -0.3416554     0.1396943    0.0094883 
   0.206989700     0.0530762   -0.1037812    -0.7517103   -0.1774478    -0.7485077   -0.1855505     0.1323831   -0.0322502 
   0.208989600     0.0503272   -0.1173412    -0.7701600   -0.0137073    -0.7686896   -0.0222201     0.1102801   -0.0682270 
   0.210989500     0.0432782   -0.1300747    -0.7537020    0.1492077    -0.7531838    0.1410877     0.0770101   -0.0929830 
   0.212989400     0.0321606   -0.1405609    -0.7030141    0.3040942    -0.7037005    0.2963798     0.0379003   -0.1034783 
   0.214989300     0.0179778   -0.1475628    -0.6213288    0.4440871    -0.6231480    0.4361551    -0.0010258   -0.0987999 
   0.216989200     0.0020223   -0.1500898    -0.5128713    0.5628968    -0.5164471    0.5552907    -0.0338522   -0.0808408 
   0.218989100    -0.0143403   -0.1481106    -0.3825983    0.6561868    -0.3883602    0.6490765    -0.0562221   -0.0535299 
   0.220989000    -0.0296629   -0.1412162    -0.2366586    0.7203078    -0.2441760    0.7143281    -0.0660614   -0.0221784 
   0.222988900    -0.0426156   -0.1302793    -0.0810639    0.7526507    -0.0898577    0.7491392    -0.0633498    0.0080773 
   0.224988800    -0.0521239   -0.1158393     0.0776803    0.7525008     0.0686663    0.7513821    -0.0503658    0.0325414 
   0.226988700    -0.0575161   -0.0994081     0.2330245    0.7195750     0.2243387    0.7207734    -0.0309312    0.0478512 
   0.228988600    -0.0582844   -0.0820132     0.3783303    0.6553042     0.3703611    0.6584088    -0.0097464    0.0528182 
   0.230988500    -0.0544517   -0.0649095     0.5074238    0.5621534     0.5010823    0.5667884     0.0087939    0.0483766 
   0.232988400    -0.0460054   -0.0492032     0.6147521    0.4434159     0.6097831    0.4490719     0.0207476    0.0370070 
   0.234988300    -0.0337750   -0.0361571     0.6952305    0.3045095     0.6913931    0.3102921     0.0237323    0.0228176 
   0.236988200    -0.0183925   -0.0266223     0.7446435    0.1508159     0.7420361    0.1569725     0.0176982    0.0103834 
   0.238988100    -0.0010014   -0.0213759     0.7607775   -0.0101633     0.7585372   -0.0041868     0.0043731    0.0039936 
   0.240988000     0.0173490   -0.0207232     0.7416978   -0.1716132     0.7401426   -0.1647808    -0.0124490    0.0067695 
   0.242987900     0.0352801   -0.0246705     0.6883565   -0.3253255     0.6886252   -0.3173528    -0.0278838    0.0198583 
   0.244987800     0.0517541   -0.0328491     0.6030194   -0.4643716     0.6056528   -0.4552298    -0.0370989    0.0421185 
   0.246987700     0.0658985   -0.0446844     0.4898832   -0.5816877     0.4951318   -0.5728365    -0.0358577    0.0703682 
   0.248987600     0.0769796   -0.0594228     0.3543914   -0.6714745     0.3621668   -0.6643756    -0.0216181    0.0997510 
   0.250987500     0.0845718   -0.0762022     0.2027583   -0.7302542     0.2124425   -0.7257451     0.0054773    0.1244277 
   0.252987400     0.0885303   -0.0943046     0.0427528   -0.7548337     0.0534607   -0.7536107     0.0432164    0.1391475 
   0.254987300     0.0889058   -0.1130484    -0.1181229   -0.7443380    -0.1075369   -0.7465304     0.0874021    0.1399107 
   0.256987200     0.0856123   -0.1316403    -0.2721937   -0.7002894    -0.2629979   -0.7055654     0.1323017    0.1244697 
   0.258987100     0.0788248   -0.1496204    -0.4127786   -0.6249102    -0.4058628   -0.6318594     0.1716065    0.0933287 
   0.260987000     0.0684704   -0.1660404    -0.5331415   -0.5216272    -0.5288946   -0.5292808     0.1997553    0.0489273 
   0.262986900     0.0548749   -0.1806548    -0.6285672   -0.3960630    -0.6265292   -0.4035554     0.2123144   -0.0039435 
   0.264986800     0.0382883   -0.1928097    -0.6949480   -0.2542379    -0.6945686   -0.2607482     0.2070473   -0.0592028 
   0.266986700     0.0192492   -0.2017869    -0.7300538   -0.1024587    -0.7302745   -0.1079059     0.1839708   -0.1105607 
   0.268986600    -0.0017281   -0.2069525    -0.7325135    0.0520629    -0.7332373    0.0472035     0.1455656   -0.1517784 
   0.270986500    -0.0236802   -0.2081794    -0.7032814    0.2028874    -0.7043144    0.1980233     0.0963489   -0.1783737 
   0.272986400    -0.0461131   -0.2050484    -0.6438547    0.3434653    -0.6457157    0.3382271     0.0424069   -0.1874544 
   0.274986300    -0.0676687   -0.1972667    -0.5571102    0.4686122    -0.5602385    0.4627783    -0.0100267   -0.1789504 
   0.276986200    -0.0875459   -0.1849544    -0.4472309    0.5728643    -0.4523338    0.5675583    -0.0546403   -0.1549522 
   0.278986100    -0.1046667   -0.1684490    -0.3184268    0.6524011    -0.3249280    0.6479303    -0.0872977   -0.1197263 
   0.280986000    -0.1181055   -0.1482224    -0.1762320    0.7040530    -0.1835239    0.7013752    -0.1050423   -0.0788987 
   0.282985900    -0.1270224   -0.1255301    -0.0262996    0.7255911    -0.0337327    0.7249838    -0.1079908   -0.0380649 
   0.284985800    -0.1304542   -0.1015251     0.1252518    0.7159193     0.1186294    0.7169035    -0.0979195   -0.0027219 
   0.286985700    -0.1282797   -0.0773820     0.2722559    0.6751568     0.2668509    0.6773226    -0.0787777    0.0231364 
   0.288985600    -0.1206387   -0.0548012     0.4082387    0.6042121     0.4036533    0.6074114    -0.0554127    0.0378751 
   0.290985500    -0.1079781   -0.0348506     0.5272232    0.5059326     0.5229489    0.5099404    -0.0329614    0.0414853 
   0.292985400    -0.0911741   -0.0190141     0.6232453    0.3840054     0.6192645    0.3889290    -0.0158825    0.0363210 
   0.294985300    -0.0714198   -0.0080133     0.6915044    0.2435897     0.6881328    0.2495914    -0.0070802    0.0262696 
   0.296985200    -0.0497374   -0.0022049     0.7282608    0.0912916     0.7255563    0.0981212    -0.0074100    0.0161497 
   0.298985100    -0.0278489   -0.0020487     0.7312241   -0.0660283     0.7296152   -0.0589643    -0.0154308    0.0106515 
   0.300985000    -0.0072702   -0.0072215     0.6997913   -0.2206650     0.6998078   -0.2134002    -0.0276485    0.0133204 
   0.302984900     0.0108882   -0.0172629     0.6354547   -0.3648294     0.6375382   -0.3576101    -0.0391420    0.0257773 
   0.304984800     0.0257834   -0.0313319     0.5412170   -0.4913382     0.5454281   -0.4847590    -0.0447842    0.0472403 
   0.306984700     0.0366178   -0.0482751     0.4220075   -0.5938973     0.4281213   -0.5890781    -0.0401265    0.0742462 
   0.308984600     0.0429606   -0.0670196     0.2840746   -0.6674191     0.2916024   -0.6650298    -0.0223092    0.1015683 
   0.310984500     0.0447975   -0.0866014     0.1345493   -0.7088143     0.1421632   -0.7089846     0.0087941    0.1232183 
   0.312984400     0.0421840   -0.1062417    -0.0191425   -0.7167678    -0.0121751   -0.7191697     0.0500170    0.1328543 
   0.314984300     0.0353375   -0.1249265    -0.1695523   -0.6913531    -0.1639393   -0.6954429     0.0962219    0.1260955 
