! MS46122B
! 2250307/22442219
! 2/20/2026 8:50:57 AM
! C:\USERS\SPARKY\DOCUMENTS\VNA_DATA\FEB20_2026\SHORT.S2P
! CHANNEL.1
! TR.MEASUREMENT
! RAW.DATA
# GHZ S RI R 50.0
! FREQ.GHZ         S11RE         S11IM         S21RE         S21IM         S12RE         S12IM         S22RE         S22IM         
!; PortSelection: Port_12
   0.001000000     1.0472370   -0.0654530    -0.0000007    0.0000043     0.0000044   -0.0000023     0.8031429   -0.5515413 
   0.002999900     0.9661379   -0.1872311    -0.0000027    0.0000000    -0.0000040   -0.0000050     0.1749121   -0.8493934 
   0.004999800     0.9066793   -0.2913346     0.0000005    0.0000008     0.0000020    0.0000001    -0.3482426   -0.7624696 
   0.006999700     0.8383942   -0.3906881    -0.0000023    0.0000013    -0.0000002   -0.0000009    -0.6683423   -0.5349638 
   0.008999600     0.7580541   -0.4873241    -0.0000007    0.0000037    -0.0000008   -0.0000035    -0.8427340   -0.2705157 
   0.010999500     0.6601013   -0.5811783     0.0000027    0.0000023     0.0000020   -0.0000008    -0.9097583   -0.0079503 
   0.012999400     0.5356358   -0.6687490    -0.0000022    0.0000040    -0.0000010    0.0000025    -0.8972517    0.2344472 
   0.014999300     0.3733316   -0.7409350     0.0000004   -0.0000021    -0.0000014   -0.0000028    -0.8241396    0.4464254 
   0.016999200     0.1586624   -0.7749231    -0.0000012   -0.0000008     0.0000006   -0.0000024    -0.7053148    0.6227481 
   0.018999100    -0.1157936   -0.7235687    -0.0000004    0.0000018    -0.0000026   -0.0000008    -0.5537570    0.7607366 
   0.020999000    -0.4128188   -0.5030012     0.0000018   -0.0000011    -0.0000008    0.0000008    -0.3792818    0.8584242 
   0.022998900    -0.5715314   -0.0485163    -0.0000024    0.0000001     0.0000005   -0.0000015    -0.1911085    0.9156652 
   0.024998800    -0.3592896    0.4455909    -0.0000021    0.0000003    -0.0000023   -0.0000015    -0.0080091    1.0089650 
   0.026998700     0.1223822    0.6914018    -0.0000013    0.0000013    -0.0000009   -0.0000003     0.1966466    0.9110109 
   0.028998600     0.5452656    0.5975322    -0.0000009    0.0000008     0.0000000   -0.0000026     0.3814835    0.8512267 
   0.030998500     0.7921293    0.3783931     0.0000001   -0.0000005    -0.0000003   -0.0000023     0.5517475    0.7550891 
   0.032998400     0.8703308    0.1645667     0.0000005   -0.0000012     0.0000013    0.0000018     0.7480882    0.6897072 
   0.034998300     0.9374949   -0.0473069     0.0000009   -0.0000015    -0.0000006    0.0000017     0.8190729    0.4671931 
   0.036998200     0.9243410   -0.2128108    -0.0000019   -0.0000041     0.0000002   -0.0000015     0.9034369    0.2848422 
   0.038998100     0.8884276   -0.3496178    -0.0000018    0.0000008    -0.0000001   -0.0000006     0.9469199    0.0858647 
   0.040998000     0.8353496   -0.4684414     0.0000001   -0.0000003    -0.0000008   -0.0000024     0.9457487   -0.1195431 
   0.042997900     0.7684531   -0.5690948    -0.0000003   -0.0000010     0.0000001   -0.0000038     0.8986137   -0.3212807 
   0.044997800     0.6798980   -0.6188643    -0.0000014   -0.0000001    -0.0000007   -0.0000024     0.8800768   -0.5324655 
   0.046997700     0.6082776   -0.7231719     0.0000021   -0.0000005     0.0000012   -0.0000019     0.6757013   -0.6702353 
   0.048997600     0.5189011   -0.7800988     0.0000030   -0.0000012    -0.0000022   -0.0000011     0.5124693   -0.7983702 
   0.050997500     0.4264952   -0.8241920     0.0000108   -0.0000015    -0.0000033   -0.0000133     0.3267526   -0.8868117 
   0.052997400     0.3275320   -0.8582376     0.0000044   -0.0000037     0.0000036    0.0000040     0.1276510   -0.9328835 
   0.054997300     0.2252690   -0.8805851     0.0000039    0.0000026    -0.0000008   -0.0000019    -0.0723727   -0.9354354 
   0.056997200     0.1202030   -0.8903072    -0.0000013   -0.0000014    -0.0000033   -0.0000029    -0.2660067   -0.8966745 
   0.058997100     0.0119213   -0.8878284     0.0000005    0.0000005    -0.0000007    0.0000025    -0.4444237   -0.8206123 
   0.060997000    -0.0983218   -0.8710756    -0.0000013   -0.0000015    -0.0000022   -0.0000010    -0.6007045   -0.7114965 
   0.062996900    -0.2102473   -0.8388482     0.0000019    0.0000005    -0.0000023   -0.0000013    -0.7292976   -0.5758391 
   0.064996800    -0.3219466   -0.7888392    -0.0000007   -0.0000001     0.0000007   -0.0000001    -0.8271316   -0.4204041 
   0.066996700    -0.4309482   -0.7195552    -0.0000029   -0.0000021     0.0000017   -0.0000006    -0.8914918   -0.2521177 
   0.068996600    -0.5344010   -0.6283215    -0.0000016   -0.0000028     0.0000001   -0.0000024    -0.9212437   -0.0777181 
   0.070996500    -0.6274734   -0.5136412     0.0000039   -0.0000003    -0.0000007   -0.0000023    -0.9178247    0.0962768 
   0.072996400    -0.7027599   -0.3737606     0.0000006   -0.0000017     0.0000012   -0.0000014    -0.8830419    0.2638274 
   0.074996300    -0.7525176   -0.2095759    -0.0000031   -0.0000026     0.0000006   -0.0000002    -0.8187126    0.4196892 
   0.076996200    -0.7672638   -0.0252234    -0.0000046   -0.0000003     0.0000002   -0.0000025    -0.7283597    0.5595530 
   0.078996100    -0.7374646    0.1716569    -0.0000025   -0.0000014     0.0000000    0.0000001    -0.6155199    0.6802405 
   0.080996000    -0.6544110    0.3682354     0.0000013   -0.0000012    -0.0000003   -0.0000005    -0.4845436    0.7779371 
   0.082995900    -0.5148800    0.5459415    -0.0000011   -0.0000001     0.0000010    0.0000031    -0.3392032    0.8505943 
   0.084995800    -0.3240938    0.6832714    -0.0000037    0.0000000     0.0000015   -0.0000011    -0.1844691    0.8965932 
   0.086995700    -0.0967147    0.7632937    -0.0000007   -0.0000018     0.0000015   -0.0000002    -0.0234824    0.9147132 
   0.088995600     0.1456917    0.7739204    -0.0000010    0.0000022     0.0000002   -0.0000022     0.1373159    0.9044541 
   0.090995500     0.3772525    0.7149715     0.0000022   -0.0000005     0.0000017    0.0000001     0.2941999    0.8660254 
   0.092995400     0.5772046    0.5972894    -0.0000024    0.0000004     0.0000015    0.0000012     0.4419502    0.8002672 
   0.094995300     0.7289823    0.4375772     0.0000001    0.0000006     0.0000016   -0.0000022     0.5769226    0.7085532 
   0.096995200     0.8282295    0.2548113    -0.0000023   -0.0000010     0.0000011   -0.0000006     0.6935139    0.5944317 
   0.098995100     0.8771733    0.0665356     0.0000022   -0.0000023     0.0000011   -0.0000023     0.7882584    0.4604044 
   0.100995000     0.8818872   -0.1166612     0.0000001   -0.0000013     0.0000005   -0.0000023     0.8576142    0.3102504 
   0.102994900     0.8495997   -0.2828885     0.0000010    0.0000000    -0.0000005   -0.0000017     0.8987303    0.1491701 
   0.104994800     0.7895332   -0.4300320     0.0000010    0.0000004     0.0000007   -0.0000016     0.9098326   -0.0178496 
   0.106994700     0.7073126   -0.5555843     0.0000018   -0.0000008    -0.0000014   -0.0000022     0.8898582   -0.1852713 
   0.108994600     0.6106300   -0.6598863    -0.0000011   -0.0000004    -0.0000005   -0.0000017     0.8387285   -0.3470676 
   0.110994500     0.5028095   -0.7430167     0.0000008    0.0000006    -0.0000003    0.0000003     0.7578226   -0.4977825 
   0.112994400     0.3875374   -0.8057443    -0.0000011   -0.0000015     0.0000003   -0.0000004     0.6494800   -0.6313711 
   0.114994300     0.2677486   -0.8487177    -0.0000001   -0.0000014    -0.0000010   -0.0000021     0.5170428   -0.7427329 
   0.116994200     0.1454093   -0.8725430     0.0000005   -0.0000023    -0.0000015   -0.0000009     0.3651688   -0.8269587 
   0.118994100     0.0228434   -0.8784212    -0.0000002    0.0000006    -0.0000016   -0.0000019     0.1992505   -0.8809022 
   0.120994000    -0.0983737   -0.8672478    -0.0000016   -0.0000017    -0.0000014   -0.0000010     0.0254688   -0.9017366 
   0.122993900    -0.2173399   -0.8376821     0.0000005   -0.0000008    -0.0000004   -0.0000019    -0.1491037   -0.8889818 
   0.124993800    -0.3312108   -0.7913509    -0.0000004    0.0000019    -0.0000014   -0.0000002    -0.3180069   -0.8426809 
   0.126993700    -0.4390165   -0.7272333     0.0000000   -0.0000005    -0.0000014    0.0000013    -0.4743630   -0.7648847 
   0.128993600    -0.5375114   -0.6452883     0.0000005   -0.0000004     0.0000008   -0.0000007    -0.6128305   -0.6588185 
   0.130993500    -0.6248828   -0.5478540    -0.0000001    0.0000007    -0.0000011    0.0000013    -0.7278187   -0.5284129 
   0.132993400    -0.6987402   -0.4337540     0.0000006    0.0000002    -0.0000003    0.0000004    -0.8154718   -0.3791338 
   0.134993300    -0.7543999   -0.3046992    -0.0000001    0.0000005     0.0000005    0.0000005    -0.8728439   -0.2167855 
   0.136993200    -0.7888952   -0.1622074     0.0000004    0.0000009    -0.0000001    0.0000007    -0.8983269   -0.0475028 
   0.138993100    -0.7982962   -0.0092002     0.0000011    0.0000025     0.0000006    0.0000010    -0.8914113    0.1226605 
   0.140993000    -0.7778613    0.1500272    -0.0000011    0.0000005     0.0000001    0.0000010    -0.8531126    0.2875639 
   0.142992900    -0.7242445    0.3094003    -0.0000001    0.0000003    -0.0000004    0.0000029    -0.7851347    0.4413384 
   0.144992800    -0.6363925    0.4618494     0.0000000   -0.0000007     0.0000014    0.0000008    -0.6901096    0.5784100 
   0.146992700    -0.5117771    0.5970955     0.0000016   -0.0000008     0.0000015   -0.0000005    -0.5725636    0.6956304 
   0.148992600    -0.3544863    0.7053281     0.0000010    0.0000003     0.0000017   -0.0000003    -0.4362674    0.7890354 
   0.150992500    -0.1704739    0.7748554     0.0000002   -0.0000003     0.0000004   -0.0000001    -0.2861159    0.8563191 
   0.152992400     0.0292667    0.8008431    -0.0000001   -0.0000004     0.0000008    0.0000001    -0.1268174    0.8941835 
   0.154992300     0.2320789    0.7775800    -0.0000007   -0.0000002     0.0000023   -0.0000006     0.0363343    0.9028187 
   0.156992200     0.4232249    0.7052812    -0.0000007   -0.0000010     0.0000018   -0.0000019     0.1979041    0.8817863 
   0.158992100     0.5899694    0.5897087    -0.0000003    0.0000001     0.0000022   -0.0000018     0.3528395    0.8321598 
   0.160992000     0.7218205    0.4395614     0.0000013   -0.0000018     0.0000023   -0.0000013     0.4960415    0.7553442 
   0.162991900     0.8118438    0.2672749     0.0000019   -0.0000009     0.0000005   -0.0000040     0.6231284    0.6539864 
   0.164991800     0.8588494    0.0848177    -0.0000010   -0.0000022     0.0000013   -0.0000039     0.7300900    0.5313924 
   0.166991700     0.8639997   -0.0966151    -0.0000007   -0.0000017     0.0000019   -0.0000036     0.8132268    0.3912109 
   0.168991600     0.8316858   -0.2675593     0.0000000   -0.0000017     0.0000014   -0.0000030     0.8692499    0.2379949 
   0.170991500     0.7675532   -0.4220783    -0.0000018   -0.0000002     0.0000000   -0.0000046     0.8966149    0.0766739 
   0.172991400     0.6779898   -0.5550758    -0.0000008   -0.0000001    -0.0000014   -0.0000047     0.8939577   -0.0873754 
   0.174991300     0.5695816   -0.6640041    -0.0000032    0.0000000    -0.0000011   -0.0000043     0.8614069   -0.2485797 
   0.176991200     0.4471009   -0.7488593    -0.0000044   -0.0000025    -0.0000025   -0.0000038     0.7994087   -0.4011306 
   0.178991100     0.3161323   -0.8087124    -0.0000036   -0.0000001    -0.0000031   -0.0000026     0.7099628   -0.5401378 
   0.180991000     0.1809972   -0.8451433    -0.0000057    0.0000005    -0.0000035   -0.0000016     0.5959296   -0.6602404 
   0.182990900     0.0446258   -0.8568646    -0.0000050    0.0000019    -0.0000055    0.0000010     0.4613430   -0.7573175 
   0.184990800    -0.0897076   -0.8463715    -0.0000022    0.0000032    -0.0000044    0.0000030     0.3105487   -0.8277439 
   0.186990700    -0.2192601   -0.8147287    -0.0000007    0.0000040    -0.0000011    0.0000040     0.1491157   -0.8683255 
   0.188990600    -0.3192443   -0.7716920     0.0000014    0.0000036     0.0000032    0.0000028     0.0066158   -0.8781636 
   0.190990500    -0.4491905   -0.6940130     0.0000053    0.0000024     0.0000022   -0.0000008    -0.1789572   -0.8569061 
   0.192990400    -0.5512734   -0.6039999     0.0000029    0.0000018     0.0000009   -0.0000015    -0.3398424   -0.8036591 
   0.194990300    -0.6359194   -0.5002628     0.0000018   -0.0000020     0.0000022   -0.0000019    -0.4845423   -0.7224571 
   0.196990200    -0.7031942   -0.3826801     0.0000001   -0.0000012    -0.0000009    0.0000002    -0.6110892   -0.6159923 
   0.198990100    -0.7504686   -0.2535205     0.0000021   -0.0000004     0.0000006   -0.0000013    -0.7147758   -0.4879288 
   0.200990000    -0.7761610   -0.1147893     0.0000003   -0.0000008    -0.0000003   -0.0000007    -0.7923208   -0.3434815 
   0.202989900    -0.7773136    0.0300416     0.0000007   -0.0000021     0.0000005   -0.0000003    -0.8415024   -0.1879414 
   0.204989800    -0.7515460    0.1767491    -0.0000010   -0.0000012     0.0000011    0.0000002    -0.8607953   -0.0269916 
   0.206989700    -0.6994320    0.3203853     0.0000029   -0.0000019     0.0000014   -0.0000006    -0.8500682    0.1338853 
   0.208989600    -0.6176630    0.4550228     0.0000006    0.0000000     0.0000015   -0.0000010    -0.8104151    0.2892427 
   0.210989500    -0.5075943    0.5747259     0.0000002   -0.0000020     0.0000021   -0.0000003    -0.7434232    0.4337441 
   0.212989400    -0.3723273    0.6728877     0.0000003    0.0000006     0.0000032    0.0000003    -0.6517099    0.5628420 
   0.214989300    -0.2157095    0.7432476     0.0000005   -0.0000033     0.0000022   -0.0000024    -0.5389224    0.6726922 
   0.216989200    -0.0445075    0.7793242    -0.0000002   -0.0000030     0.0000028   -0.0000034    -0.4090846    0.7601655 
   0.218989100     0.1332693    0.7781886    -0.0000006   -0.0000006     0.0000019   -0.0000053    -0.2663014    0.8225870 
   0.220989000     0.3084491    0.7380076    -0.0000024    0.0000011     0.0000023   -0.0000035    -0.1155799    0.8581401 
   0.222988900     0.4716893    0.6598241    -0.0000016   -0.0000013     0.0000015   -0.0000043     0.0384934    0.8666154 
   0.224988800     0.6138608    0.5483402    -0.0000019    0.0000005     0.0000024   -0.0000043     0.1910616    0.8480326 
   0.226988700     0.7275212    0.4096722    -0.0000026   -0.0000013     0.0000009   -0.0000055     0.3376189    0.8030947 
   0.228988600     0.8072721    0.2520611    -0.0000025   -0.0000005     0.0000012   -0.0000051     0.4734521    0.7333884 
   0.230988500     0.8514399    0.0844250    -0.0000034   -0.0000004     0.0000010   -0.0000068     0.5951028    0.6411051 
   0.232988400     0.8583278   -0.0851615    -0.0000011    0.0000014    -0.0000002   -0.0000067     0.6989706    0.5292399 
   0.234988300     0.8329297   -0.2484476    -0.0000008    0.0000006    -0.0000009   -0.0000065     0.7820334    0.4007587 
   0.236988200     0.7771420   -0.3997330    -0.0000008    0.0000005    -0.0000024   -0.0000084     0.8416883    0.2595201 
   0.238988100     0.6957905   -0.5331138    -0.0000009    0.0000013    -0.0000013   -0.0000061     0.8757471    0.1090700 
   0.240988000     0.5940503   -0.6463193    -0.0000012    0.0000004    -0.0000007   -0.0000075     0.8828315   -0.0458375 
   0.242987900     0.4770347   -0.7359613    -0.0000007    0.0000016    -0.0000024   -0.0000060     0.8625242   -0.2005423 
   0.244987800     0.3492613   -0.8023134    -0.0000003    0.0000012    -0.0000020   -0.0000052     0.8145046   -0.3500262 
   0.246987700     0.2148395   -0.8445594     0.0000002    0.0000019    -0.0000012   -0.0000047     0.7397145   -0.4896410 
   0.248987600     0.0778069   -0.8635130     0.0000004   -0.0000008    -0.0000023   -0.0000039     0.6399578   -0.6142891 
   0.250987500    -0.0586565   -0.8591205     0.0000000    0.0000002    -0.0000014   -0.0000036     0.5183361   -0.7195199 
   0.252987400    -0.1906835   -0.8330202     0.0000008    0.0000000    -0.0000027   -0.0000021     0.3783360   -0.8008686 
   0.254987300    -0.3152812   -0.7859407     0.0000004   -0.0000001    -0.0000011   -0.0000015     0.2247228   -0.8551098 
   0.256987200    -0.4300370   -0.7202918     0.0000013   -0.0000004     0.0000004   -0.0000012     0.0627759   -0.8799456 
   0.258987100    -0.5334908   -0.6373481     0.0000003   -0.0000008     0.0000035   -0.0000015    -0.1015723   -0.8736786 
   0.260987000    -0.6220646   -0.5374821    -0.0000025   -0.0000009     0.0000045   -0.0000024    -0.2625586   -0.8363785 
   0.262986900    -0.6935450   -0.4224997     0.0000006   -0.0000021     0.0000051   -0.0000023    -0.4137459   -0.7691156 
   0.264986800    -0.7458562   -0.2959237     0.0000005   -0.0000005     0.0000075   -0.0000051    -0.5493916   -0.6741099 
   0.266986700    -0.7765373   -0.1594441    -0.0000022   -0.0000008     0.0000060   -0.0000087    -0.6644755   -0.5551443 
   0.268986600    -0.7827241   -0.0172530    -0.0000014   -0.0000019     0.0000061   -0.0000119    -0.7546024   -0.4168016 
   0.270986500    -0.7636092    0.1268842    -0.0000024   -0.0000024     0.0000030   -0.0000134    -0.8167319   -0.2642371 
   0.272986400    -0.7172511    0.2686127    -0.0000029   -0.0000036    -0.0000011   -0.0000154    -0.8485273   -0.1033139 
   0.274986300    -0.6429473    0.4026774    -0.0000039   -0.0000021    -0.0000042   -0.0000131    -0.8494668    0.0599202 
   0.276986200    -0.5415318    0.5236042    -0.0000041   -0.0000018    -0.0000058   -0.0000099    -0.8193172    0.2190736 
   0.278986100    -0.4140791    0.6247225    -0.0000062    0.0000007    -0.0000074   -0.0000081    -0.7607357    0.3692721 
   0.280986000    -0.2645882    0.6989091    -0.0000040    0.0000009    -0.0000063   -0.0000043    -0.6759725    0.5049977 
   0.282985900    -0.0984621    0.7411885    -0.0000029   -0.0000001    -0.0000029   -0.0000011    -0.5682418    0.6217743 
   0.284985800     0.0762934    0.7464805    -0.0000037    0.0000007    -0.0000017   -0.0000015    -0.4421120    0.7159472 
   0.286985700     0.2500761    0.7122660    -0.0000029    0.0000019     0.0000005   -0.0000021    -0.3017627    0.7850146 
   0.288985600     0.4129929    0.6397703    -0.0000035    0.0000035     0.0000020   -0.0000035    -0.1522262    0.8274613 
   0.290985500     0.5554757    0.5323219    -0.0000007    0.0000018     0.0000037   -0.0000036     0.0016958    0.8421146 
   0.292985400     0.6693757    0.3961363    -0.0000014    0.0000036     0.0000019   -0.0000056     0.1550821    0.8288904 
   0.294985300     0.7493446    0.2396418     0.0000014    0.0000015     0.0000038   -0.0000074     0.3026655    0.7888709 
   0.296985200     0.7920572    0.0717473     0.0000008    0.0000020     0.0000031   -0.0000092     0.4405288    0.7234070 
   0.298985100     0.7969089   -0.0980986     0.0000017    0.0000018     0.0000019   -0.0000101     0.5643350    0.6347113 
   0.300985000     0.7660560   -0.2611378     0.0000014    0.0000035     0.0000004   -0.0000123     0.6701180    0.5257405 
   0.302984900     0.7042271   -0.4096595     0.0000005   -0.0000003    -0.0000008   -0.0000127     0.7551602    0.3998506 
   0.304984800     0.6165640   -0.5382366     0.0000011   -0.0000016    -0.0000036   -0.0000115     0.8165125    0.2609245 
   0.306984700     0.5089405   -0.6435617     0.0000006    0.0000004    -0.0000058   -0.0000108     0.8524205    0.1129529 
   0.308984600     0.3883746   -0.7237980     0.0000018   -0.0000016    -0.0000066   -0.0000106     0.8614617   -0.0394952 
   0.310984500     0.2601697   -0.7787343     0.0000001   -0.0000015    -0.0000076   -0.0000097     0.8434719   -0.1917473 
   0.312984400     0.1288266   -0.8093063    -0.0000004   -0.0000021    -0.0000086   -0.0000084     0.7981653   -0.3390112 
   0.314984300    -0.0018175   -0.8173802    -0.0000008   -0.0000014    -0.0000110   -0.0000065     0.7270697   -0.4763119 
