! MS46122B
! 2250307/22442219
! 2/24/2026 9:15:50 AM
! C:\USERS\SPARKY\DOCUMENTS\VNA_DATA\FEB24_2026\WARM-PORT1-CABLE\LOAD.S2P
! CHANNEL.1
! TR.MEASUREMENT
! RAW.DATA
# GHZ S RI R 50.0
! FREQ.GHZ         S11RE         S11IM         S21RE         S21IM         S12RE         S12IM         S22RE         S22IM         
!; PortSelection: Port_12
   0.001000000     1.0448130   -0.0677673     0.0000006    0.0000009    -0.0000020    0.0000010     0.8047413   -0.5594674 
   0.002999900     0.9543306   -0.1913212    -0.0000007    0.0000043    -0.0000060   -0.0000016     0.0523629   -0.8112017 
   0.004999800     0.8740613   -0.2833266    -0.0000005    0.0000023    -0.0000031   -0.0000001    -0.4392890   -0.4482679 
   0.006999700     0.7872308   -0.3492388     0.0000002   -0.0000026    -0.0000007   -0.0000040    -0.4779433   -0.0939216 
   0.008999600     0.7043431   -0.3937703     0.0000015   -0.0000009     0.0000010   -0.0000016    -0.3824812    0.0809810 
   0.010999500     0.6292081   -0.4216398     0.0000007   -0.0000018    -0.0000020   -0.0000012    -0.2865971    0.1501992 
   0.012999400     0.5635706   -0.4376922    -0.0000005   -0.0000008    -0.0000010    0.0000007    -0.2123028    0.1715276 
   0.014999300     0.5073426   -0.4452418     0.0000015    0.0000032     0.0000010   -0.0000008    -0.1574912    0.1717710 
   0.016999200     0.4595154   -0.4468679    -0.0000010    0.0000003     0.0000001   -0.0000017    -0.1167614    0.1628591 
   0.018999100     0.4191827   -0.4449007     0.0000019    0.0000011     0.0000017   -0.0000005    -0.0858455    0.1502930 
   0.020999000     0.3853682   -0.4403292    -0.0000006    0.0000000     0.0000000   -0.0000017    -0.0619913    0.1366216 
   0.022998900     0.3563648   -0.4341721     0.0000020   -0.0000017    -0.0000023   -0.0000022    -0.0432603    0.1231180 
   0.024998800     0.3261968   -0.4061562    -0.0000006    0.0000021     0.0000007    0.0000001    -0.0288832    0.1207117 
   0.026998700     0.3092535   -0.4198098    -0.0000012    0.0000011    -0.0000012   -0.0000005    -0.0170803    0.0986107 
   0.028998600     0.2895617   -0.4119005    -0.0000014   -0.0000025    -0.0000015   -0.0000012    -0.0080862    0.0880455 
   0.030998500     0.2715503   -0.4038410    -0.0000002   -0.0000006     0.0000008    0.0000009    -0.0011411    0.0785595 
   0.032998400     0.2512859   -0.3780916     0.0000000   -0.0000013    -0.0000003   -0.0000025     0.0062403    0.0787187 
   0.034998300     0.2383683   -0.3879992     0.0000004    0.0000043     0.0000005    0.0000011     0.0075074    0.0627642 
   0.036998200     0.2228383   -0.3801635     0.0000004   -0.0000013     0.0000007    0.0000013     0.0098700    0.0563063 
   0.038998100     0.2081360   -0.3715472     0.0000007    0.0000017    -0.0000015   -0.0000021     0.0111714    0.0507091 
   0.040998000     0.1953008   -0.3632111    -0.0000045   -0.0000018    -0.0000005    0.0000006     0.0115466    0.0458601 
   0.042997900     0.1829627   -0.3555174     0.0000007    0.0000000    -0.0000034   -0.0000019     0.0113112    0.0416824 
   0.044997800     0.1697706   -0.3337198    -0.0000006   -0.0000007    -0.0000004   -0.0000014     0.0136312    0.0447623 
   0.046997700     0.1585492   -0.3413195    -0.0000017    0.0000015     0.0000003    0.0000029     0.0094598    0.0350167 
   0.048997600     0.1476852   -0.3343925     0.0000010   -0.0000022    -0.0000009   -0.0000006     0.0078009    0.0325468 
   0.050997500     0.1373387   -0.3276249     0.0000001   -0.0000021     0.0000014   -0.0000020     0.0059392    0.0304896 
   0.052997400     0.1279328   -0.3208638    -0.0000059   -0.0000101     0.0000048   -0.0000107     0.0038724    0.0289005 
   0.054997300     0.1183722   -0.3148271    -0.0000072   -0.0000019    -0.0000009   -0.0000039     0.0019852    0.0273827 
   0.056997200     0.1095452   -0.3089364    -0.0000016    0.0000012    -0.0000019   -0.0000012    -0.0001974    0.0263877 
   0.058997100     0.1012447   -0.3031842     0.0000001   -0.0000009    -0.0000006   -0.0000001    -0.0021766    0.0255218 
   0.060997000     0.0932587   -0.2977508     0.0000000    0.0000004     0.0000012    0.0000007    -0.0040025    0.0248699 
   0.062996900     0.0856748   -0.2925054     0.0000047    0.0000003     0.0000018   -0.0000002    -0.0057914    0.0244489 
   0.064996800     0.0785363   -0.2874001     0.0000028    0.0000011     0.0000007   -0.0000033    -0.0074206    0.0242780 
   0.066996700     0.0717326   -0.2823877     0.0000019   -0.0000010     0.0000011    0.0000003    -0.0089085    0.0243290 
   0.068996600     0.0652125   -0.2773634     0.0000002    0.0000013     0.0000011   -0.0000016    -0.0102657    0.0246315 
   0.070996500     0.0589488   -0.2725812    -0.0000001    0.0000007     0.0000010   -0.0000027    -0.0114624    0.0251083 
   0.072996400     0.0529071   -0.2674603     0.0000025   -0.0000020     0.0000028    0.0000017    -0.0124170    0.0258568 
   0.074996300     0.0470858   -0.2622274     0.0000003   -0.0000029     0.0000010   -0.0000009    -0.0131601    0.0268659 
   0.076996200     0.0415154   -0.2567818    -0.0000005   -0.0000033     0.0000014   -0.0000029    -0.0136970    0.0280516 
   0.078996100     0.0362144   -0.2511156    -0.0000007   -0.0000031    -0.0000018   -0.0000020    -0.0139969    0.0294615 
   0.080996000     0.0311098   -0.2453712    -0.0000025   -0.0000014     0.0000018   -0.0000009    -0.0139991    0.0310289 
   0.082995900     0.0262270   -0.2393628    -0.0000004   -0.0000023    -0.0000007   -0.0000022    -0.0136831    0.0327522 
   0.084995800     0.0216498   -0.2328002    -0.0000032   -0.0000049    -0.0000025    0.0000001    -0.0131986    0.0346277 
   0.086995700     0.0176838   -0.2264035    -0.0000044   -0.0000015    -0.0000046    0.0000014    -0.0124205    0.0365553 
   0.088995600     0.0142024   -0.2199160    -0.0000035   -0.0000002    -0.0000064    0.0000017    -0.0113326    0.0384117 
   0.090995500     0.0111458   -0.2133592    -0.0000030    0.0000023    -0.0000038    0.0000019    -0.0099811    0.0402717 
   0.092995400     0.0087331   -0.2069765    -0.0000055    0.0000046    -0.0000041    0.0000017    -0.0082849    0.0420097 
   0.094995300     0.0068499   -0.2004277    -0.0000003    0.0000028    -0.0000001    0.0000021    -0.0062863    0.0435922 
   0.096995200     0.0053711   -0.1939049    -0.0000044   -0.0000003    -0.0000015    0.0000012    -0.0040032    0.0449808 
   0.098995100     0.0044604   -0.1876376    -0.0000021    0.0000046    -0.0000003    0.0000020    -0.0014125    0.0460835 
   0.100995000     0.0029039   -0.1829148     0.0000034    0.0000047     0.0000036    0.0000029     0.0023430    0.0466284 
   0.102994900     0.0030221   -0.1774522     0.0000026    0.0000012     0.0000030    0.0000005     0.0052710    0.0470732 
   0.104994800     0.0036906   -0.1724396     0.0000016    0.0000024     0.0000017   -0.0000010     0.0083711    0.0470645 
   0.106994700     0.0047005   -0.1678755     0.0000012   -0.0000004     0.0000021   -0.0000025     0.0114544    0.0466606 
   0.108994600     0.0060525   -0.1638761     0.0000026   -0.0000002     0.0000005   -0.0000024     0.0145297    0.0458168 
   0.110994500     0.0075440   -0.1606019     0.0000004   -0.0000033     0.0000004   -0.0000015     0.0175393    0.0445381 
   0.112994400     0.0091603   -0.1579318    -0.0000015   -0.0000007     0.0000012   -0.0000032     0.0203825    0.0428876 
   0.114994300     0.0107652   -0.1558557     0.0000009   -0.0000020    -0.0000011   -0.0000013     0.0229846    0.0408537 
   0.116994200     0.0122940   -0.1543786     0.0000000   -0.0000020    -0.0000006   -0.0000009     0.0253446    0.0384434 
   0.118994100     0.0136068   -0.1534533     0.0000004   -0.0000024    -0.0000002   -0.0000021     0.0273390    0.0357533 
   0.120994000     0.0148569   -0.1528440     0.0000004   -0.0000009     0.0000003   -0.0000031     0.0289395    0.0328147 
   0.122993900     0.0154718   -0.1528679     0.0000000   -0.0000021    -0.0000011   -0.0000025     0.0301116    0.0296973 
   0.124993800     0.0156896   -0.1532551    -0.0000013   -0.0000013    -0.0000009   -0.0000008     0.0308120    0.0264825 
   0.126993700     0.0153785   -0.1538256     0.0000001    0.0000003    -0.0000019   -0.0000015     0.0309354    0.0232784 
   0.128993600     0.0144559   -0.1544192    -0.0000013   -0.0000006    -0.0000015   -0.0000015     0.0306942    0.0201224 
   0.130993500     0.0131102   -0.1551239    -0.0000003   -0.0000007    -0.0000004   -0.0000028     0.0299862    0.0170700 
   0.132993400     0.0112108   -0.1557544    -0.0000006   -0.0000007    -0.0000022   -0.0000024     0.0288388    0.0142515 
   0.134993300     0.0087878   -0.1561630     0.0000000   -0.0000009    -0.0000024   -0.0000004     0.0272725    0.0117056 
   0.136993200     0.0058977   -0.1562400    -0.0000012   -0.0000005    -0.0000004   -0.0000011     0.0253645    0.0095116 
   0.138993100     0.0025792   -0.1559661    -0.0000010    0.0000005    -0.0000009   -0.0000005     0.0231814    0.0077072 
   0.140993000    -0.0009382   -0.1552961    -0.0000015   -0.0000008    -0.0000018   -0.0000003     0.0207836    0.0063767 
   0.142992900    -0.0047201   -0.1541047    -0.0000008    0.0000006    -0.0000005    0.0000009     0.0182575    0.0055054 
   0.144992800    -0.0085548   -0.1525337     0.0000011    0.0000013    -0.0000008   -0.0000007     0.0156136    0.0050833 
   0.146992700    -0.0124439   -0.1501307    -0.0000022   -0.0000008    -0.0000012   -0.0000003     0.0130594    0.0051814 
   0.148992600    -0.0162196   -0.1471514    -0.0000015    0.0000008    -0.0000002   -0.0000002     0.0106249    0.0057974 
   0.150992500    -0.0196892   -0.1435867     0.0000005   -0.0000009    -0.0000005   -0.0000005     0.0083630    0.0068494 
   0.152992400    -0.0228941   -0.1396832     0.0000002    0.0000004    -0.0000002   -0.0000002     0.0064211    0.0082613 
   0.154992300    -0.0256867   -0.1353262     0.0000000   -0.0000010    -0.0000006   -0.0000016     0.0048304    0.0100123 
   0.156992200    -0.0279828   -0.1305849     0.0000003    0.0000010     0.0000003    0.0000004     0.0036234    0.0120400 
   0.158992100    -0.0297216   -0.1255615    -0.0000003    0.0000013    -0.0000005   -0.0000011     0.0028609    0.0142443 
   0.160992000    -0.0308690   -0.1203611     0.0000001    0.0000009     0.0000000   -0.0000011     0.0025444    0.0165561 
   0.162991900    -0.0313767   -0.1150481    -0.0000001   -0.0000007     0.0000004   -0.0000005     0.0027209    0.0188880 
   0.164991800    -0.0312690   -0.1097657     0.0000003   -0.0000010     0.0000002    0.0000000     0.0033366    0.0211519 
   0.166991700    -0.0304421   -0.1046488     0.0000002   -0.0000002     0.0000006   -0.0000007     0.0044160    0.0232568 
   0.168991600    -0.0290381   -0.0997862    -0.0000001   -0.0000013    -0.0000001   -0.0000010     0.0059085    0.0251441 
   0.170991500    -0.0270712   -0.0952385     0.0000000    0.0000011    -0.0000005   -0.0000021     0.0077384    0.0267326 
   0.172991400    -0.0245940   -0.0911370     0.0000000   -0.0000001    -0.0000010   -0.0000011     0.0098470    0.0279620 
   0.174991300    -0.0216880   -0.0875462    -0.0000022   -0.0000008     0.0000010   -0.0000015     0.0121725    0.0287816 
   0.176991200    -0.0184871   -0.0845147    -0.0000015   -0.0000003    -0.0000016   -0.0000012     0.0146232    0.0291683 
   0.178991100    -0.0150655   -0.0820747    -0.0000006   -0.0000008    -0.0000015   -0.0000015     0.0171210    0.0290856 
   0.180991000    -0.0115234   -0.0802771    -0.0000013   -0.0000014    -0.0000003   -0.0000021     0.0195943    0.0285303 
   0.182990900    -0.0079786   -0.0790618    -0.0000032   -0.0000020    -0.0000008   -0.0000012     0.0219270    0.0276000 
   0.184990800    -0.0045272   -0.0784519    -0.0000015   -0.0000013    -0.0000019   -0.0000010     0.0241825    0.0262603 
   0.186990700    -0.0012542   -0.0783793    -0.0000014    0.0000013    -0.0000006   -0.0000004     0.0260136    0.0245480 
   0.188990600     0.0033487   -0.0786172    -0.0000014    0.0000006     0.0000004   -0.0000026     0.0264591    0.0233709 
   0.190990500     0.0045312   -0.0796159    -0.0000010   -0.0000012    -0.0000008   -0.0000027     0.0286365    0.0204968 
   0.192990400     0.0065059   -0.0808023    -0.0000003    0.0000006    -0.0000006   -0.0000033     0.0294950    0.0180845 
   0.194990300     0.0082627   -0.0821942    -0.0000005   -0.0000005     0.0000000   -0.0000018     0.0297306    0.0157401 
   0.196990200     0.0095621   -0.0837363    -0.0000020   -0.0000002    -0.0000008   -0.0000032     0.0295384    0.0134054 
   0.198990100     0.0104010   -0.0853373    -0.0000013   -0.0000001    -0.0000014   -0.0000023     0.0288911    0.0112320 
   0.200990000     0.0108223   -0.0868856    -0.0000011    0.0000006    -0.0000015   -0.0000010     0.0278636    0.0092608 
   0.202989900     0.0108051   -0.0883170    -0.0000012    0.0000002    -0.0000011   -0.0000006     0.0264772    0.0076019 
   0.204989800     0.0104580   -0.0895417    -0.0000010    0.0000033    -0.0000011    0.0000009     0.0248254    0.0062880 
   0.206989700     0.0099086   -0.0905769    -0.0000002    0.0000019     0.0000002    0.0000004     0.0229347    0.0053801 
   0.208989600     0.0091652   -0.0912726     0.0000011    0.0000025     0.0000011   -0.0000005     0.0209658    0.0049367 
   0.210989500     0.0083442   -0.0916753     0.0000019    0.0000027     0.0000001   -0.0000009     0.0189628    0.0049492 
   0.212989400     0.0074610   -0.0917480     0.0000005   -0.0000004     0.0000019   -0.0000012     0.0170223    0.0054344 
   0.214989300     0.0066245   -0.0915148     0.0000013   -0.0000006     0.0000012   -0.0000029     0.0152426    0.0063868 
   0.216989200     0.0059812   -0.0910243     0.0000006   -0.0000011     0.0000022   -0.0000025     0.0137316    0.0077447 
   0.218989100     0.0055248   -0.0903330     0.0000020   -0.0000009     0.0000013   -0.0000031     0.0125704    0.0094713 
   0.220989000     0.0053482   -0.0894761     0.0000006   -0.0000006     0.0000009   -0.0000037     0.0118361    0.0115000 
   0.222988900     0.0054645   -0.0885504     0.0000009   -0.0000002    -0.0000003   -0.0000051     0.0115734    0.0137259 
   0.224988800     0.0058832   -0.0876278     0.0000010   -0.0000010    -0.0000003   -0.0000043     0.0118413    0.0160736 
   0.226988700     0.0066698   -0.0868129    -0.0000001   -0.0000025     0.0000007   -0.0000033     0.0126511    0.0184229 
   0.228988600     0.0077704   -0.0862055    -0.0000006   -0.0000019    -0.0000006   -0.0000049     0.0139116    0.0206733 
   0.230988500     0.0091847   -0.0858630    -0.0000011   -0.0000015     0.0000003   -0.0000053     0.0158116    0.0227269 
   0.232988400     0.0107956   -0.0857872     0.0000005   -0.0000008    -0.0000016   -0.0000065     0.0181958    0.0245045 
   0.234988300     0.0125581   -0.0862137    -0.0000015   -0.0000008    -0.0000010   -0.0000048     0.0210159    0.0258518 
   0.236988200     0.0143801   -0.0870843    -0.0000025   -0.0000015    -0.0000002   -0.0000054     0.0242088    0.0267350 
   0.238988100     0.0161661   -0.0884559    -0.0000033    0.0000002    -0.0000011   -0.0000042     0.0276489    0.0270373 
   0.240988000     0.0178484   -0.0903230    -0.0000014   -0.0000002     0.0000001   -0.0000043     0.0312644    0.0267508 
   0.242987900     0.0192993   -0.0927190    -0.0000025    0.0000002    -0.0000008   -0.0000042     0.0348948    0.0257951 
   0.244987800     0.0204166   -0.0955261    -0.0000024   -0.0000010    -0.0000009   -0.0000043     0.0384813    0.0241720 
   0.246987700     0.0210612   -0.0987555    -0.0000013   -0.0000006    -0.0000005   -0.0000041     0.0418718    0.0219177 
   0.248987600     0.0211463   -0.1023175    -0.0000022    0.0000006    -0.0000016   -0.0000048     0.0449522    0.0190206 
   0.250987500     0.0206062   -0.1060786    -0.0000029   -0.0000002    -0.0000003   -0.0000041     0.0476597    0.0155613 
   0.252987400     0.0194123   -0.1099740    -0.0000027    0.0000004    -0.0000008   -0.0000052     0.0497895    0.0116261 
   0.254987300     0.0176202   -0.1138821    -0.0000022    0.0000013    -0.0000008   -0.0000042     0.0513363    0.0072755 
   0.256987200     0.0151644   -0.1176776    -0.0000018    0.0000000     0.0000000   -0.0000045     0.0521668    0.0026565 
   0.258987100     0.0120464   -0.1213344    -0.0000008    0.0000011     0.0000001   -0.0000056     0.0522625   -0.0021277 
   0.260987000     0.0082445   -0.1245191    -0.0000003    0.0000014    -0.0000002   -0.0000053     0.0515765   -0.0069610 
   0.262986900     0.0038301   -0.1271925    -0.0000012    0.0000010    -0.0000008   -0.0000044     0.0501104   -0.0116772 
   0.264986800    -0.0011060   -0.1294403    -0.0000001    0.0000007     0.0000002   -0.0000054     0.0479023   -0.0161695 
   0.266986700    -0.0064800   -0.1309376    -0.0000004    0.0000010    -0.0000005   -0.0000062     0.0449826   -0.0202949 
   0.268986600    -0.0119914   -0.1315937    -0.0000004   -0.0000004     0.0000004   -0.0000054     0.0413880   -0.0239867 
   0.270986500    -0.0175652   -0.1314728     0.0000001    0.0000004    -0.0000001   -0.0000049     0.0372455   -0.0270917 
   0.272986400    -0.0231711   -0.1305344     0.0000002    0.0000004     0.0000004   -0.0000063     0.0326823   -0.0294347 
   0.274986300    -0.0285805   -0.1288720    -0.0000007   -0.0000008    -0.0000008   -0.0000064     0.0277946   -0.0310311 
   0.276986200    -0.0337517   -0.1264834     0.0000001    0.0000006    -0.0000015   -0.0000066     0.0227806   -0.0318290 
   0.278986100    -0.0386166   -0.1234188     0.0000008   -0.0000007    -0.0000018   -0.0000062     0.0177358   -0.0317789 
   0.280986000    -0.0428219   -0.1197082     0.0000004    0.0000001    -0.0000005   -0.0000075     0.0128392   -0.0308742 
   0.282985900    -0.0463909   -0.1154506     0.0000005    0.0000005    -0.0000011   -0.0000075     0.0082309   -0.0291646 
   0.284985800    -0.0492311   -0.1108435    -0.0000001   -0.0000017    -0.0000012   -0.0000095     0.0040263   -0.0267414 
   0.286985700    -0.0512171   -0.1060704    -0.0000005   -0.0000019    -0.0000013   -0.0000076     0.0003352   -0.0236696 
   0.288985600    -0.0523493   -0.1013060    -0.0000013   -0.0000007    -0.0000024   -0.0000070    -0.0027128   -0.0200078 
   0.290985500    -0.0526202   -0.0967414    -0.0000014   -0.0000024    -0.0000027   -0.0000086    -0.0050072   -0.0159550 
   0.292985400    -0.0520734   -0.0925152    -0.0000009   -0.0000013    -0.0000033   -0.0000074    -0.0065156   -0.0116397 
   0.294985300    -0.0508216   -0.0886704    -0.0000026   -0.0000011    -0.0000035   -0.0000065    -0.0071826   -0.0071744 
   0.296985200    -0.0490455   -0.0853370    -0.0000030   -0.0000014    -0.0000051   -0.0000057    -0.0069958   -0.0027174 
   0.298985100    -0.0468645   -0.0826329    -0.0000040   -0.0000008    -0.0000050   -0.0000070    -0.0060180    0.0015237 
   0.300985000    -0.0443773   -0.0808534    -0.0000043    0.0000005    -0.0000062   -0.0000058    -0.0042300    0.0054472 
   0.302984900    -0.0417905   -0.0799497    -0.0000040    0.0000010    -0.0000065   -0.0000044    -0.0017869    0.0088769 
   0.304984800    -0.0392958   -0.0800287    -0.0000043    0.0000014    -0.0000066   -0.0000024     0.0012702    0.0117450 
   0.306984700    -0.0371078   -0.0810476    -0.0000006    0.0000035    -0.0000064   -0.0000021     0.0048090    0.0138747 
   0.308984600    -0.0354203   -0.0829989    -0.0000001    0.0000038    -0.0000041   -0.0000016     0.0086627    0.0152482 
   0.310984500    -0.0344683   -0.0857546    -0.0000008    0.0000019    -0.0000033   -0.0000015     0.0127117    0.0158093 
   0.312984400    -0.0345167   -0.0890956    -0.0000002    0.0000029    -0.0000044   -0.0000024     0.0167740    0.0154976 
   0.314984300    -0.0357836   -0.0928811     0.0000023   -0.0000002    -0.0000038   -0.0000005     0.0206934    0.0143535 
