! MS46122B
! 2250307/22442219
! 2/24/2026 9:14:51 AM
! C:\USERS\SPARKY\DOCUMENTS\VNA_DATA\FEB24_2026\WARM-PORT1-CABLE\OPEN.S2P
! CHANNEL.1
! TR.MEASUREMENT
! RAW.DATA
# GHZ S RI R 50.0
! FREQ.GHZ         S11RE         S11IM         S21RE         S21IM         S12RE         S12IM         S22RE         S22IM         
!; PortSelection: Port_12
   0.001000000     1.0449930   -0.0680410     0.0000054    0.0000027    -0.0000016    0.0000011     0.8054825   -0.5603254 
   0.002999900     0.9555519   -0.2078270     0.0000010   -0.0000010     0.0000082   -0.0000020     0.0158829   -0.8672284 
   0.004999800     0.7559602   -0.4487994    -0.0000019    0.0000002    -0.0000024   -0.0000007    -0.7535255   -0.4057261 
   0.006999700     0.9534742    0.1190429    -0.0000017   -0.0000012    -0.0000020   -0.0000042    -0.7794706    0.5157815 
   0.008999600     0.9383284   -0.1944983    -0.0000009    0.0000035    -0.0000008    0.0000005    -0.0400883    0.9836607 
   0.010999500     0.8928379   -0.3121504    -0.0000029    0.0000032    -0.0000002   -0.0000012     0.6473601    0.7296739 
   0.012999400     0.8485599   -0.3996132    -0.0000013    0.0000011    -0.0000046   -0.0000010     0.9223850    0.2198618 
   0.014999300     0.8031966   -0.4755717    -0.0000019   -0.0000032    -0.0000011   -0.0000001     0.8955664   -0.2425651 
   0.016999200     0.7545524   -0.5454432     0.0000030   -0.0000018     0.0000023   -0.0000018     0.7129279   -0.5790668 
   0.018999100     0.7007878   -0.6105713     0.0000030    0.0000014    -0.0000005   -0.0000043     0.4620034   -0.7912630 
   0.020999000     0.6410336   -0.6706497    -0.0000007   -0.0000016    -0.0000007   -0.0000016     0.1930559   -0.8972554 
   0.022998900     0.5743765   -0.7253974    -0.0000012   -0.0000003    -0.0000013   -0.0000028    -0.0675280   -0.9169964 
   0.024998800     0.4951128   -0.7393265    -0.0000005    0.0000027     0.0000015   -0.0000018    -0.3058060   -0.9387268 
   0.026998700     0.4144729   -0.8163491     0.0000026    0.0000024    -0.0000029   -0.0000004    -0.5013968   -0.7693213 
   0.028998600     0.3191781   -0.8486710     0.0000008   -0.0000003    -0.0000040   -0.0000012    -0.6606558   -0.6326826 
   0.030998500     0.2134940   -0.8694016     0.0000000    0.0000016    -0.0000032   -0.0000026    -0.7780093   -0.4720538 
   0.032998400     0.1075673   -0.8445579    -0.0000022   -0.0000018    -0.0000013    0.0000003    -0.9103178   -0.3340608 
   0.034998300    -0.0301110   -0.8615443    -0.0000014   -0.0000021    -0.0000046   -0.0000009    -0.8903714   -0.1194972 
   0.036998200    -0.1651900   -0.8233225     0.0000008    0.0000009     0.0000004   -0.0000041    -0.8917435    0.0560904 
   0.038998100    -0.3042584   -0.7543238     0.0000022   -0.0000012    -0.0000022   -0.0000037    -0.8606145    0.2234126 
   0.040998000    -0.4406041   -0.6484865    -0.0000012   -0.0000002    -0.0000010    0.0000010    -0.8012372    0.3783273 
   0.042997900    -0.5618914   -0.4998261    -0.0000019   -0.0000021    -0.0000010    0.0000008    -0.7174259    0.5174714 
   0.044997800    -0.6267713   -0.3069735    -0.0000054    0.0000005    -0.0000047   -0.0000014    -0.6691616    0.6791347 
   0.046997700    -0.6872720   -0.0691170    -0.0000003    0.0000019    -0.0000019    0.0000019    -0.4885836    0.7366489 
   0.048997600    -0.6447847    0.1882245     0.0000023   -0.0000012     0.0000027    0.0000012    -0.3500043    0.8119149 
   0.050997500    -0.5090535    0.4323933    -0.0000006   -0.0000017     0.0000007   -0.0000036    -0.2016040    0.8616900 
   0.052997400    -0.2875767    0.6186938    -0.0000049   -0.0000078     0.0000053    0.0000036    -0.0475746    0.8840846 
   0.054997300    -0.0114846    0.7118294    -0.0000057   -0.0000048    -0.0000005    0.0000032     0.1120166    0.8784634 
   0.056997200     0.2688002    0.6988444    -0.0000010    0.0000009     0.0000003    0.0000013     0.2653004    0.8446581 
   0.058997100     0.5106804    0.5975674    -0.0000013    0.0000028     0.0000000    0.0000037     0.4115875    0.7831706 
   0.060997000     0.6905372    0.4396102    -0.0000018    0.0000013    -0.0000007    0.0000037     0.5455016    0.6952598 
   0.062996900     0.8053359    0.2557912     0.0000005   -0.0000002     0.0000031    0.0000034     0.6620446    0.5836087 
   0.064996800     0.8619806    0.0688222     0.0000031   -0.0000028     0.0000019    0.0000022     0.7573857    0.4504041 
   0.066996700     0.8722589   -0.1072217     0.0000041    0.0000005     0.0000010   -0.0000002     0.8270517    0.3011980 
   0.068996600     0.8478241   -0.2664103     0.0000017    0.0000002     0.0000050   -0.0000004     0.8680229    0.1395760 
   0.070996500     0.7984689   -0.4058947     0.0000013   -0.0000008     0.0000036    0.0000000     0.8778321   -0.0281866 
   0.072996400     0.7293944   -0.5255026     0.0000002   -0.0000074     0.0000024   -0.0000028     0.8550807   -0.1972341 
   0.074996300     0.6470439   -0.6255419     0.0000033   -0.0000019     0.0000014   -0.0000046     0.8002640   -0.3598220 
   0.076996200     0.5546613   -0.7074751    -0.0000024   -0.0000015     0.0000015   -0.0000050     0.7138632   -0.5096327 
   0.078996100     0.4552992   -0.7726880     0.0000017   -0.0000034     0.0000015   -0.0000050     0.5988021   -0.6403072 
   0.080996000     0.3505101   -0.8211844    -0.0000018   -0.0000049    -0.0000013   -0.0000026     0.4595921   -0.7463095 
   0.082995900     0.2416500   -0.8543363    -0.0000014   -0.0000047    -0.0000002   -0.0000047     0.3018498   -0.8226084 
   0.084995800     0.1307688   -0.8711081    -0.0000025   -0.0000031    -0.0000030   -0.0000060     0.1319229   -0.8658057 
   0.086995700     0.0184643   -0.8736957    -0.0000046   -0.0000020    -0.0000071   -0.0000062    -0.0430573   -0.8744658 
   0.088995600    -0.0936480   -0.8607804    -0.0000070    0.0000003    -0.0000072   -0.0000015    -0.2154904   -0.8483641 
   0.090995500    -0.2046894   -0.8326647    -0.0000033    0.0000018    -0.0000018    0.0000017    -0.3786478   -0.7887967 
   0.092995400    -0.3139561   -0.7895547    -0.0000025    0.0000004    -0.0000043    0.0000036    -0.5259037   -0.6988616 
   0.094995300    -0.4180591   -0.7282690    -0.0000017    0.0000004    -0.0000035    0.0000007    -0.6521949   -0.5833846 
   0.096995200    -0.5161157   -0.6495604    -0.0000048    0.0000012    -0.0000060    0.0000035    -0.7528864   -0.4463376 
   0.098995100    -0.6042346   -0.5532146    -0.0000005    0.0000074    -0.0000047    0.0000080    -0.8249280   -0.2942562 
   0.100995000    -0.6813823   -0.4366903     0.0000018    0.0000076     0.0000004    0.0000069    -0.8672915   -0.1314389 
   0.102994900    -0.7384991   -0.3041809     0.0000038    0.0000035     0.0000034    0.0000043    -0.8772275    0.0335148 
   0.104994800    -0.7733671   -0.1555374     0.0000038    0.0000019     0.0000037    0.0000005    -0.8566101    0.1959323 
   0.106994700    -0.7791696    0.0057475     0.0000029    0.0000004     0.0000041    0.0000015    -0.8066955    0.3503044 
   0.108994600    -0.7519560    0.1742897     0.0000046   -0.0000004     0.0000048    0.0000012    -0.7302298    0.4915001 
   0.110994500    -0.6862334    0.3421701     0.0000034   -0.0000015     0.0000024   -0.0000013    -0.6300547    0.6155857 
   0.112994400    -0.5795825    0.4989286     0.0000019   -0.0000019     0.0000027   -0.0000022    -0.5099701    0.7186813 
   0.114994300    -0.4325404    0.6319481     0.0000021   -0.0000023     0.0000039   -0.0000015    -0.3744554    0.7984287 
   0.116994200    -0.2515089    0.7287684     0.0000006   -0.0000027     0.0000009   -0.0000011    -0.2276264    0.8520073 
   0.118994100    -0.0470488    0.7784716     0.0000020   -0.0000022     0.0000015   -0.0000031    -0.0740921    0.8788685 
   0.120994000     0.1658352    0.7751591    -0.0000024   -0.0000044    -0.0000012   -0.0000033     0.0809093    0.8779041 
   0.122993900     0.3706154    0.7161645    -0.0000011   -0.0000029    -0.0000011   -0.0000039     0.2331885    0.8496436 
   0.124993800     0.5505188    0.6087140     0.0000000   -0.0000036     0.0000001   -0.0000026     0.3783486    0.7951775 
   0.126993700     0.6944447    0.4627776    -0.0000009   -0.0000018    -0.0000009   -0.0000050     0.5115237    0.7160806 
   0.128993600     0.7932592    0.2919185    -0.0000031   -0.0000012    -0.0000016   -0.0000018     0.6289921    0.6145189 
   0.130993500     0.8484289    0.1117679    -0.0000033   -0.0000030    -0.0000009   -0.0000017     0.7264599    0.4932087 
   0.132993400     0.8611841   -0.0677600    -0.0000008   -0.0000016    -0.0000012   -0.0000021     0.8012806    0.3559854 
   0.134993300     0.8365741   -0.2373735    -0.0000021    0.0000011    -0.0000011   -0.0000024     0.8507342    0.2071113 
   0.136993200     0.7813051   -0.3904296    -0.0000026    0.0000004    -0.0000010   -0.0000009     0.8725215    0.0510386 
   0.138993100     0.7013100   -0.5236105    -0.0000010   -0.0000002    -0.0000010   -0.0000017     0.8654919   -0.1071319 
   0.140993000     0.6027784   -0.6342585    -0.0000032   -0.0000003    -0.0000018   -0.0000022     0.8296623   -0.2623199 
   0.142992900     0.4906410   -0.7227838    -0.0000007   -0.0000006    -0.0000006   -0.0000008     0.7658504   -0.4090086 
   0.144992800     0.3703535   -0.7891307    -0.0000010    0.0000019    -0.0000023   -0.0000017     0.6749338   -0.5416051 
   0.146992700     0.2440821   -0.8324683    -0.0000002    0.0000013    -0.0000016   -0.0000022     0.5611008   -0.6558393 
   0.148992600     0.1158145   -0.8546297    -0.0000022    0.0000014    -0.0000043   -0.0000006     0.4274373   -0.7472973 
   0.150992500    -0.0124113   -0.8555281     0.0000000   -0.0000008    -0.0000039   -0.0000010     0.2791848   -0.8127490 
   0.152992400    -0.1376228   -0.8380031    -0.0000007    0.0000006    -0.0000033   -0.0000005     0.1203677   -0.8488247 
   0.154992300    -0.2575599   -0.8016552    -0.0000008    0.0000011    -0.0000027   -0.0000004    -0.0426723   -0.8543591 
   0.156992200    -0.3713755   -0.7476050    -0.0000006    0.0000022    -0.0000009   -0.0000002    -0.2038625   -0.8289614 
   0.158992100    -0.4759596   -0.6761841    -0.0000002    0.0000009    -0.0000022    0.0000008    -0.3571403   -0.7735221 
   0.160992000    -0.5693604   -0.5887795    -0.0000016   -0.0000010    -0.0000013    0.0000009    -0.4971879   -0.6903118 
   0.162991900    -0.6492671   -0.4861549     0.0000005    0.0000004    -0.0000022    0.0000014    -0.6186472   -0.5824549 
   0.164991800    -0.7135283   -0.3690668     0.0000018    0.0000015    -0.0000001    0.0000007    -0.7174631   -0.4542780 
   0.166991700    -0.7588741   -0.2401834     0.0000001   -0.0000003    -0.0000001    0.0000015    -0.7900463   -0.3105795 
   0.168991600    -0.7826230   -0.1016548     0.0000003   -0.0000003     0.0000005    0.0000013    -0.8344880   -0.1561891 
   0.170991500    -0.7819965    0.0438054     0.0000000    0.0000004     0.0000010    0.0000016    -0.8491558    0.0026893 
   0.172991400    -0.7541094    0.1919109     0.0000011    0.0000011     0.0000004    0.0000013    -0.8346854    0.1609466 
   0.174991300    -0.6978040    0.3372434    -0.0000004   -0.0000014     0.0000001    0.0000014    -0.7914318    0.3128045 
   0.176991200    -0.6114447    0.4739770    -0.0000007   -0.0000010     0.0000014    0.0000006    -0.7215845    0.4535789 
   0.178991100    -0.4956773    0.5950066     0.0000016   -0.0000013     0.0000024    0.0000001    -0.6277202    0.5787059 
   0.180991000    -0.3531793    0.6932808     0.0000007   -0.0000029     0.0000011   -0.0000007    -0.5132249    0.6840488 
   0.182990900    -0.1885479    0.7603827    -0.0000015   -0.0000027     0.0000011   -0.0000011    -0.3822385    0.7668709 
   0.184990800    -0.0088328    0.7904928    -0.0000017   -0.0000044     0.0000020   -0.0000023    -0.2389032    0.8245606 
   0.186990700     0.1764290    0.7798681    -0.0000033   -0.0000032     0.0000005   -0.0000027    -0.0880696    0.8560794 
   0.188990600     0.3343512    0.7366716    -0.0000021   -0.0000034    -0.0000002   -0.0000037     0.0416557    0.8620945 
   0.190990500     0.5160266    0.6374043    -0.0000021   -0.0000022    -0.0000005   -0.0000051     0.2141560    0.8372618 
   0.192990400     0.6564645    0.5096923    -0.0000026   -0.0000015     0.0000000   -0.0000046     0.3626937    0.7862151 
   0.194990300     0.7613570    0.3578705    -0.0000055   -0.0000007    -0.0000004   -0.0000060     0.4969139    0.7111064 
   0.196990200     0.8292684    0.1901530    -0.0000054   -0.0000002    -0.0000029   -0.0000043     0.6157018    0.6129539 
   0.198990100     0.8582266    0.0162476    -0.0000054    0.0000016    -0.0000034   -0.0000048     0.7151504    0.4950447 
   0.200990000     0.8500871   -0.1554618    -0.0000058    0.0000026    -0.0000030   -0.0000035     0.7923038    0.3605692 
   0.202989900     0.8079502   -0.3174646    -0.0000049    0.0000061    -0.0000022   -0.0000019     0.8441468    0.2138455 
   0.204989800     0.7370508   -0.4630601    -0.0000035    0.0000058    -0.0000031    0.0000012     0.8689938    0.0595443 
   0.206989700     0.6431107   -0.5882910    -0.0000010    0.0000069    -0.0000024    0.0000003     0.8651367   -0.0973356 
   0.208989600     0.5304497   -0.6901959     0.0000020    0.0000047     0.0000005    0.0000002     0.8325412   -0.2517680 
   0.210989500     0.4043556   -0.7676898     0.0000044    0.0000043     0.0000018   -0.0000004     0.7718321   -0.3984097 
   0.212989400     0.2695309   -0.8203896     0.0000059    0.0000028     0.0000008   -0.0000035     0.6846943   -0.5320579 
   0.214989300     0.1306953   -0.8481062     0.0000050    0.0000000     0.0000028   -0.0000041     0.5734637   -0.6476266 
   0.216989200    -0.0078188   -0.8518623     0.0000060   -0.0000010     0.0000019   -0.0000039     0.4418956   -0.7406338 
   0.218989100    -0.1430296   -0.8326566     0.0000026   -0.0000015     0.0000005   -0.0000052     0.2947357   -0.8076536 
   0.220989000    -0.2722235   -0.7912804     0.0000019   -0.0000021    -0.0000018   -0.0000057     0.1371474   -0.8456209 
   0.222988900    -0.3921430   -0.7290765     0.0000029   -0.0000022    -0.0000013   -0.0000035    -0.0252280   -0.8529879 
   0.224988800    -0.5008689   -0.6479570     0.0000014   -0.0000019    -0.0000019   -0.0000037    -0.1861937   -0.8290907 
   0.226988700    -0.5948502   -0.5494191     0.0000024   -0.0000048    -0.0000017   -0.0000033    -0.3398012   -0.7751289 
   0.228988600    -0.6712611   -0.4356541    -0.0000006   -0.0000024    -0.0000016   -0.0000039    -0.4798741   -0.6926293 
   0.230988500    -0.7280084   -0.3089034    -0.0000004   -0.0000032    -0.0000023   -0.0000030    -0.6013675   -0.5851045 
   0.232988400    -0.7615482   -0.1710657    -0.0000030   -0.0000027    -0.0000013   -0.0000024    -0.7000498   -0.4570256 
   0.234988300    -0.7716135   -0.0265564    -0.0000021   -0.0000028    -0.0000012   -0.0000019    -0.7719615   -0.3130895 
   0.236988200    -0.7549055    0.1209899    -0.0000027   -0.0000021    -0.0000011   -0.0000010    -0.8151200   -0.1585823 
   0.238988100    -0.7094284    0.2669598    -0.0000030   -0.0000021     0.0000006   -0.0000010    -0.8282728    0.0003307 
   0.240988000    -0.6348441    0.4043804    -0.0000039    0.0000010    -0.0000006   -0.0000013    -0.8114538    0.1578503 
   0.242987900    -0.5325923    0.5276842    -0.0000041   -0.0000011     0.0000014   -0.0000008    -0.7657549    0.3083167 
   0.244987800    -0.4036438    0.6305701    -0.0000039   -0.0000023     0.0000021   -0.0000015    -0.6933767    0.4467632 
   0.246987700    -0.2522232    0.7063797    -0.0000041    0.0000012     0.0000035   -0.0000034    -0.5972694    0.5687352 
   0.248987600    -0.0844136    0.7492309    -0.0000031    0.0000007     0.0000044   -0.0000039    -0.4812301    0.6702911 
   0.250987500     0.0922722    0.7544581    -0.0000036    0.0000010     0.0000048   -0.0000063    -0.3495894    0.7484466 
   0.252987400     0.2675111    0.7206959    -0.0000033    0.0000014     0.0000052   -0.0000082    -0.2066463    0.8012592 
   0.254987300     0.4312136    0.6482224    -0.0000030    0.0000015     0.0000039   -0.0000087    -0.0573363    0.8270927 
   0.256987200     0.5745829    0.5411140    -0.0000025    0.0000028     0.0000032   -0.0000095     0.0935397    0.8259749 
   0.258987100     0.6909862    0.4063818    -0.0000014    0.0000027     0.0000015   -0.0000122     0.2409926    0.7979429 
   0.260987000     0.7733261    0.2506334    -0.0000007    0.0000025    -0.0000015   -0.0000110     0.3810661    0.7441350 
   0.262986900     0.8190292    0.0830570     0.0000011    0.0000014    -0.0000041   -0.0000090     0.5088109    0.6664742 
   0.264986800     0.8278829   -0.0867023    -0.0000003    0.0000027    -0.0000058   -0.0000090     0.6208568    0.5677387 
   0.266986700     0.8020694   -0.2507846     0.0000005    0.0000035    -0.0000068   -0.0000061     0.7136352    0.4506131 
   0.268986600     0.7452171   -0.4013973     0.0000015    0.0000014    -0.0000070   -0.0000030     0.7842420    0.3188957 
   0.270986500     0.6621958   -0.5335975     0.0000021    0.0000003    -0.0000030   -0.0000002     0.8305713    0.1763721 
   0.272986400     0.5591799   -0.6444923     0.0000011   -0.0000001     0.0000004   -0.0000001     0.8510345    0.0274323 
   0.274986300     0.4411307   -0.7318922     0.0000013   -0.0000008     0.0000032   -0.0000038     0.8443590   -0.1234063 
   0.276986200     0.3126854   -0.7950408     0.0000012   -0.0000011     0.0000050   -0.0000068     0.8102227   -0.2711321 
   0.278986100     0.1778630   -0.8338480     0.0000000   -0.0000023     0.0000033   -0.0000101     0.7504777   -0.4110818 
   0.280986000     0.0411297   -0.8487033    -0.0000011   -0.0000012     0.0000021   -0.0000100     0.6660002   -0.5384704 
   0.282985900    -0.0935770   -0.8405704    -0.0000017   -0.0000036    -0.0000026   -0.0000109     0.5592545   -0.6491562 
   0.284985800    -0.2234354   -0.8108754    -0.0000009   -0.0000033    -0.0000034   -0.0000125     0.4335101   -0.7388332 
   0.286985700    -0.3452093   -0.7604315    -0.0000017   -0.0000009    -0.0000066   -0.0000134     0.2928616   -0.8043915 
   0.288985600    -0.4559130   -0.6921294    -0.0000030   -0.0000030    -0.0000067   -0.0000108     0.1417167   -0.8430626 
   0.290985500    -0.5536060   -0.6070268    -0.0000025   -0.0000031    -0.0000082   -0.0000091    -0.0146663   -0.8530546 
   0.292985400    -0.6362914   -0.5075978    -0.0000023   -0.0000032    -0.0000091   -0.0000074    -0.1707056   -0.8336903 
   0.294985300    -0.7026052   -0.3951153    -0.0000060   -0.0000026    -0.0000096   -0.0000042    -0.3210198   -0.7856802 
   0.296985200    -0.7501620   -0.2709221    -0.0000050   -0.0000015    -0.0000116   -0.0000041    -0.4597706   -0.7098510 
   0.298985100    -0.7762995   -0.1378491    -0.0000055   -0.0000014    -0.0000096   -0.0000012    -0.5818453   -0.6094992 
   0.300985000    -0.7792616    0.0007606    -0.0000079    0.0000013    -0.0000088    0.0000004    -0.6828369   -0.4880352 
   0.302984900    -0.7566603    0.1411656    -0.0000054    0.0000034    -0.0000079    0.0000040    -0.7592567   -0.3500288 
   0.304984800    -0.7076781    0.2779860    -0.0000042    0.0000058    -0.0000056    0.0000040    -0.8081388   -0.2002012 
   0.306984700    -0.6310406    0.4066902    -0.0000010    0.0000065    -0.0000017    0.0000054    -0.8280156   -0.0444918 
   0.308984600    -0.5277585    0.5196840    -0.0000008    0.0000059    -0.0000005    0.0000063    -0.8184267    0.1113902 
   0.310984500    -0.3999157    0.6109692     0.0000012    0.0000046     0.0000021    0.0000027    -0.7802366    0.2623513 
   0.312984400    -0.2516078    0.6738117     0.0000015    0.0000031     0.0000039    0.0000015    -0.7146366    0.4027763 
   0.314984300    -0.0898679    0.7018226     0.0000034    0.0000018     0.0000058   -0.0000008    -0.6247348    0.5279526 
