! MS46122B
! 2250307/22442219
! 2/24/2026 9:12:02 AM
! C:\USERS\SPARKY\DOCUMENTS\VNA_DATA\FEB24_2026\WARM-PORT1-CABLE\PORT1.S2P
! CHANNEL.1
! TR.MEASUREMENT
! RAW.DATA
# GHZ S RI R 50.0
! FREQ.GHZ         S11RE         S11IM         S21RE         S21IM         S12RE         S12IM         S22RE         S22IM         
!; PortSelection: Port_12
   0.001000000     1.0451820   -0.0678420    -0.0000029    0.0000025     0.0000023   -0.0000002     0.8058960   -0.5601273 
   0.002999900     0.9549747   -0.2086345     0.0000028    0.0000056    -0.0000071   -0.0000047     0.0158106   -0.8671795 
   0.004999800     0.6491392   -0.4787564     0.0000095   -0.0000314     0.0000142   -0.0000220    -0.7537019   -0.3999516 
   0.006999700     0.9526874   -0.0780078    -0.0000026    0.0000257    -0.0000010    0.0000257    -0.7602413    0.5290987 
   0.008999600     0.9079347   -0.2637735     0.0000109    0.0000151     0.0000113    0.0000138     0.0050764    0.9669208 
   0.010999500     0.8595426   -0.3651771     0.0000183    0.0000030     0.0000187    0.0000034     0.6759771    0.6692575 
   0.012999400     0.8102126   -0.4483316     0.0000079    0.0000043     0.0000095    0.0000021     0.9103267    0.1428014 
   0.014999300     0.7567031   -0.5240318     0.0000140    0.0000055     0.0000124    0.0000063     0.8458974   -0.3116739 
   0.016999200     0.6973616   -0.5946780     0.0000221   -0.0000158     0.0000230   -0.0000169     0.6365592   -0.6272609 
   0.018999100     0.6301463   -0.6598679     0.0000092   -0.0000192     0.0000125   -0.0000193     0.3700952   -0.8128024 
   0.020999000     0.5531079   -0.7193937     0.0000102   -0.0000209     0.0000079   -0.0000227     0.0951067   -0.8906972 
   0.022998900     0.4640642   -0.7712776    -0.0000016   -0.0000361    -0.0000081   -0.0000358    -0.1633561   -0.8835077 
   0.024998800     0.3628934   -0.7793028    -0.0000185   -0.0000284    -0.0000176   -0.0000243    -0.3999602   -0.8774958 
   0.026998700     0.2429356   -0.8405679    -0.0000207   -0.0000170    -0.0000206   -0.0000153    -0.5737179   -0.6904887 
   0.028998600     0.1075514   -0.8473426    -0.0000206   -0.0000134    -0.0000263   -0.0000142    -0.7148165   -0.5379769 
   0.030998500    -0.0446101   -0.8251886    -0.0000274   -0.0000029    -0.0000254   -0.0000063    -0.8112600   -0.3655501 
   0.032998400    -0.1911613   -0.7396508    -0.0000309    0.0000006    -0.0000319    0.0000004    -0.9247702   -0.2121990 
   0.034998300    -0.3759347   -0.6393665    -0.0000311    0.0000108    -0.0000301    0.0000064    -0.8794929   -0.0041067 
   0.036998200    -0.5180349   -0.4471208    -0.0000340    0.0000206    -0.0000348    0.0000180    -0.8582304    0.1697832 
   0.038998100    -0.5971566   -0.1828615    -0.0000317    0.0000260    -0.0000297    0.0000269    -0.8055807    0.3314908 
   0.040998000    -0.5632961    0.1299321    -0.0000287    0.0000502    -0.0000292    0.0000493    -0.7258097    0.4776630 
   0.042997900    -0.3803190    0.4206585    -0.0000110    0.0000741    -0.0000064    0.0000734    -0.6227685    0.6042457 
   0.044997800    -0.0867866    0.5761850     0.0000353    0.0000987     0.0000413    0.0000971    -0.5497007    0.7583553 
   0.046997700     0.2614932    0.6116215     0.0001784    0.0000734     0.0001791    0.0000688    -0.3610906    0.7890847 
   0.048997600     0.5429323    0.4909751     0.0000220   -0.0001350     0.0000171   -0.0001339    -0.2109121    0.8427000 
   0.050997500     0.7270747    0.2967567    -0.0000180   -0.0000399    -0.0000216   -0.0000384    -0.0533564    0.8676081 
   0.052997400     0.8191781    0.0849338    -0.0000135   -0.0000104    -0.0000084   -0.0000099     0.1054380    0.8632088 
   0.054997300     0.8405925   -0.1168961     0.0000016   -0.0000102    -0.0000052   -0.0000024     0.2656807    0.8279212 
   0.056997200     0.8128259   -0.2929840     0.0000030   -0.0000146     0.0000009   -0.0000106     0.4130915    0.7647820 
   0.058997100     0.7530259   -0.4412936     0.0000006   -0.0000130    -0.0000040   -0.0000138     0.5483900    0.6731706 
   0.060997000     0.6716959   -0.5628042    -0.0000028   -0.0000127    -0.0000038   -0.0000121     0.6649056    0.5565106 
   0.062996900     0.5763268   -0.6602582    -0.0000071   -0.0000081    -0.0000052   -0.0000112     0.7581284    0.4174306 
   0.064996800     0.4712175   -0.7359600    -0.0000100   -0.0000159    -0.0000063   -0.0000142     0.8235499    0.2621412 
   0.066996700     0.3588277   -0.7916620    -0.0000145   -0.0000140    -0.0000132   -0.0000127     0.8577536    0.0950123 
   0.068996600     0.2413384   -0.8281744    -0.0000159   -0.0000058    -0.0000134   -0.0000031     0.8583331   -0.0773433 
   0.070996500     0.1203461   -0.8469258    -0.0000159   -0.0000019    -0.0000131   -0.0000009     0.8244391   -0.2485099 
   0.072996400    -0.0030134   -0.8451506    -0.0000146    0.0000024    -0.0000148    0.0000050     0.7564557   -0.4104991 
   0.074996300    -0.1277020   -0.8231400    -0.0000036    0.0000071    -0.0000065    0.0000081     0.6560327   -0.5564091 
   0.076996200    -0.2503223   -0.7798855    -0.0000049    0.0000027    -0.0000027    0.0000039     0.5271097   -0.6794777 
   0.078996100    -0.3688951   -0.7134444    -0.0000082    0.0000007    -0.0000061    0.0000016     0.3754427   -0.7738671 
   0.080996000    -0.4794230   -0.6225053    -0.0000127    0.0000034    -0.0000120    0.0000043     0.2068621   -0.8345116 
   0.082995900    -0.5764718   -0.5048140    -0.0000079    0.0000137    -0.0000105    0.0000091     0.0297014   -0.8590021 
   0.084995800    -0.6513954   -0.3607340     0.0000022    0.0000156     0.0000002    0.0000164    -0.1483279   -0.8467731 
   0.086995700    -0.6969394   -0.1919989     0.0000076    0.0000123     0.0000062    0.0000106    -0.3192801   -0.7981551 
   0.088995600    -0.7016729   -0.0043067     0.0000044    0.0000081     0.0000056    0.0000072    -0.4753127   -0.7162576 
   0.090995500    -0.6552289    0.1919755     0.0000080    0.0000087     0.0000081    0.0000089    -0.6107460   -0.6052575 
   0.092995400    -0.5505924    0.3806589     0.0000106    0.0000055     0.0000069    0.0000027    -0.7199454   -0.4705214 
   0.094995300    -0.3858558    0.5382934     0.0000115    0.0000034     0.0000079    0.0000044    -0.7994923   -0.3182737 
   0.096995200    -0.1728287    0.6412289     0.0000183    0.0000010     0.0000152   -0.0000002    -0.8473274   -0.1548016 
   0.098995100     0.0662410    0.6718089     0.0000136   -0.0000102     0.0000133   -0.0000084    -0.8624025    0.0129461 
   0.100995000     0.3036619    0.6238573     0.0000059   -0.0000126     0.0000044   -0.0000128    -0.8448270    0.1802490 
   0.102994900     0.5058917    0.5066310     0.0000000   -0.0000100    -0.0000015   -0.0000091    -0.7959867    0.3377688 
   0.104994800     0.6552116    0.3402986    -0.0000022   -0.0000046    -0.0000004   -0.0000052    -0.7189122    0.4820822 
   0.106994700     0.7432423    0.1487248     0.0000011   -0.0000054    -0.0000007   -0.0000048    -0.6168629    0.6080258 
   0.108994600     0.7735022   -0.0464744     0.0000015   -0.0000068    -0.0000024   -0.0000067    -0.4941311    0.7121714 
   0.110994500     0.7537755   -0.2298006    -0.0000048   -0.0000067    -0.0000058   -0.0000066    -0.3551490    0.7910954 
   0.112994400     0.6941624   -0.3919517    -0.0000066   -0.0000038    -0.0000062   -0.0000041    -0.2047934    0.8427112 
   0.114994300     0.6048928   -0.5274207    -0.0000055   -0.0000017    -0.0000051   -0.0000011    -0.0480571    0.8661389 
   0.116994200     0.4951339   -0.6346200    -0.0000055    0.0000004    -0.0000048   -0.0000012     0.1096704    0.8600772 
   0.118994100     0.3711258   -0.7130511    -0.0000050   -0.0000001    -0.0000030    0.0000004     0.2633187    0.8254257 
   0.120994000     0.2402981   -0.7653055    -0.0000046    0.0000012    -0.0000023    0.0000005     0.4082576    0.7632246 
   0.122993900     0.1047102   -0.7899665    -0.0000028    0.0000017    -0.0000017    0.0000018     0.5393933    0.6756293 
   0.124993800    -0.0303327   -0.7888844    -0.0000033    0.0000021    -0.0000027    0.0000015     0.6525627    0.5652748 
   0.126993700    -0.1625246   -0.7634667    -0.0000003    0.0000028    -0.0000008    0.0000031     0.7437172    0.4354842 
   0.128993600    -0.2871603   -0.7131393    -0.0000007    0.0000024    -0.0000003    0.0000009     0.8099388    0.2905212 
   0.130993500    -0.4023503   -0.6409922    -0.0000003    0.0000022    -0.0000003    0.0000010     0.8481663    0.1350031 
   0.132993400    -0.5039365   -0.5466400    -0.0000006    0.0000014    -0.0000003   -0.0000003     0.8564122   -0.0256437 
   0.134993300    -0.5873981   -0.4311923     0.0000011    0.0000020    -0.0000008   -0.0000006     0.8343595   -0.1858115 
   0.136993200    -0.6486979   -0.2972335    -0.0000005    0.0000028     0.0000001    0.0000007     0.7820883   -0.3397822 
   0.138993100    -0.6822494   -0.1476426    -0.0000005    0.0000016     0.0000007   -0.0000002     0.7007034   -0.4815770 
   0.140993000    -0.6826144    0.0123021     0.0000018    0.0000007     0.0000018    0.0000003     0.5934338   -0.6058193 
   0.142992900    -0.6449085    0.1760838     0.0000004    0.0000019    -0.0000008   -0.0000016     0.4632316   -0.7073475 
   0.144992800    -0.5669999    0.3332632     0.0000015    0.0000006    -0.0000012   -0.0000007     0.3151970   -0.7814888 
   0.146992700    -0.4460062    0.4716501     0.0000013    0.0000004     0.0000006   -0.0000013     0.1555342   -0.8259000 
   0.148992600    -0.2871045    0.5776688    -0.0000008   -0.0000015     0.0000004   -0.0000010    -0.0100804   -0.8383353 
   0.150992500    -0.0999274    0.6373060     0.0000009   -0.0000006     0.0000010   -0.0000016    -0.1751591   -0.8185282 
   0.152992400     0.1010166    0.6439180     0.0000005   -0.0000002    -0.0000002   -0.0000012    -0.3328283   -0.7664680 
   0.154992300     0.2968325    0.5926796     0.0000002   -0.0000007    -0.0000005   -0.0000020    -0.4771665   -0.6844342 
   0.156992200     0.4696646    0.4881057    -0.0000009   -0.0000010    -0.0000004   -0.0000024    -0.6023328   -0.5759716 
   0.158992100     0.6036628    0.3416848    -0.0000003    0.0000002    -0.0000016   -0.0000001    -0.7035212   -0.4456775 
   0.160992000     0.6893554    0.1677677     0.0000004   -0.0000007    -0.0000015   -0.0000006    -0.7773012   -0.2988144 
   0.162991900     0.7242604   -0.0163776    -0.0000008   -0.0000020    -0.0000004   -0.0000007    -0.8208680   -0.1410438 
   0.164991800     0.7099666   -0.1959080    -0.0000019   -0.0000002    -0.0000003   -0.0000001    -0.8329972    0.0212147 
   0.166991700     0.6537964   -0.3591151    -0.0000013   -0.0000011    -0.0000002   -0.0000007    -0.8143440    0.1818651 
   0.168991600     0.5639423   -0.4979756    -0.0000001   -0.0000009     0.0000007   -0.0000007    -0.7654048    0.3349251 
   0.170991500     0.4490444   -0.6079482    -0.0000006   -0.0000013    -0.0000001   -0.0000010    -0.6885984    0.4754581 
   0.172991400     0.3175375   -0.6867776    -0.0000003    0.0000003     0.0000010   -0.0000034    -0.5872284    0.5983064 
   0.174991300     0.1767830   -0.7338669    -0.0000012    0.0000000     0.0000004   -0.0000007    -0.4651674    0.6993579 
   0.176991200     0.0326131   -0.7502580    -0.0000022   -0.0000018     0.0000009   -0.0000017    -0.3270835    0.7754790 
   0.178991100    -0.1093479   -0.7369885     0.0000001   -0.0000012    -0.0000002   -0.0000013    -0.1775969    0.8244344 
   0.180991000    -0.2442816   -0.6966223    -0.0000014   -0.0000006     0.0000000   -0.0000024    -0.0219334    0.8447104 
   0.182990900    -0.3682252   -0.6297438    -0.0000029    0.0000012     0.0000013   -0.0000035     0.1343859    0.8357869 
   0.184990800    -0.4763907   -0.5389960    -0.0000009    0.0000000     0.0000005   -0.0000034     0.2861320    0.7980648 
   0.186990700    -0.5653670   -0.4270921     0.0000015   -0.0000015     0.0000001   -0.0000033     0.4285468    0.7329796 
   0.188990600    -0.6222522   -0.3152154    -0.0000009   -0.0000010     0.0000002   -0.0000042     0.5388474    0.6578637 
   0.190990500    -0.6676892   -0.1566579    -0.0000011   -0.0000052     0.0000003   -0.0000067     0.6638945    0.5323453 
   0.192990400    -0.6751310   -0.0014892    -0.0000022   -0.0000052    -0.0000021   -0.0000084     0.7524778    0.3983462 
   0.194990300    -0.6478899    0.1538996    -0.0000052   -0.0000059    -0.0000047   -0.0000094     0.8132107    0.2524121 
   0.196990200    -0.5846549    0.3032847    -0.0000084   -0.0000032    -0.0000083   -0.0000072     0.8453040    0.0970285 
   0.198990100    -0.4850989    0.4386917    -0.0000113   -0.0000019    -0.0000108   -0.0000029     0.8478130   -0.0622978 
   0.200990000    -0.3517486    0.5503825    -0.0000124    0.0000056    -0.0000128    0.0000004     0.8197374   -0.2200088 
   0.202989900    -0.1900772    0.6279682    -0.0000097    0.0000106    -0.0000108    0.0000068     0.7617540   -0.3701756 
   0.204989800    -0.0092350    0.6629398    -0.0000070    0.0000161    -0.0000056    0.0000121     0.6758417   -0.5069991 
   0.206989700     0.1778659    0.6514990     0.0000002    0.0000182    -0.0000003    0.0000145     0.5645438   -0.6249803 
   0.208989600     0.3567876    0.5893606     0.0000118    0.0000173     0.0000104    0.0000117     0.4317186   -0.7196814 
   0.210989500     0.5145559    0.4815645     0.0000163    0.0000114     0.0000145    0.0000067     0.2826553   -0.7867860 
   0.212989400     0.6381269    0.3366407     0.0000210    0.0000050     0.0000184   -0.0000007     0.1228215   -0.8233533 
   0.214989300     0.7182807    0.1666529     0.0000205   -0.0000049     0.0000188   -0.0000092    -0.0414084   -0.8277804 
   0.216989200     0.7518570   -0.0144057     0.0000166   -0.0000143     0.0000151   -0.0000163    -0.2031825   -0.7996116 
   0.218989100     0.7393780   -0.1938227     0.0000090   -0.0000218     0.0000058   -0.0000237    -0.3560488   -0.7400638 
   0.220989000     0.6849435   -0.3603383    -0.0000051   -0.0000233    -0.0000075   -0.0000235    -0.4938704   -0.6515932 
   0.222988900     0.5950110   -0.5053414    -0.0000154   -0.0000090    -0.0000155   -0.0000087    -0.6110540   -0.5379649 
   0.224988800     0.4774179   -0.6228054    -0.0000085   -0.0000002    -0.0000101   -0.0000028    -0.7032455   -0.4041418 
   0.226988700     0.3401177   -0.7085143    -0.0000044   -0.0000015    -0.0000055   -0.0000020    -0.7670290   -0.2555875 
   0.228988600     0.1915247   -0.7607300    -0.0000039   -0.0000013    -0.0000057   -0.0000031    -0.8002602   -0.0982711 
   0.230988500     0.0377661   -0.7801726    -0.0000046   -0.0000034    -0.0000048   -0.0000029    -0.8020281    0.0614447 
   0.232988400    -0.1142344   -0.7651948    -0.0000037   -0.0000029    -0.0000043   -0.0000033    -0.7735071    0.2174553 
   0.234988300    -0.2594880   -0.7208516    -0.0000048   -0.0000007    -0.0000031   -0.0000021    -0.7157177    0.3637502 
   0.236988200    -0.3925430   -0.6474108    -0.0000052   -0.0000010    -0.0000024   -0.0000037    -0.6314885    0.4955997 
   0.238988100    -0.5078781   -0.5475370    -0.0000073   -0.0000009    -0.0000033   -0.0000032    -0.5246654    0.6082180 
   0.240988000    -0.6005752   -0.4244200    -0.0000081    0.0000017    -0.0000029   -0.0000010    -0.3994168    0.6981757 
   0.242987900    -0.6664772   -0.2821185    -0.0000073   -0.0000002    -0.0000021   -0.0000025    -0.2605358    0.7624232 
   0.244987800    -0.7007060   -0.1257439    -0.0000076    0.0000035    -0.0000018   -0.0000001    -0.1127805    0.7997663 
   0.246987700    -0.6993441    0.0394231    -0.0000066    0.0000041    -0.0000015   -0.0000009     0.0385642    0.8086149 
   0.248987600    -0.6590261    0.2055344    -0.0000041    0.0000061     0.0000003    0.0000003     0.1884096    0.7898155 
   0.250987500    -0.5778112    0.3626938    -0.0000031    0.0000068     0.0000013   -0.0000011     0.3317167    0.7438797 
   0.252987400    -0.4568509    0.4995775    -0.0000022    0.0000055     0.0000017   -0.0000039     0.4638065    0.6726226 
   0.254987300    -0.3007930    0.6048121    -0.0000004    0.0000068     0.0000019   -0.0000029     0.5806047    0.5785502 
   0.256987200    -0.1178106    0.6681159     0.0000021    0.0000081     0.0000021   -0.0000028     0.6782352    0.4646539 
   0.258987100     0.0806250    0.6820893     0.0000040    0.0000088     0.0000026   -0.0000030     0.7534611    0.3346200 
   0.260987000     0.2784831    0.6400020     0.0000059    0.0000070     0.0000033   -0.0000015     0.8038439    0.1926956 
   0.262986900     0.4595690    0.5443960     0.0000108    0.0000054     0.0000042   -0.0000014     0.8273824    0.0439087 
   0.264986800     0.6075751    0.4027720     0.0000101    0.0000007     0.0000053   -0.0000030     0.8229358   -0.1073518 
   0.266986700     0.7104048    0.2278392     0.0000111   -0.0000030     0.0000076   -0.0000048     0.7906340   -0.2559735 
   0.268986600     0.7615994    0.0355741     0.0000116   -0.0000042     0.0000092   -0.0000057     0.7309474   -0.3966384 
   0.270986500     0.7609887   -0.1582327     0.0000072   -0.0000094     0.0000114   -0.0000108     0.6456947   -0.5243195 
   0.272986400     0.7125906   -0.3398123     0.0000047   -0.0000120     0.0000092   -0.0000155     0.5373958   -0.6342900 
   0.274986300     0.6242434   -0.4983787    -0.0000001   -0.0000119     0.0000049   -0.0000203     0.4094965   -0.7221497 
   0.276986200     0.5049311   -0.6278875    -0.0000031   -0.0000117     0.0000016   -0.0000214     0.2667052   -0.7839609 
   0.278986100     0.3638601   -0.7234775    -0.0000033   -0.0000097    -0.0000043   -0.0000189     0.1140879   -0.8180473 
   0.280986000     0.2092568   -0.7836618    -0.0000046   -0.0000091    -0.0000067   -0.0000190    -0.0428808   -0.8222840 
   0.282985900     0.0495011   -0.8088197    -0.0000063   -0.0000089    -0.0000101   -0.0000183    -0.1979109   -0.7960634 
   0.284985800    -0.1082739   -0.8000694    -0.0000077   -0.0000096    -0.0000135   -0.0000180    -0.3452599   -0.7403395 
   0.286985700    -0.2582580   -0.7596102    -0.0000106   -0.0000087    -0.0000179   -0.0000155    -0.4791006   -0.6570923 
   0.288985600    -0.3949834   -0.6910939    -0.0000138   -0.0000058    -0.0000217   -0.0000101    -0.5941731   -0.5494554 
   0.290985500    -0.5143017   -0.5972404    -0.0000184   -0.0000011    -0.0000230   -0.0000035    -0.6861636   -0.4215644 
   0.292985400    -0.6122187   -0.4814942    -0.0000198    0.0000029    -0.0000234    0.0000016    -0.7514229   -0.2784804 
   0.294985300    -0.6859014   -0.3470167    -0.0000182    0.0000107    -0.0000222    0.0000096    -0.7874908   -0.1258205 
   0.296985200    -0.7312717   -0.1971525    -0.0000152    0.0000175    -0.0000164    0.0000153    -0.7932224    0.0302547 
   0.298985100    -0.7445195   -0.0377197    -0.0000099    0.0000212    -0.0000103    0.0000190    -0.7689735    0.1834621 
   0.300985000    -0.7218537    0.1255238    -0.0000045    0.0000219    -0.0000029    0.0000207    -0.7158071    0.3284915 
   0.302984900    -0.6615506    0.2837781     0.0000045    0.0000216     0.0000074    0.0000212    -0.6361616    0.4597408 
   0.304984800    -0.5624725    0.4283108     0.0000118    0.0000208     0.0000141    0.0000180    -0.5336216    0.5727779 
   0.306984700    -0.4269087    0.5471720     0.0000191    0.0000146     0.0000214    0.0000099    -0.4126243    0.6634424 
   0.308984600    -0.2610818    0.6296211     0.0000219    0.0000044     0.0000240    0.0000021    -0.2771641    0.7292956 
   0.310984500    -0.0753175    0.6657779     0.0000216   -0.0000034     0.0000231   -0.0000075    -0.1326633    0.7681624 
   0.312984400     0.1158573    0.6492761     0.0000170   -0.0000089     0.0000183   -0.0000152     0.0159015    0.7791596 
   0.314984300     0.2953418    0.5787842     0.0000130   -0.0000134     0.0000114   -0.0000203     0.1627676    0.7623492 
