! MS46122B
! 2250307/22442219
! 2/24/2026 9:12:52 AM
! C:\USERS\SPARKY\DOCUMENTS\VNA_DATA\FEB24_2026\WARM-PORT1-CABLE\SHORT.S2P
! CHANNEL.1
! TR.MEASUREMENT
! RAW.DATA
# GHZ S RI R 50.0
! FREQ.GHZ         S11RE         S11IM         S21RE         S21IM         S12RE         S12IM         S22RE         S22IM         
!; PortSelection: Port_12
   0.001000000     1.0448330   -0.0673090    -0.0000002    0.0000060     0.0000062   -0.0000021     0.8097932   -0.5537698 
   0.002999900     0.9641211   -0.1893884     0.0000037    0.0000021    -0.0000005    0.0000006     0.1722672   -0.8600635 
   0.004999800     0.9041989   -0.2943051    -0.0000018    0.0000000     0.0000014   -0.0000021    -0.3626552   -0.7633165 
   0.006999700     0.8341631   -0.3945770     0.0000004    0.0000034    -0.0000001    0.0000007    -0.6816006   -0.5212814 
   0.008999600     0.7518150   -0.4913823    -0.0000035    0.0000005    -0.0000007   -0.0000053    -0.8463461   -0.2470783 
   0.010999500     0.6502700   -0.5844871    -0.0000027   -0.0000031    -0.0000013   -0.0000028    -0.9008225    0.0184427 
   0.012999400     0.5211961   -0.6700259     0.0000008   -0.0000006    -0.0000021   -0.0000020    -0.8763620    0.2578428 
   0.014999300     0.3530904   -0.7351248    -0.0000005   -0.0000003     0.0000004    0.0000010    -0.7938074    0.4627235 
   0.016999200     0.1340666   -0.7553018     0.0000032    0.0000040     0.0000019   -0.0000014    -0.6689190    0.6294127 
   0.018999100    -0.1350391   -0.6795710     0.0000013   -0.0000021     0.0000007   -0.0000024    -0.5151037    0.7566658 
   0.020999000    -0.3991694   -0.4307987    -0.0000011   -0.0000037    -0.0000016   -0.0000005    -0.3414541    0.8433958 
   0.022998900    -0.4899899    0.0132058    -0.0000019   -0.0000027    -0.0000025    0.0000017    -0.1566297    0.8903921 
   0.024998800    -0.2476193    0.4300765    -0.0000027   -0.0000046    -0.0000028    0.0000003     0.0211918    0.9729427 
   0.026998700     0.1891134    0.6070225    -0.0000029    0.0000035    -0.0000003   -0.0000004     0.2163148    0.8706578 
   0.028998600     0.5524944    0.5105439     0.0000003    0.0000018    -0.0000007   -0.0000016     0.3913412    0.8064475 
   0.030998500     0.7677436    0.3143053     0.0000034    0.0000015     0.0000008    0.0000011     0.5511540    0.7081013 
   0.032998400     0.8378232    0.1231974    -0.0000009    0.0000010    -0.0000002   -0.0000013     0.7357021    0.6406239 
   0.034998300     0.9016268   -0.0725117    -0.0000041    0.0000011    -0.0000024   -0.0000006     0.7971299    0.4244907 
   0.036998200     0.8907529   -0.2271300    -0.0000007   -0.0000023     0.0000020   -0.0000023     0.8723211    0.2479357 
   0.038998100     0.8574691   -0.3569703     0.0000002   -0.0000005    -0.0000007   -0.0000003     0.9080620    0.0571011 
   0.040998000     0.8078040   -0.4708878     0.0000006   -0.0000016     0.0000001    0.0000014     0.9016553   -0.1386137 
   0.042997900     0.7436685   -0.5680537    -0.0000037    0.0000012     0.0000029    0.0000019     0.8518139   -0.3296194 
   0.044997800     0.6577007   -0.6163042     0.0000007    0.0000019    -0.0000010   -0.0000028     0.8304272   -0.5293499 
   0.046997700     0.5879410   -0.7176992     0.0000030   -0.0000012     0.0000005   -0.0000014     0.6320243   -0.6579388 
   0.048997600     0.5003615   -0.7728910     0.0000032   -0.0000006     0.0000001    0.0000018     0.4741004   -0.7771966 
   0.050997500     0.4082687   -0.8163533     0.0000001   -0.0000028    -0.0000009   -0.0000004     0.2945778   -0.8588234 
   0.052997400     0.3128376   -0.8480241    -0.0000049   -0.0000066    -0.0000038    0.0000005     0.1052649   -0.8995466 
   0.054997300     0.2118876   -0.8693532    -0.0000059   -0.0000010    -0.0000019   -0.0000082    -0.0894600   -0.8996553 
   0.056997200     0.1077991   -0.8779290    -0.0000002    0.0000006    -0.0000009    0.0000016    -0.2735998   -0.8601095 
   0.058997100     0.0010466   -0.8742218    -0.0000025   -0.0000029    -0.0000011    0.0000004    -0.4440061   -0.7848592 
   0.060997000    -0.1074483   -0.8561314     0.0000002   -0.0000002     0.0000003   -0.0000061    -0.5933651   -0.6780382 
   0.062996900    -0.2174825   -0.8222544    -0.0000009    0.0000023     0.0000003   -0.0000027    -0.7159780   -0.5460171 
   0.064996800    -0.3265032   -0.7713526     0.0000007   -0.0000005    -0.0000007   -0.0000001    -0.8086007   -0.3951112 
   0.066996700    -0.4324607   -0.7009551     0.0000006    0.0000003    -0.0000028   -0.0000003    -0.8690528   -0.2318144 
   0.068996600    -0.5322052   -0.6091041    -0.0000019   -0.0000016    -0.0000009    0.0000000    -0.8961428   -0.0630943 
   0.070996500    -0.6208736   -0.4946034    -0.0000012   -0.0000044    -0.0000016    0.0000023    -0.8909782    0.1050893 
   0.072996400    -0.6911401   -0.3559758     0.0000000    0.0000020    -0.0000016    0.0000002    -0.8556336    0.2668017 
   0.074996300    -0.7355585   -0.1946596    -0.0000005   -0.0000012    -0.0000015    0.0000003    -0.7917643    0.4169805 
   0.076996200    -0.7451669   -0.0151337    -0.0000017   -0.0000020    -0.0000022    0.0000022    -0.7027337    0.5513499 
   0.078996100    -0.7113023    0.1746199    -0.0000007   -0.0000020    -0.0000003    0.0000008    -0.5923557    0.6669039 
   0.080996000    -0.6264209    0.3619270    -0.0000016   -0.0000003     0.0000013    0.0000012    -0.4646577    0.7600944 
   0.082995900    -0.4885983    0.5291859    -0.0000010    0.0000011    -0.0000010   -0.0000010    -0.3233621    0.8287733 
   0.084995800    -0.3036146    0.6563854     0.0000012   -0.0000017     0.0000021   -0.0000010    -0.1731556    0.8714591 
   0.086995700    -0.0856431    0.7288207    -0.0000002   -0.0000011     0.0000027    0.0000018    -0.0175967    0.8871493 
   0.088995600     0.1445338    0.7360201     0.0000020   -0.0000002    -0.0000012   -0.0000012     0.1377434    0.8756287 
   0.090995500     0.3640967    0.6785645     0.0000000   -0.0000017     0.0000025   -0.0000011     0.2886673    0.8367335 
   0.092995400     0.5532050    0.5657991    -0.0000004    0.0000000     0.0000020    0.0000006     0.4304162    0.7717310 
   0.094995300     0.6974566    0.4137840     0.0000018   -0.0000022    -0.0000004   -0.0000009     0.5593932    0.6817455 
   0.096995200     0.7924903    0.2400738     0.0000009   -0.0000025    -0.0000014   -0.0000016     0.6705506    0.5705459 
   0.098995100     0.8400617    0.0603423    -0.0000004   -0.0000001     0.0000006   -0.0000026     0.7602385    0.4403061 
   0.100995000     0.8454910   -0.1145697    -0.0000005   -0.0000013     0.0000006   -0.0000028     0.8250710    0.2953909 
   0.102994900     0.8152136   -0.2744868     0.0000002   -0.0000009     0.0000008   -0.0000005     0.8627623    0.1399710 
   0.104994800     0.7576497   -0.4167753    -0.0000013   -0.0000010     0.0000004   -0.0000030     0.8715178   -0.0206831 
   0.106994700     0.6787673   -0.5380490    -0.0000006   -0.0000011    -0.0000004   -0.0000014     0.8502647   -0.1812815 
   0.108994600     0.5855456   -0.6390634    -0.0000002   -0.0000020    -0.0000002   -0.0000011     0.7991438   -0.3358773 
   0.110994500     0.4812383   -0.7193745    -0.0000016   -0.0000011    -0.0000006   -0.0000008     0.7195055   -0.4793187 
   0.112994400     0.3694156   -0.7802544    -0.0000002   -0.0000004     0.0000001   -0.0000015     0.6138579   -0.6058542 
   0.114994300     0.2529561   -0.8214510    -0.0000018   -0.0000004    -0.0000009   -0.0000025     0.4855082   -0.7106578 
   0.116994200     0.1340873   -0.8438570    -0.0000008    0.0000005    -0.0000001   -0.0000030     0.3389502   -0.7889799 
   0.118994100     0.0149162   -0.8483413    -0.0000003   -0.0000013    -0.0000016   -0.0000013     0.1795910   -0.8379525 
   0.120994000    -0.1025912   -0.8364413    -0.0000018    0.0000002    -0.0000013   -0.0000025     0.0136200   -0.8551682 
   0.122993900    -0.2178026   -0.8063038     0.0000003    0.0000001    -0.0000006    0.0000013    -0.1526493   -0.8404170 
   0.124993800    -0.3273012   -0.7594804    -0.0000010    0.0000001    -0.0000026   -0.0000007    -0.3128290   -0.7936226 
   0.126993700    -0.4307631   -0.6958289     0.0000007   -0.0000002    -0.0000015   -0.0000016    -0.4603264   -0.7172488 
   0.128993600    -0.5244077   -0.6147328    -0.0000005    0.0000011    -0.0000020   -0.0000002    -0.5901482   -0.6142797 
   0.130993500    -0.6068761   -0.5187396    -0.0000023   -0.0000001    -0.0000014    0.0000003    -0.6972631   -0.4888525 
   0.132993400    -0.6752044   -0.4078037    -0.0000002    0.0000012    -0.0000015    0.0000019    -0.7780628   -0.3459835 
   0.134993300    -0.7258912   -0.2826494    -0.0000008    0.0000003    -0.0000028    0.0000004    -0.8299525   -0.1916471 
   0.136993200    -0.7556798   -0.1455917    -0.0000021    0.0000021     0.0000006    0.0000008    -0.8517221   -0.0313047 
   0.138993100    -0.7608303    0.0006077    -0.0000007   -0.0000001    -0.0000008    0.0000001    -0.8431067    0.1293959 
   0.140993000    -0.7381578    0.1511241    -0.0000014    0.0000009    -0.0000018    0.0000006    -0.8048377    0.2843632 
   0.142992900    -0.6840683    0.3006796     0.0000001    0.0000009     0.0000001   -0.0000008    -0.7393899    0.4286738 
   0.144992800    -0.5983893    0.4428687     0.0000014   -0.0000001     0.0000001    0.0000011    -0.6486925    0.5569749 
   0.146992700    -0.4790956    0.5679215    -0.0000014   -0.0000004     0.0000006    0.0000005    -0.5369618    0.6665141 
   0.148992600    -0.3303324    0.6669670    -0.0000017   -0.0000001     0.0000018   -0.0000007    -0.4080175    0.7535314 
   0.150992500    -0.1579325    0.7302927    -0.0000001    0.0000004     0.0000007   -0.0000011    -0.2665670    0.8161386 
   0.152992400     0.0285011    0.7536375    -0.0000007    0.0000002     0.0000015   -0.0000001    -0.1165086    0.8512729 
   0.154992300     0.2169306    0.7319670    -0.0000003    0.0000011     0.0000005   -0.0000016     0.0370424    0.8590635 
   0.156992200     0.3953943    0.6657262    -0.0000006   -0.0000015     0.0000022   -0.0000012     0.1891508    0.8394246 
   0.158992100     0.5522179    0.5594013    -0.0000005   -0.0000001     0.0000020   -0.0000014     0.3350726    0.7929325 
   0.160992000     0.6774515    0.4211162    -0.0000004   -0.0000006     0.0000032   -0.0000018     0.4701721    0.7208900 
   0.162991900     0.7648965    0.2614706     0.0000010   -0.0000011     0.0000015   -0.0000017     0.5904714    0.6259654 
   0.164991800     0.8130968    0.0907930    -0.0000015   -0.0000020     0.0000007   -0.0000041     0.6920493    0.5108910 
   0.166991700     0.8220046   -0.0803385    -0.0000009   -0.0000011    -0.0000001   -0.0000033     0.7714410    0.3790650 
   0.168991600     0.7953644   -0.2431158    -0.0000010   -0.0000016     0.0000002   -0.0000039     0.8256945    0.2349175 
   0.170991500     0.7380494   -0.3916687    -0.0000016   -0.0000016     0.0000005   -0.0000042     0.8530502    0.0825921 
   0.172991400     0.6561515   -0.5205885    -0.0000031   -0.0000007    -0.0000006   -0.0000050     0.8520642   -0.0726342 
   0.174991300     0.5552701   -0.6273891    -0.0000017   -0.0000002    -0.0000032   -0.0000039     0.8229530   -0.2254743 
   0.176991200     0.4398216   -0.7113039    -0.0000033   -0.0000016    -0.0000039   -0.0000038     0.7659805   -0.3707762 
   0.178991100     0.3150259   -0.7715076    -0.0000042   -0.0000001    -0.0000033   -0.0000029     0.6828810   -0.5037525 
   0.180991000     0.1858884   -0.8092788    -0.0000060    0.0000010    -0.0000058   -0.0000018     0.5761179   -0.6190951 
   0.182990900     0.0550629   -0.8228127    -0.0000049    0.0000029    -0.0000031    0.0000014     0.4494377   -0.7129011 
   0.184990800    -0.0746423   -0.8149795    -0.0000022    0.0000057    -0.0000010    0.0000019     0.3070986   -0.7815130 
   0.186990700    -0.1998427   -0.7862142    -0.0000004    0.0000056     0.0000005    0.0000034     0.1541996   -0.8222171 
   0.188990600    -0.2966312   -0.7461573     0.0000014    0.0000015     0.0000009    0.0000010     0.0188551   -0.8333231 
   0.190990500    -0.4225570   -0.6726328     0.0000023    0.0000015     0.0000009    0.0000004    -0.1578238   -0.8152826 
   0.192990400    -0.5214984   -0.5872173     0.0000017    0.0000005     0.0000013   -0.0000015    -0.3115975   -0.7665448 
   0.194990300    -0.6035770   -0.4880497     0.0000005    0.0000009    -0.0000007   -0.0000016    -0.4500352   -0.6911540 
   0.196990200    -0.6688305   -0.3757845     0.0000026   -0.0000007    -0.0000003   -0.0000007    -0.5715155   -0.5913201 
   0.198990100    -0.7147864   -0.2524617     0.0000018    0.0000006     0.0000010   -0.0000007    -0.6715907   -0.4707179 
   0.200990000    -0.7396621   -0.1199832     0.0000008   -0.0000002     0.0000004   -0.0000003    -0.7468415   -0.3342362 
   0.202989900    -0.7413377    0.0182861     0.0000007   -0.0000008     0.0000004   -0.0000014    -0.7953405   -0.1871101 
   0.204989800    -0.7175056    0.1580375     0.0000003    0.0000008     0.0000018    0.0000002    -0.8153856   -0.0345340 
   0.206989700    -0.6685166    0.2943225     0.0000010   -0.0000016     0.0000019   -0.0000007    -0.8069184    0.1183935 
   0.208989600    -0.5912855    0.4222786    -0.0000008   -0.0000005     0.0000003   -0.0000018    -0.7709101    0.2661105 
   0.210989500    -0.4879004    0.5360476    -0.0000007   -0.0000017     0.0000009   -0.0000015    -0.7089512    0.4040722 
   0.212989400    -0.3604748    0.6296163    -0.0000001   -0.0000009     0.0000024   -0.0000019    -0.6236578    0.5275091 
   0.214989300    -0.2130557    0.6967437     0.0000002   -0.0000026     0.0000015   -0.0000023    -0.5180052    0.6330908 
   0.216989200    -0.0524641    0.7319787    -0.0000004   -0.0000015     0.0000007   -0.0000048    -0.3959224    0.7177371 
   0.218989100     0.1145350    0.7326604    -0.0000035   -0.0000013     0.0000012   -0.0000024    -0.2613125    0.7788076 
   0.220989000     0.2794427    0.6968295    -0.0000027    0.0000004     0.0000018   -0.0000051    -0.1188739    0.8146857 
   0.222988900     0.4339526    0.6258219    -0.0000017   -0.0000014     0.0000010   -0.0000052     0.0275319    0.8250003 
   0.224988800     0.5696806    0.5227626    -0.0000028   -0.0000007     0.0000007   -0.0000041     0.1729528    0.8095074 
   0.226988700     0.6787090    0.3942445    -0.0000038   -0.0000011     0.0000009   -0.0000073     0.3133456    0.7687504 
   0.228988600     0.7565958    0.2475896    -0.0000024   -0.0000002     0.0000004   -0.0000059     0.4440568    0.7042233 
   0.230988500     0.8014600    0.0903838    -0.0000022    0.0000006     0.0000000   -0.0000062     0.5614858    0.6174573 
   0.232988400     0.8113995   -0.0694912    -0.0000015   -0.0000010     0.0000010   -0.0000061     0.6619754    0.5113056 
   0.234988300     0.7904714   -0.2244340     0.0000003   -0.0000003     0.0000003   -0.0000065     0.7423781    0.3893085 
   0.236988200     0.7408459   -0.3688881    -0.0000007    0.0000006    -0.0000018   -0.0000083     0.8003659    0.2545365 
   0.238988100     0.6665452   -0.4973425    -0.0000004    0.0000023    -0.0000026   -0.0000072     0.8337737    0.1109938 
   0.240988000     0.5721108   -0.6061118    -0.0000020    0.0000005    -0.0000036   -0.0000053     0.8411402   -0.0367301 
   0.242987900     0.4627251   -0.6939130    -0.0000009    0.0000014    -0.0000024   -0.0000062     0.8221625   -0.1840280 
   0.244987800     0.3424686   -0.7593465     0.0000008    0.0000015    -0.0000038   -0.0000044     0.7767701   -0.3260768 
   0.246987700     0.2156195   -0.8021763    -0.0000002    0.0000009    -0.0000033   -0.0000040     0.7062092   -0.4585435 
   0.248987600     0.0856272   -0.8224995     0.0000004    0.0000008    -0.0000042   -0.0000034     0.6121439   -0.5765802 
   0.250987500    -0.0446698   -0.8207011    -0.0000014    0.0000010    -0.0000046   -0.0000018     0.4977115   -0.6761457 
   0.252987400    -0.1706766   -0.7976196    -0.0000002    0.0000011    -0.0000026   -0.0000027     0.3661813   -0.7533246 
   0.254987300    -0.2897285   -0.7549087     0.0000018   -0.0000017    -0.0000028   -0.0000003     0.2220741   -0.8051542 
   0.256987200    -0.3993555   -0.6938930     0.0000019    0.0000010    -0.0000005    0.0000004     0.0703796   -0.8294639 
   0.258987100    -0.4987632   -0.6168237    -0.0000010   -0.0000012    -0.0000002   -0.0000003    -0.0836050   -0.8251312 
   0.260987000    -0.5838993   -0.5229985    -0.0000001   -0.0000021     0.0000028   -0.0000002    -0.2346950   -0.7917885 
   0.262986900    -0.6534229   -0.4152119    -0.0000006   -0.0000011     0.0000042   -0.0000015    -0.3767222   -0.7305356 
   0.264986800    -0.7044868   -0.2959024     0.0000001   -0.0000018     0.0000054   -0.0000035    -0.5049413   -0.6439145 
   0.266986700    -0.7348189   -0.1672777    -0.0000011   -0.0000024     0.0000066   -0.0000061    -0.6143094   -0.5345972 
   0.268986600    -0.7424002   -0.0334016    -0.0000009   -0.0000023     0.0000042   -0.0000101    -0.7009531   -0.4071408 
   0.270986500    -0.7263208    0.1023618    -0.0000015   -0.0000021     0.0000037   -0.0000125    -0.7617463   -0.2656815 
   0.272986400    -0.6846744    0.2358832    -0.0000037   -0.0000020    -0.0000014   -0.0000145    -0.7950873   -0.1160184 
   0.274986300    -0.6170604    0.3624483    -0.0000049   -0.0000026    -0.0000051   -0.0000109    -0.7995302    0.0366618 
   0.276986200    -0.5240214    0.4769869    -0.0000040   -0.0000003    -0.0000076   -0.0000093    -0.7748954    0.1863028 
   0.278986100    -0.4066647    0.5736819    -0.0000059    0.0000005    -0.0000073   -0.0000065    -0.7238408    0.3283618 
   0.280986000    -0.2684330    0.6458345    -0.0000034    0.0000020    -0.0000065   -0.0000035    -0.6476873    0.4576575 
   0.282985900    -0.1143712    0.6885872    -0.0000032    0.0000022    -0.0000047   -0.0000022    -0.5496361    0.5698833 
   0.284985800     0.0482813    0.6972928    -0.0000037    0.0000033    -0.0000037   -0.0000018    -0.4336066    0.6617536 
   0.286985700     0.2111478    0.6698953    -0.0000022    0.0000032    -0.0000021   -0.0000025    -0.3034505    0.7304257 
   0.288985600     0.3645681    0.6066757    -0.0000012    0.0000028     0.0000019   -0.0000018    -0.1638373    0.7741231 
   0.290985500     0.5005028    0.5104259     0.0000012    0.0000037     0.0000022   -0.0000028    -0.0191376    0.7917388 
   0.292985400     0.6109167    0.3870387    -0.0000006    0.0000025     0.0000032   -0.0000063     0.1257073    0.7830803 
   0.294985300     0.6905659    0.2431415    -0.0000006    0.0000007     0.0000026   -0.0000060     0.2659423    0.7489340 
   0.296985200     0.7359990    0.0871346    -0.0000001   -0.0000009     0.0000024   -0.0000091     0.3974880    0.6902951 
   0.298985100     0.7461915   -0.0724510     0.0000015    0.0000001    -0.0000001   -0.0000105     0.5161591    0.6093401 
   0.300985000     0.7225028   -0.2266221     0.0000019    0.0000001     0.0000001   -0.0000109     0.6184296    0.5087084 
   0.302984900     0.6688840   -0.3689087     0.0000001   -0.0000014    -0.0000021   -0.0000111     0.7010400    0.3918911 
   0.304984800     0.5899984   -0.4931563     0.0000020    0.0000003    -0.0000054   -0.0000104     0.7616559    0.2619948 
   0.306984700     0.4913665   -0.5960662     0.0000004   -0.0000021    -0.0000066   -0.0000102     0.7983714    0.1230835 
   0.308984600     0.3794251   -0.6753689    -0.0000010   -0.0000011    -0.0000073   -0.0000094     0.8095722   -0.0204297 
   0.310984500     0.2593017   -0.7310624     0.0000002   -0.0000022    -0.0000079   -0.0000089     0.7951403   -0.1639404 
   0.312984400     0.1354112   -0.7635260    -0.0000004   -0.0000024    -0.0000120   -0.0000068     0.7549444   -0.3031730 
   0.314984300     0.0113150   -0.7739740    -0.0000013   -0.0000022    -0.0000103   -0.0000041     0.6902347   -0.4335016 
