! MS46122B
! 2250307/22442219
! 2/18/2026 9:14:54 AM
! C:\USERS\SPARKY\DOCUMENTS\VNA_DATA\FEB18_2026\COLD-PORT1.S2P
! CHANNEL.1
! TR.MEASUREMENT
! RAW.DATA
# GHZ S RI R 50.0
! FREQ.GHZ         S11RE         S11IM         S21RE         S21IM         S12RE         S12IM         S22RE         S22IM         
!; PortSelection: Port_12
   0.001000000     1.0455770   -0.0668463    -0.0003871   -0.0009415    -0.0003270   -0.0009516     0.8068948   -0.5598967 
   0.002999900     0.9623249   -0.1931315    -0.0212696   -0.0141289    -0.0222387   -0.0146511     0.0482031   -0.8676747 
   0.004999800     0.8800560   -0.3134882    -0.1271228    0.0056995    -0.1338920    0.0089337    -0.7249883   -0.4078524 
   0.006999700     0.7109509   -0.3792238    -0.2142944    0.3360472    -0.2054648    0.3560555    -0.2399215    0.7086487 
   0.008999600     0.6691455   -0.3022824     0.2869156    0.4497707     0.2964949    0.4533049     0.5038843   -0.2618518 
   0.010999500     0.6854772   -0.3531567     0.4572172    0.1791940     0.4735878    0.1834188    -0.1244389   -0.6128483 
   0.012999400     0.6520638   -0.4257601     0.4716753   -0.0054127     0.4910195   -0.0112534    -0.5244897   -0.4297360 
   0.014999300     0.5941057   -0.4902030     0.4532752   -0.1450920     0.4678668   -0.1605559    -0.6878827   -0.1417254 
   0.016999200     0.5206708   -0.5414774     0.4163420   -0.2690046     0.4216720   -0.2898434    -0.6893998    0.1384981 
   0.018999100     0.4342542   -0.5765315     0.3570645   -0.3872686     0.3525046   -0.4068986    -0.5791249    0.3649786 
   0.020999000     0.3380422   -0.5893191     0.2692818   -0.4994651     0.2560852   -0.5134418    -0.3966957    0.5129348 
   0.022998900     0.2374258   -0.5744557     0.1442783   -0.5987516     0.1278382   -0.6026167    -0.1816386    0.5681961 
   0.024998800     0.1452323   -0.5054473     0.0101242   -0.6963837    -0.0437394   -0.6635410     0.0217988    0.5720422 
   0.026998700     0.0672025   -0.4438801    -0.2258553   -0.6871614    -0.2295907   -0.6754123     0.1805935    0.4066608 
   0.028998600     0.0303855   -0.3365784    -0.4441319   -0.6297922    -0.4387973   -0.6212150     0.2496168    0.2397022 
   0.030998500     0.0425964   -0.2255992    -0.6406896   -0.4887174    -0.6315175   -0.4883683     0.2198535    0.0823607 
   0.032998400     0.0964490   -0.1297266    -0.7915975   -0.3299499    -0.7746329   -0.2770847     0.1293869   -0.0073251 
   0.034998300     0.1817874   -0.0865099    -0.8251238   -0.0402675    -0.8260438   -0.0463525    -0.0057128   -0.0135698 
   0.036998200     0.2656639   -0.0794508    -0.7930121    0.1900823    -0.7965568    0.1889123    -0.0903800    0.0622585 
   0.038998100     0.3354156   -0.1016762    -0.7003975    0.3866589    -0.7021923    0.3897968    -0.1054677    0.1712542 
   0.040998000     0.3873728   -0.1446028    -0.5661740    0.5410342    -0.5631570    0.5449370    -0.0533079    0.2745084 
   0.042997900     0.4174319   -0.1983649    -0.4065400    0.6481053    -0.3996383    0.6500278     0.0522562    0.3410598 
   0.044997800     0.4170886   -0.2378765    -0.2810529    0.7266723    -0.2199393    0.7116592     0.1973399    0.3857767 
   0.046997700     0.4240988   -0.3087761    -0.0633638    0.7315070    -0.0584400    0.7248355     0.3198818    0.3015317 
   0.048997600     0.4090805   -0.3583224     0.1024768    0.7146041     0.1036511    0.7061837     0.4287016    0.1982713 
   0.050997500     0.3856683   -0.4030471     0.2562597    0.6632563     0.2526943    0.6560302     0.4942898    0.0557740 
   0.052997400     0.3564973   -0.4425364     0.3910700    0.5814104     0.3837985    0.5784313     0.5056821   -0.1058250 
   0.054997300     0.3196818   -0.4798146     0.5041392    0.4734118     0.4948232    0.4763285     0.4596519   -0.2662769 
   0.056997200     0.2779177   -0.5126239     0.5864093    0.3499238     0.5816763    0.3529833     0.3627371   -0.4032885 
   0.058997100     0.2303487   -0.5412198     0.6396284    0.2133782     0.6381450    0.2173068     0.2256502   -0.5028460 
   0.060997000     0.1760442   -0.5642710     0.6627638    0.0720897     0.6638351    0.0754093     0.0650920   -0.5540131 
   0.062996900     0.1156230   -0.5799194     0.6565188   -0.0677353     0.6588799   -0.0660660    -0.1010193   -0.5533851 
   0.064996800     0.0486220   -0.5863596     0.6234687   -0.2001787     0.6253355   -0.2008957    -0.2563426   -0.5037372 
   0.066996700    -0.0224520   -0.5816260     0.5664847   -0.3216096     0.5664574   -0.3234538    -0.3860787   -0.4134729 
   0.068996600    -0.0963813   -0.5633905     0.4884437   -0.4291409     0.4863568   -0.4304129    -0.4810658   -0.2932576 
   0.070996500    -0.1708771   -0.5307220     0.3927234   -0.5203960     0.3885990   -0.5192795    -0.5356364   -0.1572469 
   0.072996400    -0.2420245   -0.4800828     0.2808967   -0.5922158     0.2768653   -0.5882348    -0.5496014   -0.0178050 
   0.074996300    -0.3047909   -0.4119844     0.1559083   -0.6430705     0.1537607   -0.6359232    -0.5263637    0.1127810 
   0.076996200    -0.3550015   -0.3268999     0.0203741   -0.6697012     0.0218449   -0.6606871    -0.4726842    0.2250183 
   0.078996100    -0.3869134   -0.2265428    -0.1216803   -0.6689217    -0.1160714   -0.6602523    -0.3967073    0.3127736 
   0.080996000    -0.3940058   -0.1154345    -0.2658959   -0.6384868    -0.2561689   -0.6319442    -0.3090442    0.3727929 
   0.082995900    -0.3718894    0.0000522    -0.4051728   -0.5750027    -0.3929436   -0.5727453    -0.2193911    0.4057601 
   0.084995800    -0.3177458    0.1098305    -0.5300990   -0.4785845    -0.5180603   -0.4813133    -0.1366255    0.4156697 
   0.086995700    -0.2327113    0.2035989    -0.6331080   -0.3515941    -0.6230795   -0.3584621    -0.0655471    0.4098038 
   0.088995600    -0.1227736    0.2712209    -0.7041149   -0.1996177    -0.6971430   -0.2088119    -0.0085143    0.3969021 
   0.090995500     0.0028139    0.3040040    -0.7356028   -0.0319975    -0.7322407   -0.0417083     0.0376686    0.3843952 
   0.092995400     0.1315533    0.2997108    -0.7246087    0.1398706    -0.7231649    0.1310099     0.0797099    0.3765218 
   0.094995300     0.2506435    0.2592622    -0.6702961    0.3024968    -0.6699464    0.2948983     0.1248822    0.3728118 
   0.096995200     0.3505086    0.1891693    -0.5785000    0.4450337    -0.5781236    0.4382886     0.1790229    0.3683510 
   0.098995100     0.4247625    0.0993331    -0.4569573    0.5587189    -0.4567185    0.5514868     0.2443530    0.3554165 
   0.100995000     0.4719876   -0.0055457    -0.3134335    0.6401461    -0.3155869    0.6311048     0.3197738    0.3256407 
   0.102994900     0.4901437   -0.1100659    -0.1610896    0.6827674    -0.1660780    0.6732824     0.3942445    0.2747241 
   0.104994800     0.4838787   -0.2108682    -0.0081499    0.6897093    -0.0162450    0.6812629     0.4615255    0.1997448 
   0.106994700     0.4568951   -0.3032275     0.1377668    0.6632867     0.1270360    0.6579326     0.5126532    0.1021872 
   0.108994600     0.4133997   -0.3852472     0.2706027    0.6084086     0.2583653    0.6068067     0.5392549   -0.0124280 
   0.110994500     0.3568034   -0.4547626     0.3854868    0.5294073     0.3732844    0.5318850     0.5358741   -0.1366762 
   0.112994400     0.2896466   -0.5109107     0.4789343    0.4313918     0.4683758    0.4378600     0.4998282   -0.2613238 
   0.114994300     0.2150910   -0.5533013     0.5489545    0.3196709     0.5411025    0.3286396     0.4306778   -0.3764462 
   0.116994200     0.1348641   -0.5815325     0.5940920    0.1994458     0.5898129    0.2096480     0.3322535   -0.4725073 
   0.118994100     0.0512525   -0.5952457     0.6147098    0.0757025     0.6135567    0.0856414     0.2102302   -0.5416412 
   0.120994000    -0.0334106   -0.5951222     0.6116117   -0.0466290     0.6127449   -0.0385219     0.0731934   -0.5778991 
   0.122993900    -0.1179836   -0.5793073     0.5860104   -0.1649470     0.5883973   -0.1579808    -0.0692019   -0.5780945 
   0.124993800    -0.1998465   -0.5485215     0.5398656   -0.2747365     0.5427627   -0.2691867    -0.2071976   -0.5419967 
   0.126993700    -0.2766367   -0.5023643     0.4749443   -0.3736567     0.4781539   -0.3684200    -0.3301157   -0.4728401 
   0.128993600    -0.3452820   -0.4414694     0.3932789   -0.4592686     0.3970367   -0.4539793    -0.4303895   -0.3759888 
   0.130993500    -0.4029725   -0.3672881     0.2976707   -0.5287735     0.3020521   -0.5239055    -0.5021083   -0.2590885 
   0.132993400    -0.4466161   -0.2805091     0.1900946   -0.5803538     0.1956952   -0.5758880    -0.5408469   -0.1313781 
   0.134993300    -0.4732378   -0.1838852     0.0730238   -0.6124123     0.0800263   -0.6083837    -0.5463417   -0.0023045 
   0.136993200    -0.4796379   -0.0804899    -0.0505688   -0.6222250    -0.0417396   -0.6198912    -0.5212860    0.1193529 
   0.138993100    -0.4630263    0.0253020    -0.1770038   -0.6082548    -0.1673260   -0.6080560    -0.4699395    0.2257790 
   0.140993000    -0.4224421    0.1274029    -0.3022714   -0.5683643    -0.2923872   -0.5710654    -0.3991694    0.3117023 
   0.142992900    -0.3580665    0.2203178    -0.4205465   -0.5018761    -0.4116286   -0.5072219    -0.3161677    0.3748956 
   0.144992800    -0.2720951    0.2970779    -0.5260534   -0.4090574    -0.5189191   -0.4165471    -0.2290198    0.4146596 
   0.146992700    -0.1681993    0.3511056    -0.6113949   -0.2915686    -0.6065478   -0.3001231    -0.1437894    0.4345546 
   0.148992600    -0.0535027    0.3781190    -0.6701767   -0.1536540    -0.6675290   -0.1625440    -0.0647222    0.4387206 
   0.150992500     0.0639839    0.3749245    -0.6957752   -0.0019660    -0.6946273   -0.0107578     0.0068542    0.4324961 
   0.152992400     0.1764314    0.3436520    -0.6851888    0.1545562    -0.6850688    0.1462204     0.0719151    0.4196536 
   0.154992300     0.2752065    0.2864039    -0.6369303    0.3059236    -0.6377229    0.2973285     0.1328883    0.4023124 
   0.156992200     0.3553053    0.2079302    -0.5528695    0.4424673    -0.5551960    0.4330302     0.1928669    0.3806299 
   0.158992100     0.4127035    0.1156951    -0.4390346    0.5545675    -0.4434439    0.5447477     0.2536142    0.3520710 
   0.160992000     0.4454423    0.0156634    -0.3025321    0.6357561    -0.3101908    0.6263396     0.3151855    0.3132764 
   0.162991900     0.4540002   -0.0857268    -0.1527577    0.6819117    -0.1639199    0.6742219     0.3750494    0.2610670 
   0.164991800     0.4409833   -0.1833961     0.0007137    0.6924452    -0.0129999    0.6879155     0.4282134    0.1930717 
   0.166991700     0.4079617   -0.2723992     0.1492197    0.6681274     0.1343568    0.6682701     0.4692726    0.1096871 
   0.168991600     0.3582358   -0.3503392     0.2854822    0.6127716     0.2710575    0.6176974     0.4923985    0.0130397 
   0.170991500     0.2955694   -0.4148698     0.4032798    0.5317334     0.3915213    0.5406232     0.4932261   -0.0917449 
   0.172991400     0.2229899   -0.4647156     0.4988371    0.4302849     0.4906373    0.4418614     0.4678538   -0.1983553 
   0.174991300     0.1431562   -0.4983941     0.5695608    0.3144073     0.5653786    0.3271061     0.4159147   -0.2993615 
   0.176991200     0.0595770   -0.5158513     0.6145152    0.1898809     0.6141680    0.2021790     0.3389652   -0.3869711 
   0.178991100    -0.0252964   -0.5167589     0.6337800    0.0620934     0.6364349    0.0726441     0.2407908   -0.4543463 
   0.180991000    -0.1083612   -0.5022216     0.6287935   -0.0647553     0.6329942   -0.0559847     0.1273369   -0.4957464 
   0.182990900    -0.1875241   -0.4710027     0.6001462   -0.1865684     0.6055918   -0.1794869     0.0063478   -0.5074843 
   0.184990800    -0.2590868   -0.4247905     0.5505039   -0.2994584     0.5558943   -0.2943349    -0.1140287   -0.4885791 
   0.186990700    -0.3210343   -0.3652329     0.4815312   -0.4008762     0.4867220   -0.3969850    -0.2249003   -0.4401782 
   0.188990600    -0.3619159   -0.3034835     0.4093716   -0.4758368     0.4123278   -0.4749425    -0.3095208   -0.3745586 
   0.190990500    -0.4027828   -0.2134870     0.2956819   -0.5578631     0.3016431   -0.5551909    -0.3888677   -0.2734584 
   0.192990400    -0.4200003   -0.1242898     0.1795534   -0.6108739     0.1865122   -0.6089772    -0.4334522   -0.1661105 
   0.194990300    -0.4176328   -0.0337213     0.0558179   -0.6415499     0.0632521   -0.6407578    -0.4480967   -0.0562475 
   0.196990200    -0.3953827    0.0551601    -0.0743720   -0.6484193    -0.0662619   -0.6491338    -0.4353123    0.0493322 
   0.198990100    -0.3535792    0.1375430    -0.2069286   -0.6297100    -0.1986160   -0.6319714    -0.3987758    0.1436630 
   0.200990000    -0.2934940    0.2093896    -0.3372431   -0.5834154    -0.3293023   -0.5875534    -0.3432596    0.2212042 
   0.202989900    -0.2177460    0.2656678    -0.4591896   -0.5090658    -0.4520759   -0.5147519    -0.2758282    0.2789758 
   0.204989800    -0.1310626    0.3023777    -0.5657732   -0.4073790    -0.5599901   -0.4140912    -0.2028971    0.3165270 
   0.206989700    -0.0389070    0.3176400    -0.6503901   -0.2812607    -0.6453539   -0.2892404    -0.1306821    0.3353274 
   0.208989600     0.0534361    0.3096511    -0.7057455   -0.1353704    -0.7023547   -0.1447796    -0.0633460    0.3387585 
   0.210989500     0.1393367    0.2800967    -0.7271116    0.0228367    -0.7251596    0.0123233    -0.0035210    0.3311618 
   0.212989400     0.2138059    0.2313415    -0.7109934    0.1842107    -0.7108881    0.1731051     0.0489151    0.3163769 
   0.214989300     0.2723011    0.1681664    -0.6568903    0.3393064    -0.6595188    0.3277105     0.0947683    0.2974714 
   0.216989200     0.3121288    0.0954574    -0.5678827    0.4780695    -0.5739500    0.4664994     0.1363330    0.2758382 
   0.218989100     0.3325673    0.0191113    -0.4493044    0.5925791    -0.4591767    0.5824440     0.1754886    0.2509842 
   0.220989000     0.3343419   -0.0562544    -0.3082123    0.6766236    -0.3211627    0.6693448     0.2130910    0.2215131 
   0.222988900     0.3195332   -0.1266878    -0.1530071    0.7263610    -0.1678795    0.7233220     0.2485797    0.1853634 
   0.224988800     0.2907745   -0.1882373     0.0076704    0.7404979    -0.0069791    0.7422513     0.2797638    0.1410360 
   0.226988700     0.2512043   -0.2386615     0.1661561    0.7195407     0.1529216    0.7255508     0.3035919    0.0882176 
   0.228988600     0.2042054   -0.2771631     0.3150199    0.6657717     0.3044158    0.6753900     0.3162722    0.0279787 
   0.230988500     0.1535697   -0.3028399     0.4478342    0.5827088     0.4409099    0.5941181     0.3145090   -0.0375076 
   0.232988400     0.1011892   -0.3156091     0.5595767    0.4740006     0.5564240    0.4863210     0.2958524   -0.1030621 
   0.234988300     0.0504028   -0.3173103     0.6464788    0.3456330     0.6466038    0.3568528     0.2592283   -0.1635268 
   0.236988200     0.0031491   -0.3085855     0.7047409    0.2023263     0.7070882    0.2120175     0.2063135   -0.2130441 
   0.238988100    -0.0383962   -0.2910728     0.7328930    0.0504396     0.7361531    0.0579963     0.1405970   -0.2458982 
   0.240988000    -0.0729676   -0.2662780     0.7290290   -0.1048371     0.7328222   -0.0982707     0.0675738   -0.2579628 
   0.242987900    -0.0993907   -0.2364167     0.6931185   -0.2566087     0.6976545   -0.2501007    -0.0052036   -0.2472762 
   0.244987800    -0.1173878   -0.2032563     0.6264393   -0.3987599     0.6319329   -0.3921670    -0.0700931   -0.2144551 
   0.246987700    -0.1262817   -0.1690482     0.5307387   -0.5249031     0.5377066   -0.5187708    -0.1195916   -0.1636121 
   0.248987600    -0.1265621   -0.1359214     0.4093044   -0.6293328     0.4176587   -0.6242388    -0.1481834   -0.1008139 
   0.250987500    -0.1188088   -0.1056395     0.2664008   -0.7063516     0.2765453   -0.7034010    -0.1529323   -0.0346118 
   0.252987400    -0.1042823   -0.0808590     0.1087629   -0.7513844     0.1197676   -0.7511032    -0.1343172    0.0262991 
   0.254987300    -0.0847394   -0.0628290    -0.0567501   -0.7608485    -0.0453897   -0.7636392    -0.0962507    0.0735782 
   0.256987200    -0.0622489   -0.0523642    -0.2217833   -0.7332188    -0.2111960   -0.7396566    -0.0454273    0.1014022 
   0.258987100    -0.0394174   -0.0501655    -0.3778227   -0.6695470    -0.3690159   -0.6781455     0.0098239    0.1068354 
   0.260987000    -0.0187176   -0.0556829    -0.5160809   -0.5713451    -0.5102523   -0.5818393     0.0605385    0.0903003 
   0.262986900    -0.0024413   -0.0677750    -0.6290370   -0.4442860    -0.6261888   -0.4552552     0.0990203    0.0557580 
   0.264986800     0.0075919   -0.0847337    -0.7102379   -0.2953521    -0.7099794   -0.3055087     0.1197016    0.0094837 
   0.266986700     0.0100413   -0.1040299    -0.7557758   -0.1324008    -0.7575201   -0.1417005     0.1198552   -0.0404031 
   0.268986600     0.0046023   -0.1231587    -0.7636849    0.0352632    -0.7667661    0.0270441     0.1002948   -0.0859041 
   0.270986500    -0.0082274   -0.1398895    -0.7348704    0.1989476    -0.7390304    0.1914490     0.0646923   -0.1200363 
   0.272986400    -0.0272213   -0.1510945    -0.6715874    0.3511622    -0.6770604    0.3438846     0.0190912   -0.1380304 
   0.274986300    -0.0506479   -0.1553734    -0.5779802    0.4846823    -0.5851822    0.4779613    -0.0293476   -0.1381321 
   0.276986200    -0.0757740   -0.1514090    -0.4593114    0.5947005    -0.4687354    0.5893147    -0.0741005   -0.1210134 
   0.278986100    -0.1000532   -0.1385619    -0.3210976    0.6766005    -0.3317822    0.6731416    -0.1091961   -0.0902814 
   0.280986000    -0.1206986   -0.1177250    -0.1694325    0.7276352    -0.1804936    0.7270828    -0.1309526   -0.0510104 
   0.282985900    -0.1353131   -0.0902386    -0.0108275    0.7456749    -0.0211847    0.7478392    -0.1382011   -0.0093633 
   0.284985800    -0.1419630   -0.0578252     0.1479485    0.7301126     0.1391808    0.7344051    -0.1330000    0.0290804 
   0.286985700    -0.1392280   -0.0225731     0.3001008    0.6815119     0.2931766    0.6874269    -0.1186968    0.0610707 
   0.288985600    -0.1264526    0.0125216     0.4391223    0.6017148     0.4335636    0.6088921    -0.0989965    0.0851300 
   0.290985500    -0.1032924    0.0444690     0.5588678    0.4934163     0.5542369    0.5017332    -0.0778836    0.1012904 
   0.292985400    -0.0705142    0.0703797     0.6529942    0.3608518     0.6495985    0.3705260    -0.0587118    0.1113001 
   0.294985300    -0.0301209    0.0873810     0.7159652    0.2099023     0.7142888    0.2206711    -0.0431810    0.1183187 
   0.296985200     0.0159208    0.0935523     0.7439975    0.0476964     0.7442414    0.0588922    -0.0311078    0.1259387 
   0.298985100     0.0640186    0.0867617     0.7345549   -0.1177885     0.7371502   -0.1063417    -0.0203112    0.1371034 
   0.300985000     0.1106767    0.0669199     0.6868463   -0.2764710     0.6929024   -0.2663857    -0.0068814    0.1532988 
   0.302984900     0.1520396    0.0340567     0.6041197   -0.4198443     0.6132179   -0.4111553     0.0136118    0.1734621 
   0.304984800     0.1846319   -0.0094191     0.4909723   -0.5386105     0.5026460   -0.5333291     0.0448226    0.1941649 
   0.306984700     0.2059580   -0.0614567     0.3550367   -0.6268382     0.3679555   -0.6258375     0.0887441    0.2100305 
   0.308984600     0.2139210   -0.1184818     0.2053659   -0.6800236     0.2176875   -0.6834629     0.1444940    0.2142817 
   0.310984500     0.2079763   -0.1771248     0.0509244   -0.6969969     0.0609148   -0.7039887     0.2082100    0.2011802 
   0.312984400     0.1880099   -0.2336792    -0.0991868   -0.6789885    -0.0925765   -0.6881658     0.2729883    0.1666434 
   0.314984300     0.1552998   -0.2850687    -0.2371375   -0.6296995    -0.2342731   -0.6393178     0.3306703    0.1093131 
