! MS46122B
! 2250307/22442219
! 2/18/2026 9:13:37 AM
! C:\USERS\SPARKY\DOCUMENTS\VNA_DATA\FEB18_2026\COLD-SHORT.S2P
! CHANNEL.1
! TR.MEASUREMENT
! RAW.DATA
# GHZ S RI R 50.0
! FREQ.GHZ         S11RE         S11IM         S21RE         S21IM         S12RE         S12IM         S22RE         S22IM         
!; PortSelection: Port_12
   0.001000000     1.0456950   -0.0668321    -0.0000130    0.0000054     0.0000033   -0.0000001     0.8105697   -0.5551524 
   0.002999900     0.9652038   -0.1888795    -0.0000109    0.0000333    -0.0000069    0.0000340     0.1737552   -0.8649271 
   0.004999800     0.9057432   -0.2938163     0.0000214    0.0000590     0.0000201    0.0000599    -0.3630121   -0.7744498 
   0.006999700     0.8371679   -0.3945073     0.0000554    0.0000586     0.0000590    0.0000612    -0.6880789   -0.5373485 
   0.008999600     0.7564121   -0.4924764     0.0000845    0.0000480     0.0000929    0.0000465    -0.8612863   -0.2643063 
   0.010999500     0.6575060   -0.5879417     0.0001171    0.0000266     0.0001213    0.0000252    -0.9239704    0.0038253 
   0.012999400     0.5315346   -0.6778819     0.0001364    0.0000024     0.0001403   -0.0000061    -0.9062868    0.2489593 
   0.014999300     0.3660054   -0.7518847     0.0001582   -0.0000364     0.0001594   -0.0000491    -0.8281879    0.4612730 
   0.016999200     0.1457890   -0.7880245     0.0001748   -0.0000950     0.0001709   -0.0000999    -0.7052453    0.6365464 
   0.018999100    -0.1380103   -0.7369004     0.0001717   -0.0001655     0.0001571   -0.0001762    -0.5507995    0.7725163 
   0.020999000    -0.4495662   -0.5081520     0.0001222   -0.0002539     0.0001136   -0.0002572    -0.3743372    0.8676824 
   0.022998900    -0.6158770   -0.0292328     0.0000073   -0.0003319     0.0000020   -0.0003277    -0.1850123    0.9224071 
   0.024998800    -0.3848138    0.4897248    -0.0001406   -0.0003329    -0.0001529   -0.0003089    -0.0022736    1.0139040 
   0.026998700     0.1281148    0.7365385    -0.0002490   -0.0002032    -0.0002501   -0.0002086     0.2023831    0.9135903 
   0.028998600     0.5658506    0.6257653    -0.0002680   -0.0000888    -0.0002683   -0.0000908     0.3865140    0.8523111 
   0.030998500     0.8144538    0.3923526    -0.0002452   -0.0000089    -0.0002448   -0.0000060     0.5559088    0.7551752 
   0.032998400     0.8890888    0.1696147    -0.0002204    0.0000362    -0.0002097    0.0000467     0.7511967    0.6896496 
   0.034998300     0.9534105   -0.0473007    -0.0001719    0.0000759    -0.0001736    0.0000789     0.8214895    0.4662446 
   0.036998200     0.9376605   -0.2156567    -0.0001430    0.0000974    -0.0001376    0.0000947     0.9053245    0.2836328 
   0.038998100     0.8991570   -0.3544748    -0.0001151    0.0001138    -0.0001148    0.0001092     0.9483187    0.0846063 
   0.040998000     0.8438386   -0.4749906    -0.0000869    0.0001183    -0.0000878    0.0001188     0.9467390   -0.1209986 
   0.042997900     0.7748504   -0.5768279    -0.0000645    0.0001283    -0.0000625    0.0001243     0.8991497   -0.3230161 
   0.044997800     0.6842605   -0.6270589    -0.0000493    0.0001291    -0.0000393    0.0001257     0.8805791   -0.5340348 
   0.046997700     0.6109951   -0.7324168    -0.0000216    0.0001254    -0.0000219    0.0001260     0.6753112   -0.6726586 
   0.048997600     0.5199084   -0.7898279    -0.0000039    0.0001217    -0.0000025    0.0001211     0.5114591   -0.8009214 
   0.050997500     0.4245442   -0.8349149     0.0000162    0.0001177     0.0000151    0.0001171     0.3240648   -0.8897145 
   0.052997400     0.3266800   -0.8677155     0.0000255    0.0001276     0.0000331    0.0001128     0.1250593   -0.9352792 
   0.054997300     0.2216683   -0.8906594     0.0000426    0.0001024     0.0000398    0.0001047    -0.0774080   -0.9374025 
   0.056997200     0.1144252   -0.9003155     0.0000648    0.0000961     0.0000653    0.0000942    -0.2714669   -0.8977224 
   0.058997100     0.0041958   -0.8975072     0.0000750    0.0000866     0.0000713    0.0000829    -0.4505009   -0.8205048 
   0.060997000    -0.1080002   -0.8802519     0.0000891    0.0000753     0.0000866    0.0000714    -0.6071486   -0.7099222 
   0.062996900    -0.2220394   -0.8472229     0.0000977    0.0000597     0.0000969    0.0000593    -0.7358337   -0.5728214 
   0.064996800    -0.3356578   -0.7959810     0.0001070    0.0000458     0.0001040    0.0000460    -0.8331867   -0.4159061 
   0.066996700    -0.4466416   -0.7250754     0.0001154    0.0000311     0.0001119    0.0000291    -0.8967251   -0.2463576 
   0.068996600    -0.5520876   -0.6316110     0.0001211    0.0000127     0.0001209    0.0000122    -0.9254465   -0.0709661 
   0.070996500    -0.6469861   -0.5142331     0.0001277   -0.0000064     0.0001230   -0.0000038    -0.9206114    0.1036256 
   0.072996400    -0.7235008   -0.3709384     0.0001254   -0.0000291     0.0001274   -0.0000279    -0.8844935    0.2715204 
   0.074996300    -0.7740947   -0.2027262     0.0001241   -0.0000518     0.0001225   -0.0000495    -0.8187072    0.4273596 
   0.076996200    -0.7884831   -0.0136875     0.0001210   -0.0000746     0.0001185   -0.0000683    -0.7270689    0.5667692 
   0.078996100    -0.7569997    0.1879187     0.0001068   -0.0000998     0.0001067   -0.0000949    -0.6132151    0.6868272 
   0.080996000    -0.6710059    0.3892839     0.0000882   -0.0001229     0.0000910   -0.0001190    -0.4814612    0.7836672 
   0.082995900    -0.5267614    0.5707648     0.0000680   -0.0001441     0.0000690   -0.0001390    -0.3355547    0.8553533 
   0.084995800    -0.3297994    0.7107198     0.0000362   -0.0001602     0.0000378   -0.0001532    -0.1804640    0.9003276 
   0.086995700    -0.0959343    0.7907386     0.0000041   -0.0001676     0.0000083   -0.0001669    -0.0194758    0.9175196 
   0.088995600     0.1531534    0.7994135    -0.0000320   -0.0001635    -0.0000311   -0.0001669     0.1411524    0.9064152 
   0.090995500     0.3899872    0.7368422    -0.0000658   -0.0001604    -0.0000611   -0.0001594     0.2977135    0.8672230 
   0.092995400     0.5936547    0.6146634    -0.0000984   -0.0001453    -0.0000954   -0.0001413     0.4450111    0.8009717 
   0.094995300     0.7474772    0.4492108    -0.0001255   -0.0001228    -0.0001191   -0.0001194     0.5794520    0.7088389 
   0.096995200     0.8470920    0.2614366    -0.0001459   -0.0000921    -0.0001422   -0.0000913     0.6955709    0.5944937 
   0.098995100     0.8953860    0.0687734    -0.0001588   -0.0000617    -0.0001534   -0.0000618     0.7898787    0.4603412 
   0.100995000     0.8986412   -0.1178037    -0.0001670   -0.0000267    -0.0001638   -0.0000295     0.8585119    0.3108291 
   0.102994900     0.8645145   -0.2871921    -0.0001650    0.0000052    -0.0001617   -0.0000005     0.8994025    0.1498259 
   0.104994800     0.8022059   -0.4368962    -0.0001600    0.0000332    -0.0001590    0.0000256     0.9104720   -0.0171527 
   0.106994700     0.7176569   -0.5642640    -0.0001514    0.0000591    -0.0001510    0.0000553     0.8905115   -0.1846562 
   0.108994600     0.6184599   -0.6701517    -0.0001354    0.0000845    -0.0001370    0.0000797     0.8393552   -0.3466365 
   0.110994500     0.5081263   -0.7541893    -0.0001205    0.0001033    -0.0001204    0.0001013     0.7583459   -0.4975506 
   0.112994400     0.3904183   -0.8176975    -0.0000977    0.0001225    -0.0001023    0.0001212     0.6497568   -0.6314791 
   0.114994300     0.2682241   -0.8608591    -0.0000792    0.0001381    -0.0000792    0.0001349     0.5169860   -0.7431715 
   0.116994200     0.1435410   -0.8845417    -0.0000562    0.0001469    -0.0000584    0.0001448     0.3645769   -0.8276312 
   0.118994100     0.0183951   -0.8902123    -0.0000310    0.0001540    -0.0000361    0.0001541     0.1980793   -0.8816103 
   0.120994000    -0.1048570   -0.8783413    -0.0000060    0.0001581    -0.0000101    0.0001589     0.0236615   -0.9023005 
   0.122993900    -0.2261412   -0.8478411     0.0000193    0.0001594     0.0000173    0.0001597    -0.1515973   -0.8891996 
   0.124993800    -0.3419711   -0.8001358     0.0000448    0.0001575     0.0000416    0.0001578    -0.3210178   -0.8423358 
   0.126993700    -0.4516267   -0.7345051     0.0000710    0.0001484     0.0000678    0.0001505    -0.4778942   -0.7638282 
   0.128993600    -0.5517691   -0.6506911     0.0000924    0.0001407     0.0000930    0.0001410    -0.6165246   -0.6568589 
   0.130993500    -0.6407759   -0.5509381     0.0001192    0.0001254     0.0001148    0.0001310    -0.7314530   -0.5255985 
   0.132993400    -0.7154851   -0.4346128     0.0001399    0.0001099     0.0001382    0.0001099    -0.8187559   -0.3754475 
   0.134993300    -0.7718692   -0.3027844     0.0001599    0.0000894     0.0001608    0.0000919    -0.8755296   -0.2125450 
   0.136993200    -0.8066261   -0.1575264     0.0001810    0.0000649     0.0001808    0.0000674    -0.9003379   -0.0427080 
   0.138993100    -0.8157595   -0.0011906     0.0001951    0.0000353     0.0001955    0.0000387    -0.8925409    0.1277208 
   0.140993000    -0.7944247    0.1612057     0.0002081    0.0000010     0.0002095    0.0000049    -0.8534368    0.2925453 
   0.142992900    -0.7394947    0.3239106     0.0002152   -0.0000364     0.0002187   -0.0000339    -0.7847318    0.4460902 
   0.144992800    -0.6491923    0.4791785     0.0002164   -0.0000775     0.0002185   -0.0000746    -0.6891803    0.5828620 
   0.146992700    -0.5214374    0.6170503     0.0002090   -0.0001201     0.0002130   -0.0001190    -0.5711653    0.6995897 
   0.148992600    -0.3603600    0.7270991     0.0001918   -0.0001661     0.0001980   -0.0001645    -0.4346755    0.7923533 
   0.150992500    -0.1719727    0.7977417     0.0001644   -0.0002118     0.0001692   -0.0002093    -0.2844880    0.8590626 
   0.152992400     0.0323528    0.8235641     0.0001261   -0.0002508     0.0001314   -0.0002508    -0.1253108    0.8964361 
   0.154992300     0.2394617    0.7988243     0.0000751   -0.0002847     0.0000819   -0.0002846     0.0375758    0.9047047 
   0.156992200     0.4347140    0.7238850     0.0000168   -0.0003057     0.0000242   -0.0003060     0.1988593    0.8834951 
   0.158992100     0.6047735    0.6049166    -0.0000480   -0.0003097    -0.0000411   -0.0003155     0.3534564    0.8338763 
   0.160992000     0.7388306    0.4507442    -0.0001170   -0.0003062    -0.0001082   -0.0003082     0.4965349    0.7570512 
   0.162991900     0.8300607    0.2741006    -0.0001809   -0.0002773    -0.0001750   -0.0002846     0.6234708    0.6558663 
   0.164991800     0.8769577    0.0874390    -0.0002418   -0.0002394    -0.0002317   -0.0002469     0.7304591    0.5333900 
   0.166991700     0.8812820   -0.0981189    -0.0002863   -0.0001896    -0.0002802   -0.0001985     0.8136778    0.3933104 
   0.168991600     0.8472778   -0.2726985    -0.0003200   -0.0001276    -0.0003173   -0.0001403     0.8698800    0.2401583 
   0.170991500     0.7807852   -0.4302433    -0.0003426   -0.0000617    -0.0003427   -0.0000760     0.8975563    0.0787667 
   0.172991400     0.6887277   -0.5653369    -0.0003482    0.0000034    -0.0003513   -0.0000101     0.8951256   -0.0854766 
   0.174991300     0.5773194   -0.6760712    -0.0003473    0.0000696    -0.0003520    0.0000558     0.8627598   -0.2470059 
   0.176991200     0.4519545   -0.7618711    -0.0003280    0.0001317    -0.0003370    0.0001212     0.8008611   -0.3999795 
   0.178991100     0.3178296   -0.8222542    -0.0003020    0.0001893    -0.0003125    0.0001833     0.7113690   -0.5394091 
   0.180991000     0.1803746   -0.8583280    -0.0002663    0.0002436    -0.0002761    0.0002404     0.5970372   -0.6599641 
   0.182990900     0.0410206   -0.8697344    -0.0002255    0.0002900    -0.0002327    0.0002908     0.4620160   -0.7574377 
   0.184990800    -0.0958873   -0.8584492    -0.0001754    0.0003309    -0.0001812    0.0003327     0.3106732   -0.8281041 
   0.186990700    -0.2277611   -0.8254750    -0.0001169    0.0003628    -0.0001229    0.0003641     0.1486340   -0.8687208 
   0.188990600    -0.3293179   -0.7813047    -0.0000663    0.0003810    -0.0000717    0.0003825     0.0055108   -0.8784798 
   0.190990500    -0.4615024   -0.7012691     0.0000077    0.0003967    -0.0000029    0.0003988    -0.1806712   -0.8567932 
   0.192990400    -0.5650902   -0.6095482     0.0000753    0.0004033     0.0000643    0.0004051    -0.3420732   -0.8030211 
   0.194990300    -0.6507544   -0.5034083     0.0001445    0.0003980     0.0001333    0.0004040    -0.4870708   -0.7211471 
   0.196990200    -0.7186022   -0.3833372     0.0002153    0.0003854     0.0002047    0.0003926    -0.6136404   -0.6139317 
   0.198990100    -0.7666543   -0.2516766     0.0002897    0.0003605     0.0002774    0.0003692    -0.7171589   -0.4851133 
   0.200990000    -0.7918795   -0.1103529     0.0003655    0.0003250     0.0003530    0.0003347    -0.7943004   -0.3400143 
   0.202989900    -0.7925520    0.0371371     0.0004367    0.0002760     0.0004279    0.0002850    -0.8429648   -0.1840035 
   0.204989800    -0.7657890    0.1864481     0.0005081    0.0002109     0.0004981    0.0002218    -0.8615658   -0.0227567 
   0.206989700    -0.7124826    0.3326334     0.0005737    0.0001299     0.0005648    0.0001401    -0.8502099    0.1381528 
   0.208989600    -0.6284283    0.4692957     0.0006269    0.0000231     0.0006224    0.0000393    -0.8099747    0.2933483 
   0.210989500    -0.5162010    0.5907526     0.0006702   -0.0000942     0.0006627   -0.0000818    -0.7425050    0.4375723 
   0.212989400    -0.3778845    0.6907896     0.0006883   -0.0002341     0.0006850   -0.0002173    -0.6505483    0.5663361 
   0.214989300    -0.2180129    0.7617521     0.0006813   -0.0003889     0.0006799   -0.0003714    -0.5376718    0.6759240 
   0.216989200    -0.0435049    0.7979957     0.0006380   -0.0005553     0.0006419   -0.0005366    -0.4078675    0.7631934 
   0.218989100     0.1375776    0.7958749     0.0005539   -0.0007286     0.0005613   -0.0007031    -0.2651081    0.8256410 
   0.220989000     0.3157342    0.7544492     0.0004258   -0.0008893     0.0004387   -0.0008651    -0.1143553    0.8614805 
   0.222988900     0.4819341    0.6740845     0.0002471   -0.0010332     0.0002711   -0.0010124     0.0399899    0.8702813 
   0.224988800     0.6264665    0.5596418     0.0000229   -0.0011408     0.0000558   -0.0011259     0.1931977    0.8520309 
   0.226988700     0.7415371    0.4176734    -0.0002382   -0.0012042    -0.0001971   -0.0011974     0.3406424    0.8071792 
   0.228988600     0.8220050    0.2568768    -0.0005252   -0.0012090    -0.0004799   -0.0012149     0.4776842    0.7371340 
   0.230988500     0.8661081    0.0857968    -0.0008344   -0.0011484    -0.0007809   -0.0011665     0.6004671    0.6441056 
   0.232988400     0.8722643   -0.0867072    -0.0011412   -0.0010085    -0.0010918   -0.0010475     0.7052247    0.5310330 
   0.234988300     0.8453671   -0.2530977    -0.0014345   -0.0008004    -0.0013970   -0.0008499     0.7888010    0.4008775 
   0.236988200     0.7878863   -0.4065453    -0.0017046   -0.0005102    -0.0016800   -0.0005700     0.8482925    0.2577111 
   0.238988100     0.7041671   -0.5417833    -0.0019292   -0.0001422    -0.0019259   -0.0002065     0.8815638    0.1054136 
   0.240988000     0.5999674   -0.6560568    -0.0021018    0.0003131    -0.0021157    0.0002474     0.8872050   -0.0509455 
   0.242987900     0.4805125   -0.7464620    -0.0021905    0.0008622    -0.0022242    0.0008035     0.8650108   -0.2066333 
   0.244987800     0.3504513   -0.8128427    -0.0021663    0.0015137    -0.0022144    0.0014659     0.8148074   -0.3564353 
   0.246987700     0.2137118   -0.8547284    -0.0019685    0.0022753    -0.0020206    0.0022465     0.7378973   -0.4953203 
   0.248987600     0.0747026   -0.8728636    -0.0014882    0.0031391    -0.0015405    0.0031284     0.6362743   -0.6184896 
   0.250987500    -0.0635447   -0.8674141    -0.0005528    0.0040198    -0.0006001    0.0040256     0.5136815   -0.7215341 
   0.252987400    -0.1961485   -0.8398941     0.0010251    0.0046400     0.0009865    0.0046528     0.3739839   -0.8002836 
   0.254987300    -0.3207804   -0.7920533     0.0032113    0.0043720     0.0031811    0.0043917     0.2222750   -0.8525673 
   0.256987200    -0.4357238   -0.7266613     0.0051813    0.0026282     0.0051488    0.0026517     0.0631385   -0.8775169 
   0.258987100    -0.5405225   -0.6444936     0.0056672   -0.0000292     0.0056382   -0.0000003    -0.0996070   -0.8732344 
   0.260987000    -0.6314988   -0.5443506     0.0046574   -0.0021656     0.0046320   -0.0021185    -0.2609802   -0.8379253 
   0.262986900    -0.7054479   -0.4282443     0.0031295   -0.0032338     0.0031176   -0.0031750    -0.4135389   -0.7715635 
   0.264986800    -0.7597501   -0.2994389     0.0017310   -0.0035317     0.0017375   -0.0034689    -0.5504346   -0.6765878 
   0.266986700    -0.7918372   -0.1602713     0.0006239   -0.0034198     0.0006436   -0.0033625    -0.6663654   -0.5571705 
   0.268986600    -0.7989242   -0.0150382    -0.0002168   -0.0031097    -0.0001808   -0.0030612    -0.7570954   -0.4181016 
   0.270986500    -0.7794079    0.1321380    -0.0008521   -0.0027066    -0.0008013   -0.0026745    -0.8194689   -0.2648377 
   0.272986400    -0.7323206    0.2768904    -0.0013231   -0.0022644    -0.0012679   -0.0022421    -0.8513628   -0.1032670 
   0.274986300    -0.6566790    0.4139469    -0.0016648   -0.0017938    -0.0016027   -0.0017920    -0.8521783    0.0605779 
   0.276986200    -0.5533304    0.5377921    -0.0018977   -0.0013166    -0.0018314   -0.0013315    -0.8218257    0.2203530 
   0.278986100    -0.4231628    0.6409837    -0.0020308   -0.0008382    -0.0019685   -0.0008652    -0.7628301    0.3710384 
   0.280986000    -0.2701421    0.7170634    -0.0020650   -0.0003662    -0.0020127   -0.0004074    -0.6776459    0.5071900 
   0.282985900    -0.1002060    0.7600505    -0.0020083    0.0000817    -0.0019661    0.0000288    -0.5693950    0.6242649 
   0.284985800     0.0783181    0.7651887    -0.0018674    0.0004969    -0.0018390    0.0004346    -0.4426832    0.7185952 
   0.286985700     0.2564437    0.7298338    -0.0016436    0.0008602    -0.0016363    0.0007948    -0.3017173    0.7877201 
   0.288985600     0.4225036    0.6552969    -0.0013601    0.0011499    -0.0013728    0.0010846    -0.1514177    0.8300973 
   0.290985500     0.5676921    0.5450739    -0.0010260    0.0013589    -0.0010597    0.0013042     0.0031708    0.8443966 
   0.292985400     0.6835979    0.4054400    -0.0006749    0.0014807    -0.0007173    0.0014426     0.1571504    0.8307785 
   0.294985300     0.7645520    0.2452259    -0.0003232    0.0015204    -0.0003761    0.0014934     0.3052047    0.7901376 
   0.296985200     0.8073245    0.0735970     0.0000074    0.0014726    -0.0000433    0.0014692     0.4434432    0.7239687 
   0.298985100     0.8113373   -0.0998525     0.0002953    0.0013673     0.0002563    0.0013761     0.5673378    0.6344441 
   0.300985000     0.7788076   -0.2657651     0.0005377    0.0012132     0.0005110    0.0012282     0.6731026    0.5246495 
   0.302984900     0.7148684   -0.4167520     0.0007295    0.0010249     0.0007092    0.0010450     0.7579198    0.3979255 
   0.304984800     0.6246357   -0.5470523     0.0008658    0.0008229     0.0008564    0.0008373     0.8188174    0.2583082 
   0.306984700     0.5149409   -0.6536077     0.0009534    0.0006160     0.0009533    0.0006237     0.8541635    0.1097068 
   0.308984600     0.3921471   -0.7343060     0.0009992    0.0004080     0.0010046    0.0004161     0.8625255   -0.0432003 
   0.310984500     0.2615429   -0.7891584     0.0010109    0.0002162     0.0010117    0.0002154     0.8436779   -0.1956919 
   0.312984400     0.1284923   -0.8194427     0.0009932    0.0000375     0.0009916    0.0000345     0.7975868   -0.3430592 
   0.314984300    -0.0040201   -0.8271008     0.0009516   -0.0001287     0.0009471   -0.0001316     0.7256418   -0.4802215 
