! MS46122B
! 2250307/22442219
! 2/18/2026 9:28:22 AM
! C:\USERS\SPARKY\DOCUMENTS\VNA_DATA\FEB18_2026\COLD-PORT4.S2P
! CHANNEL.1
! TR.MEASUREMENT
! RAW.DATA
# GHZ S RI R 50.0
! FREQ.GHZ         S11RE         S11IM         S21RE         S21IM         S12RE         S12IM         S22RE         S22IM         
!; PortSelection: Port_12
   0.001000000     1.0457030   -0.0671422    -0.0004081   -0.0009390    -0.0003497   -0.0009503     0.8071916   -0.5596048 
   0.002999900     0.9622086   -0.1933241    -0.0213981   -0.0140625    -0.0223734   -0.0145957     0.0484838   -0.8677010 
   0.004999800     0.8799726   -0.3137273    -0.1277090    0.0063855    -0.1345832    0.0096874    -0.7248760   -0.4048408 
   0.006999700     0.7113189   -0.3782900    -0.2106593    0.3399626    -0.2016695    0.3598078    -0.2187962    0.7055159 
   0.008999600     0.6721760   -0.3042302     0.2894286    0.4432406     0.2989395    0.4472297     0.4944231   -0.2821333 
   0.010999500     0.6862113   -0.3570259     0.4539814    0.1757295     0.4704874    0.1800184    -0.1365871   -0.6184201 
   0.012999400     0.6513315   -0.4300380     0.4681326   -0.0057690     0.4875890   -0.0116850    -0.5345481   -0.4319277 
   0.014999300     0.5922596   -0.4946248     0.4506514   -0.1437968     0.4654440   -0.1592595    -0.6977474   -0.1428593 
   0.016999200     0.5174505   -0.5460417     0.4149011   -0.2667683     0.4205302   -0.2876896    -0.7003349    0.1386096 
   0.018999100     0.4293121   -0.5812089     0.3570300   -0.3847032     0.3526748   -0.4045863    -0.5912603    0.3673460 
   0.020999000     0.3309533   -0.5936822     0.2707199   -0.4974565     0.2577373   -0.5116841    -0.4096501    0.5185548 
   0.022998900     0.2276359   -0.5776731     0.1467151   -0.5981798     0.1302053   -0.6023053    -0.1939784    0.5777413 
   0.024998800     0.1329886   -0.5062709     0.0127965   -0.6976649    -0.0414234   -0.6650839     0.0103199    0.5862923 
   0.026998700     0.0522372   -0.4399061    -0.2248672   -0.6905140    -0.2287628   -0.6786801     0.1737978    0.4228193 
   0.028998600     0.0153628   -0.3265209    -0.4462440   -0.6335794    -0.4407182   -0.6250148     0.2465910    0.2571508 
   0.030998500     0.0306495   -0.2088595    -0.6458109   -0.4905573    -0.6364340   -0.4905082     0.2200305    0.1001163 
   0.032998400     0.0903650   -0.1091921    -0.7980653   -0.3282246    -0.7808561   -0.2754912     0.1321556    0.0127042 
   0.034998300     0.1838154   -0.0638006    -0.8295504   -0.0343939    -0.8308569   -0.0407119     0.0006092    0.0061727 
   0.036998200     0.2747409   -0.0585653    -0.7937452    0.1980906    -0.7976610    0.1967337    -0.0788290    0.0823145 
   0.038998100     0.3499384   -0.0846959    -0.6970771    0.3945700    -0.6991661    0.3975313    -0.0877277    0.1897586 
   0.040998000     0.4054651   -0.1324864    -0.5594277    0.5467911    -0.5567213    0.5506206    -0.0298174    0.2886888 
   0.042997900     0.4373916   -0.1914035    -0.3978406    0.6505719    -0.3912509    0.6524522     0.0799287    0.3488085 
   0.044997800     0.4368344   -0.2356055    -0.2715193    0.7259157    -0.2112271    0.7104315     0.2290682    0.3864655 
   0.046997700     0.4440011   -0.3113670    -0.0550700    0.7269011    -0.0507559    0.7204481     0.3484314    0.2939349 
   0.048997600     0.4275916   -0.3650429     0.1086128    0.7073345     0.1094467    0.6992948     0.4541046    0.1837080 
   0.050997500     0.4021195   -0.4131855     0.2593861    0.6540865     0.2556695    0.6474969     0.5149301    0.0361316 
   0.052997400     0.3705030   -0.4555031     0.3901007    0.5721651     0.3834399    0.5695064     0.5208619   -0.1282082 
   0.054997300     0.3302791   -0.4953151     0.5007229    0.4642807     0.4917719    0.4675446     0.4689691   -0.2910909 
   0.056997200     0.2852487   -0.5298489     0.5801864    0.3423519     0.5757624    0.3458807     0.3669582   -0.4283260 
   0.058997100     0.2342072   -0.5591341     0.6313666    0.2083141     0.6303496    0.2125383     0.2251274   -0.5273229 
   0.060997000     0.1764607   -0.5824432     0.6533766    0.0699163     0.6547512    0.0734022     0.0605486   -0.5773250 
   0.062996900     0.1126778   -0.5977398     0.6469751   -0.0669139     0.6496707   -0.0651733    -0.1091974   -0.5752459 
   0.064996800     0.0425921   -0.6033942     0.6146653   -0.1965590     0.6169006   -0.1972373    -0.2678060   -0.5238958 
   0.066996700    -0.0314387   -0.5973264     0.5592110   -0.3155573     0.5595509   -0.3174924    -0.4006885   -0.4316144 
   0.068996600    -0.1080058   -0.5774415     0.4832970   -0.4212206     0.4814864   -0.4226341    -0.4988133   -0.3089506 
   0.070996500    -0.1850767   -0.5429283     0.3900498   -0.5112963     0.3862757   -0.5104641    -0.5562643   -0.1698898 
   0.072996400    -0.2583205   -0.4897687     0.2809807   -0.5827809     0.2771214   -0.5791371    -0.5728046   -0.0268031 
   0.074996300    -0.3232636   -0.4191913     0.1586700   -0.6339180     0.1566618   -0.6271607    -0.5513140    0.1083784 
   0.076996200    -0.3748713   -0.3305128     0.0256858   -0.6616711     0.0271899   -0.6530198    -0.4985154    0.2256912 
   0.078996100    -0.4078939   -0.2263260    -0.1142233   -0.6627727    -0.1087295   -0.6543934    -0.4224153    0.3188011 
   0.080996000    -0.4154537   -0.1108851    -0.2568528   -0.6347418    -0.2472874   -0.6283970    -0.3329337    0.3841741 
   0.082995900    -0.3928339    0.0091572    -0.3953896   -0.5741035    -0.3831390   -0.5718612    -0.2402927    0.4220294 
   0.084995800    -0.3368136    0.1238391    -0.5204983   -0.4805862    -0.5084980   -0.4833844    -0.1533538    0.4359405 
   0.086995700    -0.2486126    0.2221250    -0.6245072   -0.3562734    -0.6145635   -0.3633266    -0.0772565    0.4327678 
   0.088995600    -0.1341188    0.2932924    -0.6973870   -0.2065428    -0.6904584   -0.2159568    -0.0147371    0.4210401 
   0.090995500    -0.0029114    0.3283629    -0.7312283   -0.0403557    -0.7280515   -0.0502886     0.0366612    0.4081824 
   0.092995400     0.1318868    0.3244238    -0.7227344    0.1309164    -0.7215933    0.1218128     0.0832669    0.3988611 
   0.094995300     0.2566606    0.2827349    -0.6710539    0.2934571    -0.6709473    0.2858654     0.1321115    0.3928299 
   0.096995200     0.3617366    0.2100718    -0.5815411    0.4366575    -0.5813174    0.4300759     0.1889754    0.3856538 
   0.098995100     0.4393344    0.1161406    -0.4617302    0.5515276    -0.4617363    0.5444756     0.2561673    0.3699653 
   0.100995000     0.4888960    0.0072492    -0.3197264    0.6343881    -0.3219727    0.6256157     0.3327663    0.3374939 
   0.102994900     0.5081073   -0.1016909    -0.1685275    0.6787093    -0.1735280    0.6693601     0.4079352    0.2842934 
   0.104994800     0.5019870   -0.2063613    -0.0163374    0.6875367    -0.0244688    0.6790922     0.4756007    0.2073117 
   0.106994700     0.4740923   -0.3022274     0.1291764    0.6630833     0.1185084    0.6577682     0.5271459    0.1080577 
   0.108994600     0.4293727   -0.3871233     0.2620705    0.6102789     0.2498266    0.6086805     0.5541379   -0.0083399 
   0.110994500     0.3712409   -0.4588604     0.3774890    0.5333363     0.3649833    0.5360290     0.5512522   -0.1343226 
   0.112994400     0.3024409   -0.5167883     0.4719359    0.4372587     0.4613253    0.4437599     0.5156117   -0.2608729 
   0.114994300     0.2261678   -0.5605798     0.5434864    0.3271542     0.5355283    0.3363212     0.4468056   -0.3781695 
   0.116994200     0.1444332   -0.5896611     0.5904884    0.2082848     0.5862197    0.2187273     0.3484468   -0.4768360 
   0.118994100     0.0592029   -0.6040256     0.6133666    0.0853769     0.6122476    0.0955882     0.2260573   -0.5487673 
   0.120994000    -0.0267864   -0.6044216     0.6126644   -0.0365640     0.6139549   -0.0283082     0.0877783   -0.5879253 
   0.122993900    -0.1127416   -0.5889802     0.5894867   -0.1552640     0.5922072   -0.1480419    -0.0565135   -0.5908282 
   0.124993800    -0.1957791   -0.5584490     0.5457877   -0.2658920     0.5489422   -0.2601806    -0.1971019   -0.5570914 
   0.126993700    -0.2735976   -0.5127494     0.4830759   -0.3661794     0.4864787   -0.3610492    -0.3231317   -0.4895112 
   0.128993600    -0.3433807   -0.4519398     0.4032352   -0.4538191     0.4071493   -0.4486709    -0.4269033   -0.3934437 
   0.130993500    -0.4022089   -0.3779769     0.3090398   -0.5257239     0.3137099   -0.5209107    -0.5021476   -0.2763685 
   0.132993400    -0.4471623   -0.2913554     0.2022372   -0.5802097     0.2080407   -0.5757887    -0.5440568   -0.1475318 
   0.134993300    -0.4749811   -0.1948949     0.0855049   -0.6151621     0.0925407   -0.6111367    -0.5521221   -0.0167585 
   0.136993200    -0.4827626   -0.0915774    -0.0386721   -0.6281552    -0.0297566   -0.6258799    -0.5287883    0.1072417 
   0.138993100    -0.4677992    0.0143562    -0.1664407   -0.6173120    -0.1566070   -0.6171383    -0.4781948    0.2160042 
   0.140993000    -0.4286081    0.1167727    -0.2937849   -0.5802732    -0.2837778   -0.5830312    -0.4074349    0.3038736 
   0.142992900    -0.3659295    0.2101060    -0.4149793   -0.5163316    -0.4059389   -0.5217597    -0.3237670    0.3683952 
   0.144992800    -0.2815008    0.2876630    -0.5241912   -0.4251252    -0.5169668   -0.4329164    -0.2357716    0.4085902 
   0.146992700    -0.1794285    0.3425880    -0.6139218   -0.3084470    -0.6089914   -0.3172892    -0.1499615    0.4280640 
   0.148992600    -0.0661651    0.3709221    -0.6771615   -0.1700698    -0.6746436   -0.1792565    -0.0709904    0.4310876 
   0.150992500     0.0497960    0.3692335    -0.7073362   -0.0165752    -0.7063310   -0.0256795    -0.0006631    0.4234519 
   0.152992400     0.1607605    0.3397148    -0.7007877    0.1429689    -0.7010172    0.1343013     0.0620563    0.4095194 
   0.154992300     0.2582554    0.2847369    -0.6557497    0.2986140    -0.6569390    0.2897179     0.1196174    0.3920130 
   0.156992200     0.3372115    0.2088098    -0.5738599    0.4400950    -0.5764773    0.4306442     0.1757114    0.3714147 
   0.158992100     0.3939175    0.1195155    -0.4605715    0.5579343    -0.4651105    0.5481819     0.2325553    0.3455329 
   0.160992000     0.4262783    0.0227717    -0.3231647    0.6449425    -0.3308313    0.6354668     0.2908586    0.3108907 
   0.162991900     0.4353020   -0.0749251    -0.1708998    0.6966749    -0.1822389    0.6887985     0.3486311    0.2640578 
   0.164991800     0.4230522   -0.1688301    -0.0134197    0.7119108    -0.0272003    0.7072002     0.4013050    0.2021415 
   0.166991700     0.3919761   -0.2540364     0.1402781    0.6912617     0.1252075    0.6912273     0.4434801    0.1247734 
   0.168991600     0.3451785   -0.3287396     0.2829007    0.6382584     0.2679430    0.6431046     0.4694108    0.0338420 
   0.170991500     0.2859384   -0.3900810     0.4074177    0.5576915     0.3950770    0.5666941     0.4741808   -0.0660435 
   0.172991400     0.2172950   -0.4373007     0.5099116    0.4548738     0.5011352    0.4668717     0.4536685   -0.1689710 
   0.174991300     0.1424422   -0.4690531     0.5870473    0.3359932     0.5825810    0.3492160     0.4071576   -0.2674391 
   0.176991200     0.0640489   -0.4855578     0.6375479    0.2068132     0.6369852    0.2196010     0.3355590   -0.3534301 
   0.178991100    -0.0154967   -0.4862968     0.6609854    0.0727663     0.6636136    0.0839504     0.2427787   -0.4201389 
   0.180991000    -0.0928300   -0.4722117     0.6586577   -0.0611799     0.6632712   -0.0518815     0.1345588   -0.4615981 
   0.182990900    -0.1661078   -0.4426934     0.6307579   -0.1907821     0.6364247   -0.1831877     0.0187608   -0.4736122 
   0.184990800    -0.2318032   -0.3993531     0.5797818   -0.3115548     0.5855702   -0.3060042    -0.0963892   -0.4553628 
   0.186990700    -0.2877682   -0.3434550     0.5076104   -0.4205843     0.5131508   -0.4162688    -0.2015941   -0.4078296 
   0.188990600    -0.3238582   -0.2855323     0.4310657   -0.5015257     0.4344485   -0.5004963    -0.2807696   -0.3432386 
   0.190990500    -0.3594756   -0.2030713     0.3096850   -0.5895569     0.3162649   -0.5869428    -0.3524509   -0.2455992 
   0.192990400    -0.3724886   -0.1216761     0.1849978   -0.6464312     0.1928264   -0.6442974    -0.3890137   -0.1427550 
   0.194990300    -0.3670783   -0.0403636     0.0518386   -0.6782489     0.0602047   -0.6776704    -0.3963614   -0.0396338 
   0.196990200    -0.3433842    0.0378722    -0.0883115   -0.6839345    -0.0791624   -0.6851553    -0.3766541    0.0566964 
   0.198990100    -0.3022974    0.1085734    -0.2304298   -0.6612093    -0.2212531   -0.6643441    -0.3343295    0.1388445 
   0.200990000    -0.2455144    0.1677345    -0.3691555   -0.6082050    -0.3606384   -0.6134480    -0.2763389    0.2020652 
   0.202989900    -0.1767804    0.2113272    -0.4974896   -0.5247051    -0.4902160   -0.5317056    -0.2097567    0.2438073 
   0.204989800    -0.1003097    0.2362884    -0.6076104   -0.4120588    -0.6022421   -0.4204174    -0.1422530    0.2645203 
   0.206989700    -0.0218929    0.2415659    -0.6925446   -0.2743444    -0.6885503   -0.2836192    -0.0801775    0.2674483 
   0.208989600     0.0529565    0.2267002    -0.7447723   -0.1172768    -0.7423356   -0.1276039    -0.0274653    0.2574869 
   0.210989500     0.1195509    0.1944730    -0.7598834    0.0507097    -0.7593496    0.0396048     0.0142053    0.2399941 
   0.212989400     0.1731355    0.1483983    -0.7352108    0.2194945    -0.7366605    0.2084553     0.0459063    0.2199449 
   0.214989300     0.2109679    0.0932622    -0.6713125    0.3792278    -0.6751946    0.3681363     0.0697553    0.2010650 
   0.216989200     0.2322455    0.0338766    -0.5721747    0.5198948    -0.5793281    0.5093811     0.0895934    0.1846020 
   0.218989100     0.2373042   -0.0244690    -0.4437547    0.6340047    -0.4543022    0.6249003     0.1085935    0.1700577 
   0.220989000     0.2281754   -0.0782043    -0.2935231    0.7155744    -0.3068320    0.7095110     0.1286644    0.1550009 
   0.222988900     0.2076883   -0.1240828    -0.1299531    0.7614295    -0.1447153    0.7595856     0.1499487    0.1367908 
   0.224988800     0.1789563   -0.1599455     0.0385594    0.7702898     0.0240265    0.7725977     0.1710948    0.1129287 
   0.226988700     0.1453856   -0.1849667     0.2036091    0.7425990     0.1908109    0.7491826     0.1888801    0.0822938 
   0.228988600     0.1105903   -0.1993929     0.3580144    0.6807061     0.3479961    0.6902925     0.1997604    0.0451571 
   0.230988500     0.0770427   -0.2037814     0.4951386    0.5879995     0.4886250    0.5991660     0.2004661    0.0035989 
   0.232988400     0.0468065   -0.1994063     0.6093974    0.4680686     0.6063182    0.4800722     0.1886419   -0.0387042 
   0.234988300     0.0223106   -0.1888079     0.6959844    0.3270338     0.6955003    0.3379965     0.1635219   -0.0763197 
   0.236988200     0.0041803   -0.1736555     0.7506554    0.1701342     0.7525336    0.1801088     0.1267349   -0.1043413 
   0.238988100    -0.0070050   -0.1560600     0.7712944    0.0051201     0.7739459    0.0134276     0.0820984   -0.1180424 
   0.240988000    -0.0109792   -0.1384127     0.7555242   -0.1618141     0.7590660   -0.1538265     0.0353800   -0.1145101 
   0.242987900    -0.0083749   -0.1224821     0.7039685   -0.3219085     0.7090349   -0.3138532    -0.0063456   -0.0932193 
   0.244987800    -0.0003283   -0.1103367     0.6182863   -0.4681641     0.6252214   -0.4596838    -0.0359276   -0.0569788 
   0.246987700     0.0117454   -0.1032372     0.5017117   -0.5923586     0.5113582   -0.5851106    -0.0478094   -0.0115391 
   0.248987600     0.0261725   -0.1022844     0.3602072   -0.6879171     0.3718667   -0.6831598    -0.0392528    0.0354889 
   0.250987500     0.0406580   -0.1078853     0.1999431   -0.7497959     0.2132368   -0.7483732    -0.0104102    0.0757158 
   0.252987400     0.0533176   -0.1200656     0.0301588   -0.7740301     0.0435910   -0.7765980     0.0346065    0.1011983 
   0.254987300     0.0621605   -0.1383806    -0.1404084   -0.7590330    -0.1280511   -0.7657310     0.0891709    0.1062117 
   0.256987200     0.0649862   -0.1608451    -0.3024922   -0.7062690    -0.2926821   -0.7164789     0.1445480    0.0881795 
   0.258987100     0.0606643   -0.1861619    -0.4472292   -0.6191303    -0.4410384   -0.6310549     0.1917264    0.0481063 
   0.260987000     0.0480499   -0.2119164    -0.5672031   -0.5024755    -0.5647913   -0.5147842     0.2229795   -0.0097354 
   0.262986900     0.0270473   -0.2356892    -0.6572093   -0.3641504    -0.6580629   -0.3753789     0.2325677   -0.0785072 
   0.264986800    -0.0017637   -0.2550285    -0.7134652   -0.2118499    -0.7166081   -0.2210221     0.2175708   -0.1499770 
   0.266986700    -0.0376179   -0.2676572    -0.7352251   -0.0536686    -0.7392797   -0.0605966     0.1784517   -0.2151432 
   0.268986600    -0.0784320   -0.2714815    -0.7229746    0.1027877    -0.7273188    0.0971698     0.1186969   -0.2660446 
   0.270986500    -0.1217261   -0.2654671    -0.6790015    0.2506755    -0.6834601    0.2457533     0.0446196   -0.2964518 
   0.272986400    -0.1648853   -0.2481680    -0.6066509    0.3842835    -0.6113154    0.3795764    -0.0364539   -0.3031647 
   0.274986300    -0.2054085   -0.2196621    -0.5097595    0.4988319    -0.5155415    0.4942150    -0.1159603   -0.2858100 
   0.276986200    -0.2399551   -0.1805125    -0.3928663    0.5909986    -0.4001802    0.5869748    -0.1865718   -0.2463541 
   0.278986100    -0.2658692   -0.1314144    -0.2606583    0.6572517    -0.2692098    0.6544064    -0.2426008   -0.1897648 
   0.280986000    -0.2805185   -0.0750547    -0.1180184    0.6957813    -0.1271931    0.6948301    -0.2803168   -0.1220433 
   0.282985900    -0.2819415   -0.0137080     0.0294359    0.7049397     0.0204794    0.7057915    -0.2983930   -0.0493594 
   0.284985800    -0.2679537    0.0489612     0.1767924    0.6838068     0.1684673    0.6864756    -0.2975679    0.0221640 
   0.286985700    -0.2384489    0.1090035     0.3180458    0.6322395     0.3105803    0.6367078    -0.2810864    0.0875394 
   0.288985600    -0.1937704    0.1622738     0.4469027    0.5513435     0.4398422    0.5575750    -0.2525211    0.1440339 
   0.290985500    -0.1353316    0.2050138     0.5564985    0.4432534     0.5502294    0.4513516    -0.2159616    0.1904658 
   0.292985400    -0.0660943    0.2330604     0.6407870    0.3120461     0.6359540    0.3222662    -0.1752104    0.2271592 
   0.294985300     0.0106690    0.2434646     0.6939871    0.1634049     0.6911693    0.1757598    -0.1327320    0.2561227 
   0.296985200     0.0902661    0.2345995     0.7116880    0.0055164     0.7120123    0.0189456    -0.0892586    0.2795491 
   0.298985100     0.1671145    0.2053300     0.6918212   -0.1526488     0.6958511   -0.1395940    -0.0437668    0.2992226 
   0.300985000     0.2357518    0.1567706     0.6351594   -0.3012085     0.6433918   -0.2901082     0.0059025    0.3155867 
   0.302984900     0.2910672    0.0917797     0.5456238   -0.4312789     0.5572739   -0.4227475     0.0614769    0.3273182 
   0.304984800     0.3289402    0.0143522     0.4294960   -0.5342005     0.4433366   -0.5305963     0.1246034    0.3313288 
   0.306984700     0.3470945   -0.0704257     0.2953829   -0.6055466     0.3097472   -0.6070870     0.1949274    0.3231757 
   0.308984600     0.3446704   -0.1569321     0.1527562   -0.6425017     0.1650809   -0.6487134     0.2696815    0.2984146 
   0.310984500     0.3223898   -0.2401658     0.0103521   -0.6460341     0.0191625   -0.6553295     0.3437225    0.2537608 
   0.312984400     0.2820092   -0.3157526    -0.1240193   -0.6186569    -0.1193610   -0.6294813     0.4107706    0.1878573 
   0.314984300     0.2264079   -0.3799793    -0.2442365   -0.5652007    -0.2435493   -0.5753996     0.4633581    0.1017492 
