! MS46122B
! 2250307/22442219
! 2/18/2026 9:23:53 AM
! C:\USERS\SPARKY\DOCUMENTS\VNA_DATA\FEB18_2026\COLD-PORT2.S2P
! CHANNEL.1
! TR.MEASUREMENT
! RAW.DATA
# GHZ S RI R 50.0
! FREQ.GHZ         S11RE         S11IM         S21RE         S21IM         S12RE         S12IM         S22RE         S22IM         
!; PortSelection: Port_12
   0.001000000     1.0456110   -0.0670459    -0.0003913   -0.0009367    -0.0003324   -0.0009547     0.8070289   -0.5596033 
   0.002999900     0.9621998   -0.1932573    -0.0212837   -0.0141088    -0.0222599   -0.0146495     0.0485129   -0.8677198 
   0.004999800     0.8799093   -0.3135788    -0.1271539    0.0057148    -0.1339837    0.0089518    -0.7249012   -0.4079398 
   0.006999700     0.7109771   -0.3795798    -0.2145411    0.3360611    -0.2057645    0.3561658    -0.2390929    0.7091389 
   0.008999600     0.6689102   -0.3026681     0.2869768    0.4502689     0.2965503    0.4539615     0.5054148   -0.2635370 
   0.010999500     0.6852018   -0.3535172     0.4574985    0.1795660     0.4740522    0.1839507    -0.1247460   -0.6153762 
   0.012999400     0.6517476   -0.4260694     0.4720595   -0.0050985     0.4916259   -0.0109188    -0.5262155   -0.4318000 
   0.014999300     0.5938007   -0.4906691     0.4539085   -0.1448873     0.4685872   -0.1603485    -0.6904429   -0.1429077 
   0.016999200     0.5201043   -0.5418753     0.4170476   -0.2689568     0.4225752   -0.2898623    -0.6923965    0.1384023 
   0.018999100     0.4335103   -0.5768964     0.3578983   -0.3873929     0.3534606   -0.4071847    -0.5821316    0.3660657 
   0.020999000     0.3371245   -0.5895603     0.2702415   -0.4999670     0.2571625   -0.5140151    -0.3993211    0.5150372 
   0.022998900     0.2362364   -0.5744761     0.1451311   -0.5997237     0.1287297   -0.6036882    -0.1833005    0.5711465 
   0.024998800     0.1438975   -0.5050634     0.0108877   -0.6978101    -0.0431497   -0.6650333     0.0210351    0.5757009 
   0.026998700     0.0658430   -0.4428961    -0.2257804   -0.6889685    -0.2295620   -0.6771768     0.1812199    0.4098946 
   0.028998600     0.0292726   -0.3349307    -0.4449072   -0.6314673    -0.4395230   -0.6230201     0.2511408    0.2423056 
   0.030998500     0.0421668   -0.2234240    -0.6421685   -0.4899462    -0.6329435   -0.4898207     0.2217328    0.0840762 
   0.032998400     0.0967925   -0.1275732    -0.7934464   -0.3306243    -0.7765113   -0.2778040     0.1312830   -0.0060904 
   0.034998300     0.1830661   -0.0845528    -0.8268238   -0.0400998    -0.8279037   -0.0463174    -0.0041853   -0.0127182 
   0.036998200     0.2675234   -0.0781378    -0.7943336    0.1907353    -0.7981110    0.1895321    -0.0889586    0.0630612 
   0.038998100     0.3374924   -0.1010860    -0.7013248    0.3875938    -0.7033541    0.3906539    -0.1039307    0.1720680 
   0.040998000     0.3894229   -0.1446791    -0.5667310    0.5419378    -0.5639020    0.5458842    -0.0515332    0.2753006 
   0.042997900     0.4192651   -0.1990218    -0.4068707    0.6489716    -0.4001547    0.6509358     0.0543278    0.3416599 
   0.044997800     0.4185640   -0.2389145    -0.2813846    0.7274685    -0.2202938    0.7125472     0.1998626    0.3861391 
   0.046997700     0.4252137   -0.3101493    -0.0634945    0.7322078    -0.0587419    0.7256309     0.3224928    0.3013346 
   0.048997600     0.4098658   -0.3598585     0.1023978    0.7153944     0.1035133    0.7070329     0.4314090    0.1975029 
   0.050997500     0.3860395   -0.4046302     0.2562149    0.6640312     0.2526496    0.6569185     0.4969815    0.0544136 
   0.052997400     0.3567017   -0.4439238     0.3905007    0.5826370     0.3836605    0.5796042     0.5082320   -0.1072922 
   0.054997300     0.3193634   -0.4813487     0.5044013    0.4742743     0.4951685    0.4772185     0.4617289   -0.2689788 
   0.056997200     0.2773831   -0.5139917     0.5868415    0.3506999     0.5821292    0.3541056     0.3642921   -0.4065243 
   0.058997100     0.2295452   -0.5424169     0.6402401    0.2140729     0.6389103    0.2182635     0.2264701   -0.5065145 
   0.060997000     0.1750675   -0.5653278     0.6635470    0.0726984     0.6647593    0.0761619     0.0650478   -0.5579150 
   0.062996900     0.1145106   -0.5807755     0.6574029   -0.0672633     0.6599962   -0.0655342    -0.1019793   -0.5572982 
   0.064996800     0.0473121   -0.5870698     0.6244383   -0.1999431     0.6265965   -0.2005570    -0.2582344   -0.5073977 
   0.066996700    -0.0238668   -0.5820859     0.5675411   -0.3215824     0.5677340   -0.3233932    -0.3887838   -0.4166598 
   0.068996600    -0.0979005   -0.5636657     0.4894805   -0.4292499     0.4876217   -0.4306642    -0.4844814   -0.2957045 
   0.070996500    -0.1724515   -0.5306824     0.3937888   -0.5207170     0.3898279   -0.5197676    -0.5395882   -0.1589022 
   0.072996400    -0.2436343   -0.4798357     0.2818889   -0.5928048     0.2779855   -0.5889800    -0.5537847   -0.0185899 
   0.074996300    -0.3064884   -0.4114234     0.1567617   -0.6438813     0.1547294   -0.6368355    -0.5305235    0.1129284 
   0.076996200    -0.3566169   -0.3260003     0.0211005   -0.6706902     0.0226307   -0.6618540    -0.4767014    0.2261374 
   0.078996100    -0.3883752   -0.2252483    -0.1212120   -0.6701126    -0.1155469   -0.6615879    -0.4003937    0.3146970 
   0.080996000    -0.3952476   -0.1137864    -0.2656766   -0.6398143    -0.2558951   -0.6334119    -0.3121407    0.3753103 
   0.082995900    -0.3728046    0.0019713    -0.4052054   -0.5763695    -0.3930398   -0.5743539    -0.2218706    0.4088133 
   0.084995800    -0.3181924    0.1120372    -0.5304920   -0.4799684    -0.5184582   -0.4828897    -0.1384579    0.4190278 
   0.086995700    -0.2325980    0.2058953    -0.6338497   -0.3528675    -0.6238486   -0.3598827    -0.0666609    0.4133435 
   0.088995600    -0.1220344    0.2734595    -0.7051614   -0.2005961    -0.6982107   -0.2100107    -0.0089833    0.4004943 
   0.090995500     0.0041093    0.3060110    -0.7368859   -0.0327388    -0.7336200   -0.0425968     0.0377956    0.3878864 
   0.092995400     0.1333513    0.3012053    -0.7259604    0.1394746    -0.7246825    0.1304918     0.0803335    0.3799040 
   0.094995300     0.2526545    0.2603434    -0.6718225    0.3023608    -0.6715462    0.2947595     0.1259880    0.3760301 
   0.096995200     0.3526489    0.1897413    -0.5801348    0.4452033    -0.5797498    0.4384509     0.1805684    0.3714008 
   0.098995100     0.4268001    0.0990376    -0.4580709    0.5591977    -0.4582070    0.5518706     0.2463885    0.3581898 
   0.100995000     0.4737700   -0.0061687    -0.3145761    0.6408386    -0.3168752    0.6318598     0.3222748    0.3280675 
   0.102994900     0.4917515   -0.1108754    -0.1622132    0.6836917    -0.1671995    0.6742111     0.3972282    0.2768253 
   0.104994800     0.4850090   -0.2120733    -0.0089575    0.6907818    -0.0171609    0.6823927     0.4648870    0.2013335 
   0.106994700     0.4576282   -0.3046826     0.1371206    0.6644432     0.1263207    0.6592450     0.5163637    0.1032030 
   0.108994600     0.4138154   -0.3865983     0.2702352    0.6096782     0.2579081    0.6082755     0.5431767   -0.0121134 
   0.110994500     0.3568730   -0.4561477     0.3854040    0.5307740     0.3731436    0.5334456     0.5399588   -0.1371027 
   0.112994400     0.2894398   -0.5122204     0.4790886    0.4327487     0.4685550    0.4394434     0.5038108   -0.2625496 
   0.114994300     0.2146349   -0.5545163     0.5493338    0.3209928     0.5416016    0.3301825     0.4344644   -0.3785112 
   0.116994200     0.1341891   -0.5825792     0.5948318    0.2006721     0.5906609    0.2110884     0.3356296   -0.4754251 
   0.118994100     0.0504577   -0.5960718     0.6156964    0.0767996     0.6147088    0.0868695     0.2129857   -0.5452370 
   0.120994000    -0.0343459   -0.5958237     0.6127880   -0.0457368     0.6141498   -0.0375710     0.0751666   -0.5820913 
   0.122993900    -0.1190681   -0.5798143     0.5873411   -0.1643077     0.5899824   -0.1573279    -0.0681936   -0.5827394 
   0.124993800    -0.2010041   -0.5488309     0.5413598   -0.2743838     0.5444492   -0.2689176    -0.2072248   -0.5467779 
   0.126993700    -0.2777373   -0.5025055     0.4765198   -0.3735435     0.4798701   -0.3684580    -0.3311791   -0.4775082 
   0.128993600    -0.3464917   -0.4413517     0.3948437   -0.4595180     0.3987308   -0.4543704    -0.4324917   -0.3803545 
   0.130993500    -0.4040245   -0.3669842     0.2992617   -0.5292603     0.3037661   -0.5245732    -0.5051180   -0.2628683 
   0.132993400    -0.4476427   -0.2799931     0.1915915   -0.5812340     0.1971931   -0.5769721    -0.5445738   -0.1343780 
   0.134993300    -0.4742362   -0.1831264     0.0742730   -0.6135940     0.0812841   -0.6097196    -0.5505860   -0.0044636 
   0.136993200    -0.4804907   -0.0795206    -0.0495722   -0.6237162    -0.0408078   -0.6215107    -0.5258207    0.1181976 
   0.138993100    -0.4637294    0.0264561    -0.1763534   -0.6099159    -0.1666509   -0.6098751    -0.4744604    0.2256189 
   0.140993000    -0.4228542    0.1286933    -0.3019513   -0.5702326    -0.2921200   -0.5730329    -0.4035787    0.3124196 
   0.142992900    -0.3581859    0.2216621    -0.4206913   -0.5038491    -0.4117931   -0.5093106    -0.3201865    0.3764130 
   0.144992800    -0.2718778    0.2984107    -0.5266073   -0.4110182    -0.5195812   -0.4186229    -0.2325573    0.4167950 
   0.146992700    -0.1676905    0.3523358    -0.6124547   -0.2934591    -0.6076518   -0.3020531    -0.1467839    0.4371765 
   0.148992600    -0.0527392    0.3791603    -0.6716260   -0.1552387    -0.6690941   -0.1641996    -0.0671797    0.4417403 
   0.150992500     0.0649926    0.3756864    -0.6976218   -0.0031576    -0.6965632   -0.0120489     0.0049672    0.4357464 
   0.152992400     0.1775149    0.3441101    -0.6873552    0.1538353    -0.6872957    0.1453579     0.0705930    0.4230361 
   0.154992300     0.2763428    0.2865227    -0.6391435    0.3058418    -0.6401004    0.2970384     0.1320283    0.4058716 
   0.156992200     0.3562714    0.2076688    -0.5551057    0.4427322    -0.5575843    0.4332677     0.1925351    0.3842321 
   0.158992100     0.4135066    0.1152057    -0.4411679    0.5554147    -0.4457430    0.5455409     0.2538343    0.3557523 
   0.160992000     0.4459832    0.0151107    -0.3044327    0.6370461    -0.3122556    0.6276511     0.3160622    0.3169596 
   0.162991900     0.4543809   -0.0865542    -0.1542253    0.6838065    -0.1656679    0.6759397     0.3764646    0.2646125 
   0.164991800     0.4409434   -0.1841436    -0.0004141    0.6944008    -0.0143016    0.6900265     0.4302732    0.1963895 
   0.166991700     0.4077395   -0.2729656     0.1483780    0.6702814     0.1335193    0.6706599     0.4719615    0.1126627 
   0.168991600     0.3578346   -0.3509037     0.2853390    0.6150742     0.2708305    0.6202191     0.4957192    0.0154473 
   0.170991500     0.2949825   -0.4152684     0.4036852    0.5339864     0.3918267    0.5431488     0.4969881   -0.0899408 
   0.172991400     0.2222598   -0.4649623     0.4997321    0.4324026     0.4915473    0.4442477     0.4719835   -0.1973567 
   0.174991300     0.1424069   -0.4984100     0.5708715    0.3162361     0.5668894    0.3292313     0.4202044   -0.2993017 
   0.176991200     0.0589305   -0.5156364     0.6161812    0.1915132     0.6160424    0.2038907     0.3431798   -0.3878292 
   0.178991100    -0.0259756   -0.5164028     0.6357867    0.0632324     0.6386372    0.0738421     0.2447150   -0.4560350 
   0.180991000    -0.1089548   -0.5016894     0.6309906   -0.0640851     0.6354520   -0.0552693     0.1307861   -0.4983141 
   0.182990900    -0.1879418   -0.4703429     0.6025947   -0.1863279     0.6081195   -0.1793224     0.0091391   -0.5107369 
   0.184990800    -0.2593411   -0.4240915     0.5528964   -0.2997069     0.5584177   -0.2946644    -0.1120282   -0.4922189 
   0.186990700    -0.3212104   -0.3643299     0.4836508   -0.4017368     0.4890958   -0.3978820    -0.2238508   -0.4440906 
   0.188990600    -0.3618528   -0.3025526     0.4114108   -0.4770457     0.4145482   -0.4763345    -0.3091859   -0.3784871 
   0.190990500    -0.4024974   -0.2125660     0.2973776   -0.5595288     0.3033784   -0.5570403    -0.3894421   -0.2771652 
   0.192990400    -0.4195002   -0.1233031     0.1808599   -0.6128950     0.1878663   -0.6111624    -0.4347670   -0.1695076 
   0.194990300    -0.4168962   -0.0329557     0.0567503   -0.6438085     0.0641059   -0.6431790    -0.4499955   -0.0591312 
   0.196990200    -0.3943938    0.0557512    -0.0740312   -0.6508720    -0.0659035   -0.6517034    -0.4375322    0.0469869 
   0.198990100    -0.3524140    0.1379075    -0.2071405   -0.6321913    -0.1988185   -0.6345834    -0.4011947    0.1418273 
   0.200990000    -0.2921772    0.2094238    -0.3380414   -0.5858480    -0.3301046   -0.5901219    -0.3458303    0.2198836 
   0.202989900    -0.2163937    0.2653471    -0.4605267   -0.5112801    -0.4534614   -0.5170630    -0.2783571    0.2780724 
   0.204989800    -0.1297056    0.3016281    -0.5676289   -0.4092188    -0.5618557   -0.4160872    -0.2053786    0.3159504 
   0.206989700    -0.0376636    0.3163437    -0.6525082   -0.2826651    -0.6478949   -0.2906746    -0.1331311    0.3350477 
   0.208989600     0.0543649    0.3080869    -0.7082635   -0.1362536    -0.7049617   -0.1457137    -0.0657876    0.3387370 
   0.210989500     0.1398781    0.2781579    -0.7297812    0.0225832    -0.7278966    0.0120393    -0.0059492    0.3313448 
   0.212989400     0.2138034    0.2291603    -0.7135491    0.1847279    -0.7137195    0.1734855     0.0464857    0.3168562 
   0.214989300     0.2718495    0.1658867    -0.6593304    0.3403262    -0.6621215    0.3286622     0.0922904    0.2982918 
   0.216989200     0.3108428    0.0932731    -0.5698905    0.4797225    -0.5762916    0.4679877     0.1338876    0.2769934 
   0.218989100     0.3306676    0.0173489    -0.4511212    0.5945105    -0.4611302    0.5844126     0.1731249    0.2525797 
   0.220989000     0.3319328   -0.0576645    -0.3094445    0.6789141    -0.3226980    0.6716997     0.2109623    0.2235593 
   0.222988900     0.3166931   -0.1274847    -0.1536778    0.7288555    -0.1687810    0.7259990     0.2467919    0.1877995 
   0.224988800     0.2876658   -0.1883657     0.0076438    0.7431282    -0.0072638    0.7451107     0.2783821    0.1438067 
   0.226988700     0.2479600   -0.2379682     0.1666324    0.7221652     0.1532915    0.7284573     0.3027608    0.0912280 
   0.228988600     0.2011767   -0.2756358     0.3159914    0.6682535     0.3054986    0.6780956     0.3159394    0.0310895 
   0.230988500     0.1507179   -0.3005840     0.4495542    0.5848382     0.4426675    0.5965150     0.3147628   -0.0344012 
   0.232988400     0.0990002   -0.3127942     0.5617761    0.4759415     0.5587181    0.4883534     0.2966650   -0.1000913 
   0.234988300     0.0488155   -0.3139096     0.6490214    0.3468819     0.6493602    0.3582609     0.2605136   -0.1607501 
   0.236988200     0.0023540   -0.3047901     0.7075565    0.2028777     0.7101582    0.2126917     0.2079578   -0.2105839 
   0.238988100    -0.0383345   -0.2870738     0.7357949    0.0501849     0.7393658    0.0579079     0.1425412   -0.2437621 
   0.240988000    -0.0719161   -0.2623194     0.7318277   -0.1057509     0.7358645   -0.0992467     0.0697462   -0.2561203 
   0.242987900    -0.0973978   -0.2326642     0.6956222   -0.2582276     0.7003371   -0.2516966    -0.0027958   -0.2457089 
   0.244987800    -0.1145132   -0.1999939     0.6284012   -0.4010030     0.6342741   -0.3944220    -0.0675132   -0.2131841 
   0.246987700    -0.1226157   -0.1664577     0.5319694   -0.5276194     0.5391706   -0.5215556    -0.1167502   -0.1625926 
   0.248987600    -0.1222487   -0.1342198     0.4097561   -0.6322747     0.4182820   -0.6272852    -0.1450286   -0.1001340 
   0.250987500    -0.1141106   -0.1050215     0.2659948   -0.7093034     0.2763463   -0.7064333    -0.1494901   -0.0344013 
   0.252987400    -0.0994271   -0.0813778     0.1075718   -0.7540379     0.1187411   -0.7539402    -0.1306005    0.0259101 
   0.254987300    -0.0800172   -0.0645551    -0.0586277   -0.7630383    -0.0471343   -0.7660546    -0.0924058    0.0724260 
   0.256987200    -0.0579443   -0.0552512    -0.2241465   -0.7346812    -0.2135357   -0.7413489    -0.0415736    0.0993863 
   0.258987100    -0.0358691   -0.0540989    -0.3804252   -0.6702576    -0.3716613   -0.6790681     0.0133836    0.1038754 
   0.260987000    -0.0161809   -0.0604791    -0.5186926   -0.5712832    -0.5128471   -0.5820332     0.0635774    0.0864286 
   0.262986900    -0.0010698   -0.0731662    -0.6311093   -0.4435842    -0.6286267   -0.4546657     0.1012295    0.0510824 
   0.264986800     0.0075979   -0.0903389    -0.7120503   -0.2939842    -0.7119839   -0.3043422     0.1208372    0.0042668 
   0.266986700     0.0086560   -0.1095735    -0.7570354   -0.1307439    -0.7590154   -0.1401167     0.1198181   -0.0458948 
   0.268986600     0.0018755   -0.1284562    -0.7644683    0.0370952    -0.7677298    0.0288206     0.0989979   -0.0913997 
   0.270986500    -0.0120836   -0.1442460    -0.7350016    0.2008625    -0.7394054    0.1932311     0.0622605   -0.1251346 
   0.272986400    -0.0319816   -0.1544380    -0.6712474    0.3527576    -0.6769806    0.3455630     0.0156738   -0.1425197 
   0.274986300    -0.0560161   -0.1575521    -0.5772862    0.4860373    -0.5846671    0.4794052    -0.0335356   -0.1418136 
   0.276986200    -0.0814230   -0.1523480    -0.4582345    0.5957451    -0.4678881    0.5904731    -0.0787880   -0.1238145 
   0.278986100    -0.1057269   -0.1383202    -0.3198729    0.6771815    -0.3306717    0.6739197    -0.1142059   -0.0922861 
   0.280986000    -0.1263922   -0.1164117    -0.1682127    0.7276183    -0.1793101    0.7272539    -0.1362572   -0.0524069 
   0.282985900    -0.1407191   -0.0878380    -0.0099979    0.7452742    -0.0203840    0.7476017    -0.1441004   -0.0100160 
   0.284985800    -0.1469900   -0.0541519     0.1483690    0.7296472     0.1395164    0.7341421    -0.1393885    0.0296982 
   0.286985700    -0.1433700   -0.0176307     0.3003260    0.6812638     0.2933262    0.6873514    -0.1250649    0.0632429 
   0.288985600    -0.1293652    0.0184580     0.4393552    0.6016167     0.4337241    0.6090021    -0.1047990    0.0887379 
   0.290985500    -0.1047243    0.0510002     0.5591921    0.4934223     0.5545527    0.5019235    -0.0827813    0.1061208 
   0.292985400    -0.0703427    0.0770827     0.6533202    0.3609062     0.6500820    0.3706855    -0.0624669    0.1170958 
   0.294985300    -0.0282878    0.0939295     0.7166129    0.2095926     0.7148727    0.2206181    -0.0456349    0.1247786 
   0.296985200     0.0192892    0.0994415     0.7444232    0.0471126     0.7449363    0.0587522    -0.0321925    0.1327497 
   0.298985100     0.0686290    0.0917072     0.7348099   -0.1184390     0.7376513   -0.1068256    -0.0199763    0.1440070 
   0.300985000     0.1163338    0.0704810     0.6868068   -0.2771639     0.6931432   -0.2670091    -0.0051228    0.1599595 
   0.302984900     0.1584049    0.0361337     0.6037015   -0.4204746     0.6131619   -0.4118734     0.0166823    0.1796250 
   0.304984800     0.1911509   -0.0089440     0.4902991   -0.5391248     0.5022825   -0.5339931     0.0490751    0.1996108 
   0.306984700     0.2122688   -0.0625281     0.3542454   -0.6269056     0.3672978   -0.6262559     0.0940159    0.2144732 
   0.308984600     0.2197798   -0.1209610     0.2044356   -0.6798100     0.2168621   -0.6835211     0.1505360    0.2174883 
   0.310984500     0.2128637   -0.1807877     0.0501970   -0.6962964     0.0601358   -0.7036481     0.2147832    0.2030447 
   0.312984400     0.1918769   -0.2383743    -0.0996580   -0.6780111    -0.0931198   -0.6874633     0.2797091    0.1671344 
   0.314984300     0.1577675   -0.2902020    -0.2372283   -0.6284493    -0.2344502   -0.6384119     0.3372165    0.1084642 
