! MS46122B
! 2250307/22442219
! 2/18/2026 9:21:10 AM
! C:\USERS\SPARKY\DOCUMENTS\VNA_DATA\FEB18_2026\COLD-OPEN.S2P
! CHANNEL.1
! TR.MEASUREMENT
! RAW.DATA
# GHZ S RI R 50.0
! FREQ.GHZ         S11RE         S11IM         S21RE         S21IM         S12RE         S12IM         S22RE         S22IM         
!; PortSelection: Port_12
   0.001000000     1.0458700   -0.0668462    -0.0003759   -0.0009298    -0.0003123   -0.0009453     0.8069560   -0.5595654 
   0.002999900     0.9621587   -0.1932031    -0.0207238   -0.0139687    -0.0216741   -0.0145011     0.0500916   -0.8679410 
   0.004999800     0.8809733   -0.3135656    -0.1209427    0.0025958    -0.1274636    0.0054360    -0.7158461   -0.4328694 
   0.006999700     0.7149721   -0.3950579    -0.2355415    0.2898687    -0.2304333    0.3112434    -0.4141019    0.6707073 
   0.008999600     0.6281523   -0.3047870     0.2317962    0.5181487     0.2433018    0.5202347     0.5579600   -0.0522219 
   0.010999500     0.6592433   -0.3212117     0.4880044    0.2392851     0.5037778    0.2447964    -0.0131780   -0.5744093 
   0.012999400     0.6426128   -0.3849004     0.5210328    0.0178182     0.5417665    0.0130670    -0.4606009   -0.4282159 
   0.014999300     0.5981394   -0.4441038     0.5011155   -0.1471670     0.5177599   -0.1633045    -0.6433554   -0.1299297 
   0.016999200     0.5385480   -0.4910255     0.4553295   -0.2886048     0.4613514   -0.3105336    -0.6372389    0.1652468 
   0.018999100     0.4693880   -0.5224081     0.3831158   -0.4175401     0.3782880   -0.4382368    -0.5022556    0.3959332 
   0.020999000     0.3944359   -0.5355575     0.2799028   -0.5332608     0.2663314   -0.5470431    -0.2896029    0.5303676 
   0.022998900     0.3207825   -0.5276065     0.1406395   -0.6276213     0.1245126   -0.6308401    -0.0488602    0.5544103 
   0.024998800     0.2544935   -0.4764614    -0.0009081   -0.7134322    -0.0540020   -0.6792181     0.1778199    0.5127324 
   0.026998700     0.2079715   -0.4520129    -0.2328646   -0.6875147    -0.2353178   -0.6770933     0.3183246    0.3017482 
   0.028998600     0.1836648   -0.3975333    -0.4339031   -0.6222152    -0.4285947   -0.6157842     0.3665195    0.0927569 
   0.030998500     0.1838453   -0.3476779    -0.6084175   -0.4907589    -0.6003911   -0.4914497     0.3082914   -0.1013928 
   0.032998400     0.1988001   -0.2985597    -0.7443263   -0.3580460    -0.7321969   -0.3071146     0.1899907   -0.2415878 
   0.034998300     0.2251695   -0.2980919    -0.7896119   -0.1029392    -0.7912628   -0.1096264    -0.0019737   -0.2655172 
   0.036998200     0.2439995   -0.3008136    -0.7859259    0.1017107    -0.7910552    0.0999818    -0.1547725   -0.2133874 
   0.038998100     0.2522508   -0.3141036    -0.7325750    0.2889804    -0.7369830    0.2924311    -0.2540614   -0.1038425 
   0.040998000     0.2492520   -0.3320957    -0.6396483    0.4523473    -0.6393360    0.4583676    -0.2900758    0.0309139 
   0.042997900     0.2350518   -0.3492171    -0.5161180    0.5850986    -0.5098608    0.5905509    -0.2622434    0.1616132 
   0.044997800     0.2097439   -0.3452556    -0.4189232    0.6939642    -0.3527776    0.6926935    -0.1994711    0.2833203 
   0.046997700     0.1829128   -0.3646730    -0.2069580    0.7529492    -0.1979844    0.7489192    -0.0712644    0.3193643 
   0.048997600     0.1543937   -0.3593183    -0.0341722    0.7844225    -0.0278101    0.7759938     0.0507930    0.3237626 
   0.050997500     0.1293827   -0.3460222     0.1432398    0.7778454     0.1443819    0.7673487     0.1626671    0.2779206 
   0.052997400     0.1116042   -0.3269104     0.3166408    0.7321634     0.3108072    0.7235053     0.2446284    0.1915215 
   0.054997300     0.1004567   -0.3065773     0.4808789    0.6443723     0.4693407    0.6420522     0.2844218    0.0788009 
   0.056997200     0.0981843   -0.2878744     0.6172135    0.5229025     0.6089061    0.5228039     0.2746325   -0.0380009 
   0.058997100     0.1023135   -0.2744851     0.7233837    0.3697033     0.7171496    0.3733691     0.2188985   -0.1400812 
   0.060997000     0.1095072   -0.2684928     0.7896599    0.1953289     0.7868469    0.2003717     0.1283046   -0.2088464 
   0.062996900     0.1159291   -0.2701391     0.8121933    0.0113922     0.8129334    0.0153365     0.0200586   -0.2342856 
   0.064996800     0.1181982   -0.2779224     0.7918422   -0.1707614     0.7936189   -0.1689173    -0.0856547   -0.2137677 
   0.066996700     0.1140082   -0.2889800     0.7316286   -0.3408207     0.7319499   -0.3409654    -0.1705568   -0.1541300 
   0.068996600     0.1027337   -0.3001299     0.6365801   -0.4907344     0.6350387   -0.4911408    -0.2217114   -0.0685436 
   0.070996500     0.0855937   -0.3084834     0.5138476   -0.6161012     0.5101613   -0.6141233    -0.2332233    0.0265523 
   0.072996400     0.0639379   -0.3110034     0.3689073   -0.7111999     0.3647926   -0.7059607    -0.2064602    0.1144823 
   0.074996300     0.0404741   -0.3068202     0.2080738   -0.7735618     0.2061877   -0.7652693    -0.1489024    0.1818461 
   0.076996200     0.0182259   -0.2952421     0.0378238   -0.8015890     0.0400318   -0.7916185    -0.0719720    0.2189861 
   0.078996100    -0.0000828   -0.2773432    -0.1353103   -0.7940125    -0.1278951   -0.7841169     0.0110300    0.2222493 
   0.080996000    -0.0126540   -0.2549081    -0.3042779   -0.7494057    -0.2927783   -0.7427052     0.0858456    0.1926718 
   0.082995900    -0.0174017   -0.2306462    -0.4614648   -0.6684143    -0.4476891   -0.6667588     0.1408989    0.1366110 
   0.084995800    -0.0143915   -0.2075738    -0.5982127   -0.5544608    -0.5844877   -0.5582539     0.1672112    0.0650178 
   0.086995700    -0.0052466   -0.1886414    -0.7072353   -0.4117550    -0.6961586   -0.4199257     0.1612713   -0.0093987 
   0.088995600     0.0081421   -0.1762443    -0.7819746   -0.2472335    -0.7747689   -0.2580919     0.1252900   -0.0731787 
   0.090995500     0.0225381   -0.1709374    -0.8181993   -0.0696714    -0.8146333   -0.0809858     0.0666786   -0.1145828 
   0.092995400     0.0352050   -0.1724066    -0.8139498    0.1109625    -0.8126348    0.1009434    -0.0030648   -0.1269447 
   0.094995300     0.0436847   -0.1787858    -0.7687601    0.2847005    -0.7690617    0.2767727    -0.0707325   -0.1083840 
   0.096995200     0.0467263   -0.1877466    -0.6872844    0.4435346    -0.6876890    0.4366971    -0.1234303   -0.0631288 
   0.098995100     0.0439552   -0.1965399    -0.5743846    0.5796237    -0.5743981    0.5726702    -0.1517093   -0.0006625 
   0.100995000     0.0347530   -0.2042587    -0.4343273    0.6890038    -0.4358630    0.6801212    -0.1507268    0.0686504 
   0.102994900     0.0239456   -0.2067459    -0.2768580    0.7641919    -0.2806921    0.7543387    -0.1222651    0.1299867 
   0.104994800     0.0122091   -0.2046021    -0.1080047    0.8045867    -0.1148280    0.7947592    -0.0715139    0.1742245 
   0.106994700     0.0013199   -0.1978391     0.0654186    0.8084348     0.0548924    0.8005716    -0.0078654    0.1943722 
   0.108994600    -0.0065496   -0.1877722     0.2357050    0.7761259     0.2223763    0.7719030     0.0580406    0.1875303 
   0.110994500    -0.0104795   -0.1758515     0.3956321    0.7086585     0.3812534    0.7092358     0.1157137    0.1553595 
   0.112994400    -0.0101825   -0.1639027     0.5385084    0.6086694     0.5246409    0.6139413     0.1555386    0.1038762 
   0.114994300    -0.0060562   -0.1536761     0.6568789    0.4799312     0.6458189    0.4890432     0.1714381    0.0414970 
   0.116994200     0.0007204   -0.1463548     0.7451074    0.3282267     0.7378525    0.3397519     0.1614454   -0.0212465 
   0.118994100     0.0085811   -0.1427832     0.7984255    0.1604917     0.7951122    0.1726131     0.1277785   -0.0736033 
   0.120994000     0.0160658   -0.1428922     0.8141146   -0.0143019     0.8140325   -0.0035206     0.0766253   -0.1073078 
   0.122993900     0.0215075   -0.1460824     0.7913460   -0.1885829     0.7930202   -0.1791429     0.0174038   -0.1166010 
   0.124993800     0.0241083   -0.1508524     0.7316434   -0.3530868     0.7340384   -0.3450453    -0.0393650   -0.1006455 
   0.126993700     0.0236687   -0.1561152     0.6381596   -0.5004962     0.6412863   -0.4928220    -0.0832199   -0.0629866 
   0.128993600     0.0205779   -0.1601083     0.5157274   -0.6235908     0.5197512   -0.6158250    -0.1065769   -0.0112750 
   0.130993500     0.0158585   -0.1624029     0.3706827   -0.7177153     0.3764150   -0.7096759    -0.1059811    0.0444618 
   0.132993400     0.0105786   -0.1624989     0.2096150   -0.7791730     0.2179006   -0.7712577    -0.0820226    0.0944243 
   0.134993300     0.0057692   -0.1606373     0.0394910   -0.8050258     0.0506322   -0.7988325    -0.0396020    0.1294942 
   0.136993200     0.0021286   -0.1573558    -0.1318934   -0.7945511    -0.1182949   -0.7914468     0.0137236    0.1437600 
   0.138993100     0.0003667   -0.1538063    -0.2974505   -0.7480334    -0.2826740   -0.7491122     0.0684108    0.1347604 
   0.140993000     0.0002218   -0.1509175    -0.4491703   -0.6675068    -0.4351244   -0.6732945     0.1149643    0.1040699 
   0.142992900     0.0010350   -0.1494689    -0.5803450   -0.5564184    -0.5686835   -0.5659670     0.1455275    0.0567036 
   0.144992800     0.0019493   -0.1500777    -0.6849843   -0.4200274    -0.6771115   -0.4324228     0.1545318    0.0006855 
   0.146992700     0.0017293   -0.1523397    -0.7577567   -0.2645186    -0.7536694   -0.2775326     0.1407441   -0.0547664 
   0.148992600    -0.0005061   -0.1557899    -0.7952198   -0.0973085    -0.7948223   -0.1099188     0.1060784   -0.1007610 
   0.150992500    -0.0051874   -0.1592811    -0.7956330    0.0731524    -0.7976088    0.0617791     0.0559762   -0.1295774 
   0.152992400    -0.0126774   -0.1620381    -0.7607130    0.2393284    -0.7640672    0.2294976    -0.0015702   -0.1366431 
   0.154992300    -0.0223374   -0.1625975    -0.6916268    0.3935339    -0.6960108    0.3845879    -0.0571694   -0.1208216 
   0.156992200    -0.0332775   -0.1599099    -0.5922092    0.5291163    -0.5977046    0.5207934    -0.1019248   -0.0850035 
   0.158992100    -0.0443300   -0.1535258    -0.4673846    0.6408234    -0.4741820    0.6327347    -0.1290717   -0.0354968 
   0.160992000    -0.0539931   -0.1437073    -0.3222968    0.7239247    -0.3311973    0.7163377    -0.1349671    0.0197469 
   0.162991900    -0.0608807   -0.1309174    -0.1636957    0.7751796    -0.1748157    0.7693793    -0.1194487    0.0719163 
   0.164991800    -0.0641894   -0.1162648     0.0024104    0.7925439    -0.0105255    0.7895120    -0.0860118    0.1129892 
   0.166991700    -0.0633818   -0.1012388     0.1688295    0.7750746     0.1547756    0.7756602    -0.0404429    0.1372498 
   0.168991600    -0.0585237   -0.0872480     0.3285800    0.7230525     0.3147430    0.7277845     0.0093246    0.1416634 
   0.170991500    -0.0502912   -0.0755812     0.4742453    0.6381512     0.4626209    0.6464645     0.0551094    0.1266894 
   0.172991400    -0.0397451   -0.0673064     0.5992842    0.5242755     0.5908282    0.5351256     0.0899301    0.0958297 
   0.174991300    -0.0283356   -0.0628668     0.6974400    0.3856561     0.6923714    0.3978804     0.1085526    0.0552254 
   0.176991200    -0.0174822   -0.0620461     0.7640162    0.2287580     0.7622917    0.2412447     0.1086929    0.0123502 
   0.178991100    -0.0083496   -0.0642163     0.7953780    0.0613076     0.7962122    0.0725569     0.0915779   -0.0253552 
   0.180991000    -0.0017715   -0.0682499     0.7902598   -0.1088239     0.7923974   -0.0987989     0.0610500   -0.0510495 
   0.182990900     0.0019703   -0.0728488     0.7485386   -0.2738577     0.7522115   -0.2644515     0.0234122   -0.0606433 
   0.184990800     0.0031927   -0.0768222     0.6730144   -0.4258024     0.6774886   -0.4172436    -0.0142196   -0.0529291 
   0.186990700     0.0026510   -0.0792738     0.5671778   -0.5577687     0.5728071   -0.5499344    -0.0438394   -0.0299496 
   0.188990600     0.0031137   -0.0795318     0.4559118   -0.6501973     0.4597758   -0.6456164    -0.0609208    0.0018624 
   0.190990500     0.0008873   -0.0782187     0.2886558   -0.7391768     0.2982251   -0.7334354    -0.0608301    0.0405599 
   0.192990400     0.0013120   -0.0753499     0.1229317   -0.7836208     0.1348954   -0.7802289    -0.0447523    0.0750284 
   0.194990300     0.0039974   -0.0720035    -0.0453927   -0.7915659    -0.0323461   -0.7914764    -0.0157009    0.0996639 
   0.196990200     0.0088847   -0.0692723    -0.2115973   -0.7639092    -0.1983546   -0.7676314     0.0214477    0.1103432 
   0.198990100     0.0155409   -0.0682800    -0.3683626   -0.7018163    -0.3563093   -0.7091414     0.0604982    0.1048579 
   0.200990000     0.0232031   -0.0698307    -0.5086058   -0.6077916    -0.4988985   -0.6179002     0.0944187    0.0841236 
   0.202989900     0.0306406   -0.0744644    -0.6256815   -0.4856085    -0.6193194   -0.4975615     0.1175954    0.0513837 
   0.204989800     0.0365651   -0.0820478    -0.7139109   -0.3413596    -0.7108665   -0.3536479     0.1263783    0.0119366 
   0.206989700     0.0399661   -0.0919882    -0.7695609   -0.1819943    -0.7686862   -0.1938334     0.1190521   -0.0276874 
   0.208989600     0.0398205   -0.1031385    -0.7889236   -0.0146781    -0.7906234   -0.0261427     0.0971208   -0.0612567 
   0.210989500     0.0357733   -0.1142347    -0.7725326    0.1523526    -0.7757303    0.1416796     0.0643981   -0.0834979 
   0.212989400     0.0278318   -0.1238827    -0.7211547    0.3111385    -0.7257724    0.3019095     0.0261547   -0.0912956 
   0.214989300     0.0167458   -0.1307403    -0.6376680    0.4551444    -0.6437479    0.4466380    -0.0111945   -0.0837467 
   0.216989200     0.0036790   -0.1338021    -0.5266162    0.5773817    -0.5344157    0.5699500    -0.0414973   -0.0630598 
   0.218989100    -0.0100784   -0.1325375    -0.3930782    0.6735326    -0.4029177    0.6673993    -0.0606399   -0.0334900 
   0.220989000    -0.0231808   -0.1268889    -0.2428295    0.7396625    -0.2547023    0.7357188    -0.0664395   -0.0005637 
   0.222988900    -0.0341285   -0.1172941    -0.0830075    0.7730481    -0.0952879    0.7723583    -0.0590816    0.0304608 
   0.224988800    -0.0417648   -0.1046101     0.0805565    0.7729328     0.0686153    0.7753163    -0.0412132    0.0543123 
   0.226988700    -0.0452742   -0.0900276     0.2404692    0.7389835     0.2296806    0.7442886    -0.0168859    0.0678256 
   0.228988600    -0.0443198   -0.0749088     0.3900480    0.6724691     0.3810701    0.6803916     0.0089025    0.0697167 
   0.230988500    -0.0389375   -0.0606900     0.5228522    0.5762407     0.5162666    0.5855370     0.0310105    0.0609752 
   0.232988400    -0.0295366   -0.0484785     0.6325863    0.4535077     0.6288299    0.4638805     0.0453866    0.0444657 
   0.234988300    -0.0171752   -0.0394242     0.7148491    0.3102440     0.7129844    0.3201439     0.0495035    0.0246446 
   0.236988200    -0.0027042   -0.0340438     0.7646855    0.1520071     0.7648731    0.1615610     0.0431446    0.0065378 
   0.238988100     0.0125888   -0.0328366     0.7800689   -0.0133128     0.7813587   -0.0047773     0.0281492   -0.0052052 
   0.240988000     0.0277457   -0.0355923     0.7594448   -0.1787515     0.7618328   -0.1699542     0.0084529   -0.0071400 
   0.242987900     0.0416496   -0.0421076     0.7037346   -0.3357335     0.7082389   -0.3266504    -0.0108150    0.0021939 
   0.244987800     0.0534485   -0.0516736     0.6158468   -0.4773563     0.6227182   -0.4679198    -0.0243422    0.0217992 
   0.246987700     0.0627065   -0.0636244     0.4994586   -0.5964476     0.5092210   -0.5884690    -0.0277427    0.0483935 
   0.248987600     0.0691054   -0.0772336     0.3608723   -0.6875166     0.3727420   -0.6822670    -0.0181475    0.0771483 
   0.250987500     0.0724922   -0.0918774     0.2060246   -0.7469483     0.2194128   -0.7450867     0.0045380    0.1021795 
   0.252987400     0.0729289   -0.1069505     0.0429743   -0.7718348     0.0565121   -0.7737894     0.0382208    0.1179659 
   0.254987300     0.0706153   -0.1219362    -0.1209848   -0.7612187    -0.1083741   -0.7670063     0.0788061    0.1203547 
   0.256987200     0.0657290   -0.1365941    -0.2782602   -0.7164459    -0.2676943   -0.7256081     0.1206254    0.1070088 
   0.258987100     0.0581423   -0.1502911    -0.4218805   -0.6398928    -0.4143621   -0.6508750     0.1571830    0.0782326 
   0.260987000     0.0479689   -0.1624835    -0.5451012   -0.5346208    -0.5412416   -0.5464472     0.1830370    0.0364555 
   0.262986900     0.0351989   -0.1731883    -0.6430280   -0.4067467    -0.6424836   -0.4181165     0.1936409   -0.0134064 
   0.264986800     0.0203165   -0.1815383    -0.7118155   -0.2617912    -0.7132062   -0.2718447     0.1866972   -0.0655209 
   0.266986700     0.0038072   -0.1873070    -0.7483978   -0.1064496    -0.7513139   -0.1150092     0.1623623   -0.1132928 
   0.268986600    -0.0140603   -0.1900067    -0.7516401    0.0520305    -0.7554747    0.0447540     0.1231306   -0.1506452 
   0.270986500    -0.0326158   -0.1892731    -0.7222829    0.2069523    -0.7268897    0.2000780     0.0739164   -0.1728231 
   0.272986400    -0.0513000   -0.1848743    -0.6618116    0.3517994    -0.6674857    0.3451726     0.0205766   -0.1773510 
   0.274986300    -0.0689598   -0.1765477    -0.5731526    0.4806376    -0.5803071    0.4743492    -0.0298821   -0.1641593 
   0.276986200    -0.0849097   -0.1645106    -0.4602111    0.5884717    -0.4695924    0.5834560    -0.0715781   -0.1356728 
   0.278986100    -0.0982443   -0.1488594    -0.3277145    0.6707243    -0.3384031    0.6675250    -0.0999490   -0.0966281 
   0.280986000    -0.1079911   -0.1306070    -0.1811907    0.7240949    -0.1923526    0.7237136    -0.1124720   -0.0528600 
   0.282985900    -0.1135777   -0.1104981    -0.0266751    0.7462814    -0.0371760    0.7487936    -0.1092990   -0.0103926 
   0.284985800    -0.1143893   -0.0896440     0.1296943    0.7362810     0.1207945    0.7410578    -0.0927213    0.0248300 
   0.286985700    -0.1102450   -0.0693004     0.2812507    0.6937498     0.2744083    0.7003151    -0.0670541    0.0491059 
   0.288985600    -0.1013803   -0.0507700     0.4210776    0.6202753     0.4160363    0.6281344    -0.0377680    0.0604906 
   0.290985500    -0.0885019   -0.0354484     0.5432323    0.5183827     0.5395036    0.5270928    -0.0104372    0.0592607 
   0.292985400    -0.0724871   -0.0241083     0.6414036    0.3924057     0.6391603    0.4016840     0.0101080    0.0481736 
   0.294985300    -0.0542157   -0.0172104     0.7106255    0.2477640     0.7098008    0.2574592     0.0207229    0.0316303 
   0.296985200    -0.0353933   -0.0153175     0.7474430    0.0911051     0.7479522    0.1008139     0.0204790    0.0149085 
   0.298985100    -0.0172711   -0.0182180     0.7494994   -0.0701799     0.7515259   -0.0609026     0.0108811    0.0031089 
   0.300985000    -0.0009357   -0.0255668     0.7163104   -0.2282342     0.7202201   -0.2197038    -0.0042541    0.0003210 
   0.302984900     0.0126427   -0.0366798     0.6497379   -0.3753153     0.6558142   -0.3676646    -0.0197481    0.0084674 
   0.304984800     0.0227503   -0.0505951     0.5529198   -0.5042062     0.5610847   -0.4980162    -0.0299519    0.0268580 
   0.306984700     0.0289996   -0.0662931     0.4308886   -0.6084444     0.4407828   -0.6048093    -0.0299595    0.0520863 
   0.308984600     0.0313256   -0.0828232     0.2901180   -0.6831338     0.3010180   -0.6826641    -0.0168479    0.0787676 
   0.310984500     0.0298096   -0.0993571     0.1376674   -0.7253422     0.1481363   -0.7279822     0.0099972    0.1004450 
   0.312984400     0.0247151   -0.1153944    -0.0192044   -0.7336171    -0.0098778   -0.7389957     0.0475207    0.1108709 
   0.314984300     0.0162655   -0.1300626    -0.1726763   -0.7081168    -0.1654342   -0.7154887     0.0904846    0.1052015 
