! MS46122B
! 2250307/22442219
! 2/18/2026 9:25:41 AM
! C:\USERS\SPARKY\DOCUMENTS\VNA_DATA\FEB18_2026\COLD-LOAD.S2P
! CHANNEL.1
! TR.MEASUREMENT
! RAW.DATA
# GHZ S RI R 50.0
! FREQ.GHZ         S11RE         S11IM         S21RE         S21IM         S12RE         S12IM         S22RE         S22IM         
!; PortSelection: Port_12
   0.001000000     1.0458230   -0.0670690    -0.0005973   -0.0005748    -0.0005502   -0.0006065     0.8062687   -0.5577258 
   0.002999900     0.9623629   -0.1894697    -0.0113099    0.0040789    -0.0117122    0.0042704     0.1314776   -0.8178216 
   0.004999800     0.8975626   -0.2921200    -0.0148098    0.0256869    -0.0152960    0.0269682    -0.3493963   -0.6494223 
   0.006999700     0.8218591   -0.3867638    -0.0019839    0.0491209    -0.0013055    0.0514147    -0.5832657   -0.4047271 
   0.008999600     0.7329782   -0.4727898     0.0241073    0.0664533     0.0265898    0.0686941    -0.6855110   -0.1746140 
   0.010999500     0.6261572   -0.5478050     0.0605797    0.0727195     0.0651557    0.0736484    -0.7122849    0.0298519 
   0.012999400     0.4976615   -0.6030333     0.1054341    0.0632011     0.1108570    0.0614184    -0.6885360    0.2103507 
   0.014999300     0.3455043   -0.6230419     0.1527613    0.0308365     0.1575153    0.0259048    -0.6260450    0.3697928 
   0.016999200     0.1799324   -0.5854014     0.1906169   -0.0310935     0.1923050   -0.0382926    -0.5276338    0.5089718 
   0.018999100     0.0321994   -0.4698693     0.1979285   -0.1209253     0.1952581   -0.1275113    -0.3927256    0.6212839 
   0.020999000    -0.0425518   -0.2822706     0.1524969   -0.2182743     0.1471458   -0.2211518    -0.2250440    0.6929111 
   0.022998900    -0.0006440   -0.0799145     0.0542020   -0.2833847     0.0499567   -0.2827969    -0.0416943    0.7080774 
   0.024998800     0.1319048    0.0586961    -0.0521036   -0.3033040    -0.0694813   -0.2862029     0.1314448    0.7230740 
   0.026998700     0.3094401    0.0958360    -0.1628476   -0.2404130    -0.1629471   -0.2390185     0.2692149    0.5852306 
   0.028998600     0.4536037    0.0563308    -0.2244052   -0.1651930    -0.2237403   -0.1643507     0.3738684    0.4833057 
   0.030998500     0.5524295   -0.0255209    -0.2509068   -0.0849578    -0.2502513   -0.0847207     0.4475019    0.3727565 
   0.032998400     0.5880657   -0.1065535    -0.2609343   -0.0240767    -0.2511358   -0.0080364     0.5329084    0.2908654 
   0.034998300     0.6268598   -0.2195883    -0.2339796    0.0518376    -0.2329918    0.0512815     0.5200227    0.1445289 
   0.036998200     0.6200364   -0.3092770    -0.2050780    0.1028227    -0.2044918    0.1019538     0.5228152    0.0312834 
   0.038998100     0.5954558   -0.3877416    -0.1692578    0.1428308    -0.1688197    0.1418153     0.5042141   -0.0776220 
   0.040998000     0.5572744   -0.4580167    -0.1281878    0.1722350    -0.1281739    0.1712423     0.4648442   -0.1788815 
   0.042997900     0.5076302   -0.5175800    -0.0841376    0.1912643    -0.0846773    0.1903643     0.4066257   -0.2691351 
   0.044997800     0.4438747   -0.5393060    -0.0510439    0.2064451    -0.0374559    0.2006071     0.3667355   -0.3622293 
   0.046997700     0.3844224   -0.6043237     0.0050259    0.2005646     0.0046422    0.2003552     0.2440178   -0.4028729 
   0.048997600     0.3158553   -0.6316403     0.0469379    0.1919327     0.0465259    0.1919595     0.1472846   -0.4407082 
   0.050997500     0.2443532   -0.6480768     0.0854657    0.1756638     0.0855923    0.1756989     0.0460025   -0.4578314 
   0.052997400     0.1730793   -0.6536725     0.1190620    0.1527371     0.1191404    0.1529060    -0.0544920   -0.4538801 
   0.054997300     0.0982505   -0.6499597     0.1481668    0.1229204     0.1476471    0.1237182    -0.1524089   -0.4293647 
   0.056997200     0.0255793   -0.6353485     0.1698512    0.0894297     0.1697411    0.0890018    -0.2406071   -0.3867083 
   0.058997100    -0.0445016   -0.6098179     0.1846187    0.0520824     0.1847058    0.0514149    -0.3174025   -0.3278382 
   0.060997000    -0.1104894   -0.5738342     0.1917289    0.0122714     0.1913688    0.0117235    -0.3794887   -0.2554445 
   0.062996900    -0.1708668   -0.5271246     0.1906341   -0.0286154     0.1896700   -0.0289838    -0.4247928   -0.1734682 
   0.064996800    -0.2238694   -0.4699936     0.1812282   -0.0686536     0.1801905   -0.0688239    -0.4520596   -0.0856493 
   0.066996700    -0.2668388   -0.4035428     0.1635170   -0.1063487     0.1623856   -0.1058799    -0.4605750    0.0042894 
   0.068996600    -0.2971772   -0.3291364     0.1376756   -0.1400948     0.1366946   -0.1388290    -0.4510419    0.0923896 
   0.070996500    -0.3134401   -0.2492929     0.1049212   -0.1681063     0.1041867   -0.1665157    -0.4247486    0.1750152 
   0.072996400    -0.3128099   -0.1660229     0.0661212   -0.1882900     0.0661537   -0.1863600    -0.3833514    0.2488706 
   0.074996300    -0.2949700   -0.0840554     0.0229135   -0.1996083     0.0240058   -0.1975292    -0.3293487    0.3121034 
   0.076996200    -0.2590449   -0.0071949    -0.0222665   -0.2008518    -0.0207452   -0.1990134    -0.2662533    0.3623040 
   0.078996100    -0.2065439    0.0595052    -0.0668190   -0.1914850    -0.0647362   -0.1903026    -0.1968198    0.3988574 
   0.080996000    -0.1407254    0.1125975    -0.1086770   -0.1716448    -0.1059179   -0.1713329    -0.1237770    0.4212521 
   0.082995900    -0.0645750    0.1479642    -0.1447315   -0.1424582    -0.1421672   -0.1428232    -0.0495009    0.4300430 
   0.084995800     0.0155327    0.1639464    -0.1723897   -0.1058597    -0.1701601   -0.1067840     0.0223033    0.4259915 
   0.086995700     0.0956699    0.1606480    -0.1907459   -0.0637420    -0.1887511   -0.0654858     0.0905082    0.4102717 
   0.088995600     0.1702323    0.1387485    -0.1986477   -0.0189968    -0.1967821   -0.0210473     0.1535892    0.3842697 
   0.090995500     0.2357521    0.1014595    -0.1958918    0.0254794    -0.1947793    0.0232931     0.2103609    0.3489560 
   0.092995400     0.2891699    0.0520337    -0.1832210    0.0675997    -0.1825723    0.0649307     0.2603877    0.3054483 
   0.094995300     0.3283065   -0.0059497    -0.1616140    0.1048885    -0.1614549    0.1019750     0.3022246    0.2555125 
   0.096995200     0.3528455   -0.0693836    -0.1330918    0.1354838    -0.1333906    0.1330590     0.3353609    0.1998037 
   0.098995100     0.3631427   -0.1337986    -0.0992061    0.1585189    -0.1001575    0.1561720     0.3589436    0.1396257 
   0.100995000     0.3597032   -0.2004075    -0.0601409    0.1743796    -0.0620072    0.1721271     0.3735808    0.0739317 
   0.102994900     0.3442728   -0.2599021    -0.0215187    0.1802489    -0.0239121    0.1785492     0.3757775    0.0088173 
   0.104994800     0.3182226   -0.3140656     0.0164261    0.1779933     0.0138288    0.1768373     0.3665879   -0.0558084 
   0.106994700     0.2833333   -0.3610894     0.0522333    0.1679861     0.0496309    0.1677231     0.3462690   -0.1181330 
   0.108994600     0.2417048   -0.4006298     0.0845117    0.1513456     0.0818563    0.1518638     0.3152934   -0.1762472 
   0.110994500     0.1948836   -0.4323237     0.1120537    0.1291194     0.1096608    0.1302785     0.2742296   -0.2281141 
   0.112994400     0.1437178   -0.4551886     0.1342533    0.1024298     0.1322238    0.1039026     0.2244434   -0.2717368 
   0.114994300     0.0898840   -0.4694326     0.1504515    0.0722973     0.1489314    0.0743199     0.1674798   -0.3056160 
   0.116994200     0.0348912   -0.4747523     0.1602523    0.0402842     0.1592325    0.0425517     0.1050452   -0.3284691 
   0.118994100    -0.0202779   -0.4711883     0.1636253    0.0075097     0.1630629    0.0096899     0.0394354   -0.3393104 
   0.120994000    -0.0736873   -0.4596000     0.1607396   -0.0247153     0.1607633   -0.0229477    -0.0267735   -0.3378597 
   0.122993900    -0.1255251   -0.4391341     0.1517683   -0.0558134     0.1522222   -0.0539902    -0.0913378   -0.3240734 
   0.124993800    -0.1736611   -0.4104189     0.1372095   -0.0842483     0.1379550   -0.0826348    -0.1520242   -0.2985221 
   0.126993700    -0.2168971   -0.3741455     0.1175415   -0.1094434     0.1185675   -0.1077957    -0.2061276   -0.2627298 
   0.128993600    -0.2540976   -0.3303266     0.0933831   -0.1305272     0.0949148   -0.1290604    -0.2526079   -0.2175330 
   0.130993500    -0.2840912   -0.2807907     0.0658317   -0.1464676     0.0676097   -0.1453604    -0.2897652   -0.1650121 
   0.132993400    -0.3059933   -0.2264959     0.0356567   -0.1569466     0.0374502   -0.1561414    -0.3163956   -0.1072181 
   0.134993300    -0.3185242   -0.1684729     0.0036457   -0.1615441     0.0057562   -0.1611144    -0.3319055   -0.0462345 
   0.136993200    -0.3207791   -0.1080224    -0.0288864   -0.1599091    -0.0266586   -0.1599594    -0.3360821    0.0161960 
   0.138993100    -0.3123416   -0.0475735    -0.0607525   -0.1518636    -0.0585444   -0.1523456    -0.3293709    0.0775105 
   0.140993000    -0.2929258    0.0112900    -0.0909251   -0.1375009    -0.0888218   -0.1383421    -0.3121206    0.1361281 
   0.142992900    -0.2624471    0.0664455    -0.1180505   -0.1170282    -0.1162394   -0.1184503    -0.2852474    0.1904100 
   0.144992800    -0.2221005    0.1153213    -0.1407458   -0.0912913    -0.1392553   -0.0930694    -0.2495824    0.2387298 
   0.146992700    -0.1724717    0.1557957    -0.1580122   -0.0608909    -0.1568191   -0.0627527    -0.2068259    0.2802340 
   0.148992600    -0.1151945    0.1863070    -0.1687829   -0.0267454    -0.1681168   -0.0289549    -0.1579568    0.3138532 
   0.150992500    -0.0530336    0.2046160    -0.1720790    0.0092202    -0.1718352    0.0067462    -0.1043842    0.3394898 
   0.152992400     0.0120852    0.2102060    -0.1677184    0.0456238    -0.1678284    0.0431371    -0.0471486    0.3554691 
   0.154992300     0.0769754    0.2028643    -0.1552411    0.0808322    -0.1558155    0.0783536     0.0123655    0.3618844 
   0.156992200     0.1389197    0.1823487    -0.1351749    0.1127971    -0.1363851    0.1104689     0.0724152    0.3584064 
   0.158992100     0.1954319    0.1498666    -0.1084804    0.1397204    -0.1101460    0.1375966     0.1318014    0.3447107 
   0.160992000     0.2436929    0.1064290    -0.0761666    0.1602441    -0.0782716    0.1584057     0.1886219    0.3209668 
   0.162991900     0.2819744    0.0546496    -0.0399648    0.1731097    -0.0425927    0.1718607     0.2412580    0.2874481 
   0.164991800     0.3090149   -0.0034862    -0.0019479    0.1775865    -0.0048776    0.1769977     0.2880403    0.2446886 
   0.166991700     0.3237443   -0.0654382     0.0360872    0.1736128     0.0329557    0.1736720     0.3270760    0.1935411 
   0.168991600     0.3259537   -0.1287531     0.0721946    0.1614154     0.0691062    0.1623506     0.3569907    0.1355383 
   0.170991500     0.3155497   -0.1906290     0.1042479    0.1418406     0.1015306    0.1435889     0.3762451    0.0722593 
   0.172991400     0.2938670   -0.2495073     0.1311605    0.1160888     0.1288142    0.1184741     0.3837875    0.0055575 
   0.174991300     0.2616595   -0.3022226     0.1516766    0.0854154     0.1499930    0.0883044     0.3789900   -0.0621108 
   0.176991200     0.2198715   -0.3482211     0.1650772    0.0516984     0.1643495    0.0548352     0.3616922   -0.1284947 
   0.178991100     0.1705274   -0.3856862     0.1710674    0.0165053     0.1711902    0.0195900     0.3321547   -0.1912229 
   0.180991000     0.1153510   -0.4137299     0.1698318   -0.0188575     0.1705983   -0.0159763     0.2910072   -0.2479537 
   0.182990900     0.0558356   -0.4311602     0.1615602   -0.0528743     0.1630296   -0.0501997     0.2398991   -0.2963378 
   0.184990800    -0.0061194   -0.4375888     0.1468738   -0.0838792     0.1488323   -0.0819450     0.1801259   -0.3348544 
   0.186990700    -0.0688124   -0.4329684     0.1266798   -0.1111801     0.1288047   -0.1097532     0.1137783   -0.3616074 
   0.188990600    -0.1187220   -0.4204022     0.1054989   -0.1308111     0.1070811   -0.1304226     0.0530210   -0.3746017 
   0.190990500    -0.1864952   -0.3912682     0.0734423   -0.1510524     0.0757867   -0.1508381    -0.0275242   -0.3769105 
   0.192990400    -0.2412781   -0.3537894     0.0415262   -0.1629398     0.0438197   -0.1631390    -0.1005368   -0.3641976 
   0.194990300    -0.2881691   -0.3075610     0.0084962   -0.1684036     0.0105785   -0.1688948    -0.1686831   -0.3387823 
   0.196990200    -0.3266525   -0.2533099    -0.0250188   -0.1675964    -0.0231750   -0.1685373    -0.2314209   -0.3011338 
   0.198990100    -0.3554844   -0.1920137    -0.0579476   -0.1604661    -0.0562551   -0.1617114    -0.2865334   -0.2523878 
   0.200990000    -0.3733777   -0.1249553    -0.0893484   -0.1471572    -0.0877567   -0.1486134    -0.3321098   -0.1943827 
   0.202989900    -0.3792157   -0.0539712    -0.1181013   -0.1277904    -0.1168663   -0.1293515    -0.3666790   -0.1288171 
   0.204989800    -0.3720024    0.0184421    -0.1430634   -0.1029566    -0.1421365   -0.1046153    -0.3893869   -0.0575550 
   0.206989700    -0.3516799    0.0898262    -0.1631417   -0.0732692    -0.1623953   -0.0749897    -0.3989288    0.0172398 
   0.208989600    -0.3169802    0.1577806    -0.1773909   -0.0391036    -0.1768194   -0.0411358    -0.3950577    0.0930823 
   0.210989500    -0.2689319    0.2197964    -0.1847738   -0.0020742    -0.1845111   -0.0040580    -0.3775248    0.1678898 
   0.212989400    -0.2079872    0.2728332    -0.1844125    0.0368451    -0.1843556    0.0348023    -0.3464581    0.2391031 
   0.214989300    -0.1361815    0.3139227    -0.1756898    0.0760284    -0.1760641    0.0737927    -0.3026904    0.3045669 
   0.216989200    -0.0559786    0.3405838    -0.1583124    0.1135893    -0.1591652    0.1113837    -0.2472429    0.3621883 
   0.218989100     0.0294831    0.3508981    -0.1325709    0.1473523    -0.1340359    0.1449996    -0.1812122    0.4093365 
   0.220989000     0.1171315    0.3434973    -0.0991564    0.1753737    -0.1012868    0.1732159    -0.1067884    0.4443407 
   0.222988900     0.2031635    0.3180032    -0.0591722    0.1956289    -0.0619018    0.1939834    -0.0255400    0.4653026 
   0.224988800     0.2832226    0.2744404    -0.0147455    0.2064441    -0.0181326    0.2055200     0.0595442    0.4714133 
   0.226988700     0.3534223    0.2148396     0.0316315    0.2067614     0.0279407    0.2067507     0.1453837    0.4613342 
   0.228988600     0.4101374    0.1416679     0.0774955    0.1960526     0.0734406    0.1973235     0.2289899    0.4351017 
   0.230988500     0.4506171    0.0579235     0.1198365    0.1748511     0.1162511    0.1773965     0.3074281    0.3927964 
   0.232988400     0.4728450   -0.0329161     0.1562982    0.1442853     0.1533680    0.1479343     0.3777712    0.3358728 
   0.234988300     0.4769602   -0.1263685     0.1845543    0.1060543     0.1828297    0.1106965     0.4364593    0.2659490 
   0.236988200     0.4617951   -0.2183332     0.2031763    0.0627364     0.2031036    0.0673891     0.4813447    0.1852987 
   0.238988100     0.4288271   -0.3053678     0.2114933    0.0167924     0.2127363    0.0210745     0.5103911    0.0964832 
   0.240988000     0.3798256   -0.3837077     0.2093648   -0.0295081     0.2118841   -0.0257163     0.5224820    0.0031633 
   0.242987900     0.3171844   -0.4507183     0.1974154   -0.0735568     0.2007588   -0.0708969     0.5164617   -0.0915589 
   0.244987800     0.2433233   -0.5040105     0.1765524   -0.1134966     0.1803258   -0.1117610     0.4922005   -0.1840732 
   0.246987700     0.1607826   -0.5427485     0.1480410   -0.1476927     0.1519318   -0.1471629     0.4506865   -0.2711658 
   0.248987600     0.0728083   -0.5650800     0.1135648   -0.1750430     0.1168258   -0.1756802     0.3930677   -0.3494115 
   0.250987500    -0.0179287   -0.5707141     0.0745566   -0.1946646     0.0772553   -0.1958646     0.3208643   -0.4155729 
   0.252987400    -0.1078897   -0.5597246     0.0326464   -0.2058380     0.0346280   -0.2075036     0.2368732   -0.4672124 
   0.254987300    -0.1938737   -0.5323263    -0.0105427   -0.2085433    -0.0089388   -0.2103169     0.1439767   -0.5023786 
   0.256987200    -0.2735943   -0.4899147    -0.0533645   -0.2028023    -0.0523978   -0.2044944     0.0452409   -0.5188512 
   0.258987100    -0.3451469   -0.4337621    -0.0943237   -0.1887137    -0.0936522   -0.1901524    -0.0556550   -0.5159741 
   0.260987000    -0.4051087   -0.3641295    -0.1323026   -0.1664843    -0.1316343   -0.1679175    -0.1550551   -0.4936992 
   0.262986900    -0.4522119   -0.2832952    -0.1656000   -0.1369777    -0.1650916   -0.1381255    -0.2486652   -0.4520715 
   0.264986800    -0.4834134   -0.1939830    -0.1927865   -0.1007985    -0.1921347   -0.1019883    -0.3328463   -0.3925919 
   0.266986700    -0.4968977   -0.0987913    -0.2125200   -0.0588786    -0.2118790   -0.0602089    -0.4045261   -0.3167630 
   0.268986600    -0.4915634   -0.0015131    -0.2236243   -0.0126972    -0.2229847   -0.0143379    -0.4600194   -0.2279361 
   0.270986500    -0.4668601    0.0944927    -0.2249407    0.0360789    -0.2243523    0.0340188    -0.4968713   -0.1289307 
   0.272986400    -0.4221494    0.1847722    -0.2153284    0.0854878    -0.2152681    0.0828986    -0.5131445   -0.0240352 
   0.274986300    -0.3586758    0.2653631    -0.1944714    0.1332132    -0.1952894    0.1299045    -0.5075678    0.0830730 
   0.276986200    -0.2780747    0.3322011    -0.1625307    0.1763591    -0.1644126    0.1730100    -0.4800504    0.1865996 
   0.278986100    -0.1832662    0.3803949    -0.1200759    0.2117104    -0.1231408    0.2088143    -0.4317808    0.2828280 
   0.280986000    -0.0783868    0.4071415    -0.0688817    0.2368474    -0.0732274    0.2346413    -0.3643803    0.3669500 
   0.282985900     0.0313132    0.4096260    -0.0119364    0.2490489    -0.0167975    0.2481441    -0.2813556    0.4352711 
   0.284985800     0.1389916    0.3866983     0.0471755    0.2464570     0.0420817    0.2473016    -0.1863322    0.4844238 
   0.286985700     0.2388974    0.3395235     0.1046411    0.2289244     0.0997401    0.2314712    -0.0842178    0.5125037 
   0.288985600     0.3246771    0.2707732     0.1557461    0.1974426     0.1520032    0.2014728     0.0208977    0.5185670 
   0.290985500     0.3916020    0.1849462     0.1968917    0.1540083     0.1945901    0.1594754     0.1236543    0.5035993 
   0.292985400     0.4365771    0.0875134     0.2255923    0.1021677     0.2250535    0.1083361     0.2196718    0.4683865 
   0.294985300     0.4582088   -0.0159701     0.2401427    0.0460525     0.2416054    0.0517522     0.3051804    0.4154429 
   0.296985200     0.4560282   -0.1197595     0.2401679   -0.0104629     0.2434433   -0.0057956     0.3774337    0.3479098 
   0.298985100     0.4316632   -0.2185128     0.2272369   -0.0640563     0.2314536   -0.0608890     0.4342891    0.2693048 
   0.300985000     0.3878115   -0.3074673     0.2029580   -0.1112525     0.2072489   -0.1102264     0.4740821    0.1825696 
   0.302984900     0.3280695   -0.3833714     0.1695191   -0.1502662     0.1734874   -0.1507092     0.4965961    0.0914754 
   0.304984800     0.2562015   -0.4431800     0.1295965   -0.1799214     0.1327809   -0.1813340     0.5016471   -0.0006889 
   0.306984700     0.1761241   -0.4862114     0.0859436   -0.1994302     0.0878424   -0.2015076     0.4896176   -0.0912390 
   0.308984600     0.0922312   -0.5121280     0.0407860   -0.2087469     0.0417960   -0.2108919     0.4616513   -0.1768391 
   0.310984500     0.0076686   -0.5216458    -0.0039691   -0.2085953    -0.0036016   -0.2104257     0.4187894   -0.2553319 
   0.312984400    -0.0746766   -0.5154939    -0.0463938   -0.1996362    -0.0462998   -0.2009992     0.3626746   -0.3241701 
   0.314984300    -0.1527048   -0.4952984    -0.0851185   -0.1828403    -0.0853069   -0.1837080     0.2952857   -0.3811783 
