! MS46122B
! 2250307/22442219
! 2/18/2026 9:26:52 AM
! C:\USERS\SPARKY\DOCUMENTS\VNA_DATA\FEB18_2026\COLD-PORT3.S2P
! CHANNEL.1
! TR.MEASUREMENT
! RAW.DATA
# GHZ S RI R 50.0
! FREQ.GHZ         S11RE         S11IM         S21RE         S21IM         S12RE         S12IM         S22RE         S22IM         
!; PortSelection: Port_12
   0.001000000     1.0459590   -0.0670906    -0.0003647   -0.0009349    -0.0003189   -0.0009454     0.8073255   -0.5595886 
   0.002999900     0.9621674   -0.1936163    -0.0211117   -0.0140898    -0.0220830   -0.0146242     0.0483681   -0.8676233 
   0.004999800     0.8792599   -0.3143028    -0.1271883    0.0061372    -0.1340152    0.0094222    -0.7250855   -0.4047443 
   0.006999700     0.7076716   -0.3789323    -0.2099236    0.3424193    -0.2007695    0.3622795    -0.2176674    0.7043130 
   0.008999600     0.6685944   -0.3005832     0.2987231    0.4418759     0.3084399    0.4459459     0.4794320   -0.2891211 
   0.010999500     0.6833611   -0.3524632     0.4624737    0.1672650     0.4795994    0.1709819    -0.1592472   -0.6034586 
   0.012999400     0.6474520   -0.4245673     0.4750534   -0.0198926     0.4947298   -0.0268330    -0.5476832   -0.3970865 
   0.014999300     0.5874783   -0.4865702     0.4548522   -0.1644763     0.4691053   -0.1814262    -0.6913662   -0.0943466 
   0.016999200     0.5114408   -0.5337959     0.4132512   -0.2956001     0.4171159   -0.3171538    -0.6663322    0.1913254 
   0.018999100     0.4229161   -0.5620258     0.3442979   -0.4218854     0.3377419   -0.4414305    -0.5247706    0.4105705 
   0.020999000     0.3268571   -0.5641584     0.2393616   -0.5404244     0.2247908   -0.5524227    -0.3126293    0.5341244 
   0.022998900     0.2320079   -0.5343168     0.0881071   -0.6386144     0.0724507   -0.6397066    -0.0783150    0.5460227 
   0.024998800     0.1544460   -0.4507935    -0.0791644   -0.7245328    -0.1280685   -0.6837271     0.1279282    0.4883374 
   0.026998700     0.1081179   -0.3767597    -0.3379948   -0.6705998    -0.3378702   -0.6617000     0.2363872    0.2726686 
   0.028998600     0.1122887   -0.2770409    -0.5580204   -0.5564166    -0.5517871   -0.5538504     0.2312516    0.0805676 
   0.030998500     0.1624310   -0.1978397    -0.7208772   -0.3604206    -0.7169912   -0.3652653     0.1213079   -0.0540755 
   0.032998400     0.2308560   -0.1502518    -0.8216276   -0.1665715    -0.8021793   -0.1175799    -0.0321205   -0.0870136 
   0.034998300     0.3111388   -0.1654894    -0.7833321    0.1136592    -0.7891632    0.1138026    -0.1626838   -0.0082555 
   0.036998200     0.3653293   -0.2023621    -0.7031700    0.3149384    -0.7064736    0.3207575    -0.2154760    0.1250619 
   0.038998100     0.3946671   -0.2531004    -0.5832353    0.4728191    -0.5801042    0.4800717    -0.1861682    0.2630753 
   0.040998000     0.4019647   -0.3097479    -0.4375079    0.5877213    -0.4290534    0.5918387    -0.0913688    0.3721218 
   0.042997900     0.3889799   -0.3645248    -0.2791568    0.6612017    -0.2684733    0.6599356     0.0462734    0.4289604 
   0.044997800     0.3543066   -0.3912821    -0.1562051    0.7180710    -0.0987404    0.6919543     0.2110009    0.4635306 
   0.046997700     0.3203781   -0.4500892     0.0459445    0.6971107     0.0503022    0.6858264     0.3431432    0.3573164 
   0.048997600     0.2745512   -0.4781685     0.2014873    0.6642939     0.1999448    0.6525022     0.4542934    0.2408036 
   0.050997500     0.2244801   -0.4968913     0.3454183    0.5994731     0.3385522    0.5902180     0.5179631    0.0895513 
   0.052997400     0.1730590   -0.5062124     0.4713598    0.5059757     0.4603890    0.5023913     0.5257932   -0.0749799 
   0.054997300     0.1175437   -0.5090620     0.5765599    0.3832738     0.5639234    0.3878977     0.4768412   -0.2352665 
   0.056997200     0.0616270   -0.5030637     0.6494675    0.2444177     0.6414715    0.2504833     0.3794805   -0.3671952 
   0.058997100     0.0053987   -0.4883856     0.6906586    0.0900804     0.6868666    0.0980703     0.2467809   -0.4587015 
   0.060997000    -0.0509087   -0.4636251     0.6960685   -0.0711642     0.6963096   -0.0630116     0.0963294   -0.5012942 
   0.062996900    -0.1060308   -0.4268889     0.6646740   -0.2308661     0.6680405   -0.2245596    -0.0521237   -0.4939412 
   0.064996800    -0.1567566   -0.3760081     0.5972490   -0.3816820     0.6022387   -0.3775212    -0.1821842   -0.4431763 
   0.066996700    -0.1987327   -0.3093301     0.4953224   -0.5156807     0.5005687   -0.5132016    -0.2807112   -0.3617631 
   0.068996600    -0.2253297   -0.2275560     0.3616532   -0.6243261     0.3668827   -0.6236042    -0.3418453   -0.2651723 
   0.070996500    -0.2292655   -0.1330605     0.2012188   -0.7005967     0.2065600   -0.7006120    -0.3668454   -0.1702186 
   0.072996400    -0.2021946   -0.0328936     0.0214387   -0.7341079     0.0265489   -0.7359164    -0.3644165   -0.0906243 
   0.074996300    -0.1393618    0.0605587    -0.1657840   -0.7185007    -0.1617722   -0.7219459    -0.3484348   -0.0332631 
   0.076996200    -0.0423726    0.1321298    -0.3449318   -0.6498861    -0.3432809   -0.6549332    -0.3344632    0.0028562 
   0.078996100     0.0803032    0.1662458    -0.4978613   -0.5317126    -0.4997333   -0.5362529    -0.3344002    0.0274673 
   0.080996000     0.2113113    0.1523006    -0.6082231   -0.3749984    -0.6125827   -0.3762751    -0.3516421    0.0564809 
   0.082995900     0.3301037    0.0905797    -0.6655966   -0.1975378    -0.6694641   -0.1945111    -0.3792862    0.1044653 
   0.084995800     0.4178935   -0.0091170    -0.6680945   -0.0198303    -0.6688873   -0.0129654    -0.4023657    0.1780113 
   0.086995700     0.4662412   -0.1313942    -0.6240438    0.1412608    -0.6189371    0.1487031    -0.4042005    0.2750429 
   0.088995600     0.4710743   -0.2599618    -0.5446680    0.2750356    -0.5341745    0.2786172    -0.3735915    0.3837484 
   0.090995500     0.4373868   -0.3805850    -0.4422399    0.3761384    -0.4294721    0.3732257    -0.3062734    0.4896140 
   0.092995400     0.3723297   -0.4853417    -0.3289133    0.4447632    -0.3172195    0.4353126    -0.2041197    0.5782713 
   0.094995300     0.2824836   -0.5666434    -0.2119482    0.4830166    -0.2047645    0.4682331    -0.0749872    0.6388589 
   0.096995200     0.1756525   -0.6220190    -0.0973826    0.4947320    -0.0970495    0.4773326     0.0706519    0.6638571 
   0.098995100     0.0585190   -0.6505153     0.0099685    0.4837503     0.0032106    0.4668193     0.2220232    0.6507716 
   0.100995000    -0.0675087   -0.6513779     0.1115930    0.4531069     0.0976887    0.4398582     0.3693033    0.5987322 
   0.102994900    -0.1900465   -0.6220596     0.1981715    0.4047325     0.1801031    0.3981679     0.4999617    0.5115498 
   0.104994800    -0.3073865   -0.5634251     0.2710044    0.3422958     0.2515983    0.3432986     0.6074510    0.3944663 
   0.106994700    -0.4124351   -0.4746711     0.3279729    0.2676902     0.3109414    0.2761944     0.6854287    0.2539679 
   0.108994600    -0.4990136   -0.3568955     0.3677671    0.1841366     0.3556776    0.1989030     0.7290041    0.0979657 
   0.110994500    -0.5575591   -0.2115886     0.3877415    0.0948342     0.3834863    0.1127921     0.7359738   -0.0648780 
   0.112994400    -0.5770875   -0.0435690     0.3867395    0.0040112     0.3902852    0.0213736     0.7061404   -0.2260628 
   0.114994300    -0.5462396    0.1369783     0.3633741   -0.0833392     0.3738059   -0.0696505     0.6407257   -0.3771618 
   0.116994200    -0.4562151    0.3140391     0.3185939   -0.1604168     0.3329846   -0.1538425     0.5433201   -0.5110659 
   0.118994100    -0.3036405    0.4632280     0.2554129   -0.2206239     0.2695407   -0.2216718     0.4185332   -0.6213137 
   0.120994000    -0.0982510    0.5590050     0.1801468   -0.2577634     0.1901029   -0.2648283     0.2710103   -0.7028332 
   0.122993900     0.1375885    0.5763375     0.1017661   -0.2686619     0.1055980   -0.2779581     0.1071890   -0.7515687 
   0.124993800     0.3683243    0.5071188     0.0312275   -0.2545338     0.0294668   -0.2623969    -0.0665976   -0.7634509 
   0.126993700     0.5576178    0.3609632    -0.0229512   -0.2217794    -0.0272857   -0.2259535    -0.2420426   -0.7351170 
   0.128993600     0.6795894    0.1633820    -0.0559044   -0.1802682    -0.0604043   -0.1809314    -0.4095998   -0.6655862 
   0.130993500     0.7272477   -0.0533318    -0.0687493   -0.1404676    -0.0721438   -0.1384704    -0.5580279   -0.5567103 
   0.132993400     0.7057192   -0.2619928    -0.0669972   -0.1092512    -0.0687804   -0.1063584    -0.6769984   -0.4141130 
   0.134993300     0.6285408   -0.4436308    -0.0575410   -0.0896445    -0.0580279   -0.0868828    -0.7585632   -0.2465633 
   0.136993200     0.5112500   -0.5882306    -0.0464137   -0.0820465    -0.0460342   -0.0791133    -0.7979242   -0.0648541 
   0.138993100     0.3681910   -0.6917661    -0.0383660   -0.0840836    -0.0373597   -0.0810393    -0.7931588    0.1202201 
   0.140993000     0.2115279   -0.7538812    -0.0363023   -0.0927331    -0.0346873   -0.0896255    -0.7454398    0.2975831 
   0.142992900     0.0506153   -0.7765379    -0.0419678   -0.1049908    -0.0392232   -0.1017424    -0.6589224    0.4579165 
   0.144992800    -0.1074661   -0.7634108    -0.0561519   -0.1176855    -0.0517780   -0.1148821    -0.5382112    0.5919473 
   0.146992700    -0.2567748   -0.7148566    -0.0786229   -0.1278972    -0.0725132   -0.1262333    -0.3917634    0.6939964 
   0.148992600    -0.3908192   -0.6346523    -0.1088613   -0.1328003    -0.1014008   -0.1333766    -0.2276990    0.7595705 
   0.150992500    -0.5027201   -0.5249573    -0.1453926   -0.1297873    -0.1372519   -0.1334568    -0.0549886    0.7857803 
   0.152992400    -0.5893611   -0.3913362    -0.1867445   -0.1162610    -0.1793661   -0.1233264     0.1173473    0.7711866 
   0.154992300    -0.6432217   -0.2384144    -0.2297756   -0.0894998    -0.2250138   -0.0999979     0.2795188    0.7179129 
   0.156992200    -0.6584985   -0.0724473    -0.2709282   -0.0474401    -0.2704279   -0.0604631     0.4226764    0.6300219 
   0.158992100    -0.6309748    0.0963677    -0.3050592    0.0104320    -0.3098291   -0.0026508     0.5389773    0.5133182 
   0.160992000    -0.5577457    0.2564609    -0.3260042    0.0842106    -0.3362296    0.0736442     0.6227568    0.3759148 
   0.162991900    -0.4408756    0.3932639    -0.3271303    0.1708510    -0.3411620    0.1649860     0.6711956    0.2277390 
   0.164991800    -0.2876207    0.4934186    -0.3021644    0.2643988    -0.3167976    0.2650077     0.6837049    0.0778674 
   0.166991700    -0.1105102    0.5447275    -0.2471010    0.3554441    -0.2587099    0.3620088     0.6635392   -0.0645633 
   0.168991600     0.0734208    0.5409467    -0.1607726    0.4332795    -0.1678297    0.4429545     0.6159691   -0.1933156 
   0.170991500     0.2451894    0.4831816    -0.0487502    0.4856603    -0.0495716    0.4954242     0.5470966   -0.3045819 
   0.172991400     0.3881451    0.3793240     0.0799559    0.5035580     0.0835490    0.5102884     0.4615132   -0.3977149 
   0.174991300     0.4898520    0.2430234     0.2126715    0.4825275     0.2173961    0.4845442     0.3631134   -0.4718452 
   0.176991200     0.5448912    0.0902299     0.3350450    0.4232813     0.3383586    0.4215202     0.2538884   -0.5260772 
   0.178991100     0.5538139   -0.0639697     0.4363819    0.3320839     0.4368049    0.3283230     0.1358855   -0.5590117 
   0.180991000     0.5224507   -0.2063812     0.5093929    0.2188787     0.5058946    0.2150483     0.0121551   -0.5680314 
   0.182990900     0.4571930   -0.3283559     0.5499743    0.0922378     0.5436172    0.0912487    -0.1124029   -0.5502031 
   0.184990800     0.3674632   -0.4235984     0.5586227   -0.0377136     0.5509645   -0.0353641    -0.2321850   -0.5046023 
   0.186990700     0.2625383   -0.4894793     0.5379384   -0.1633521     0.5305330   -0.1571753    -0.3388014   -0.4318379 
   0.188990600     0.1639483   -0.5201916     0.4983068   -0.2641215     0.4920295   -0.2575692    -0.4171057   -0.3465593 
   0.190990500     0.0392082   -0.5311440     0.4218788   -0.3800526     0.4210952   -0.3681725    -0.4859128   -0.2211264 
   0.192990400    -0.0690455   -0.5111754     0.3313679   -0.4672191     0.3357292   -0.4546200    -0.5161830   -0.0930127 
   0.194990300    -0.1638893   -0.4671562     0.2269129   -0.5334715     0.2362839   -0.5225855    -0.5127112    0.0353036 
   0.196990200    -0.2421210   -0.4038633     0.1100351   -0.5782002     0.1237154   -0.5705810    -0.4769070    0.1565380 
   0.198990100    -0.3007441   -0.3258826    -0.0158213   -0.5990768     0.0006633   -0.5965506    -0.4121226    0.2614147 
   0.200990000    -0.3371304   -0.2384489    -0.1466652   -0.5941440    -0.1295739   -0.5974799    -0.3246475    0.3427202 
   0.202989900    -0.3498043   -0.1471686    -0.2780229   -0.5611159    -0.2628396   -0.5701120    -0.2222888    0.3956478 
   0.204989800    -0.3390065   -0.0585160    -0.4037587   -0.4987481    -0.3928646   -0.5122696    -0.1149680    0.4174946 
   0.206989700    -0.3071304    0.0211233    -0.5172891   -0.4069372    -0.5112263   -0.4228322    -0.0123047    0.4093616 
   0.208989600    -0.2566542    0.0866490    -0.6105341   -0.2869462    -0.6099512   -0.3033911     0.0773290    0.3758352 
   0.210989500    -0.1936883    0.1338911    -0.6758066   -0.1432878    -0.6798661   -0.1576988     0.1473244    0.3236206 
   0.212989400    -0.1238902    0.1610293    -0.7055745    0.0173096    -0.7126802    0.0062210     0.1947090    0.2614843 
   0.214989300    -0.0541235    0.1674881    -0.6949039    0.1848806    -0.7031507    0.1772287     0.2201693    0.1980627 
   0.216989200     0.0095230    0.1556448    -0.6420440    0.3481183    -0.6505339    0.3433226     0.2273046    0.1401102 
   0.218989100     0.0631491    0.1291973    -0.5486350    0.4957390    -0.5571616    0.4921790     0.2217558    0.0923408 
   0.220989000     0.1035935    0.0931005    -0.4205027    0.6166564    -0.4290816    0.6143777     0.2099729    0.0554568 
   0.222988900     0.1300392    0.0519457    -0.2659409    0.7026778    -0.2741728    0.7017260     0.1969550    0.0276027 
   0.224988800     0.1431674    0.0105063    -0.0948220    0.7486313    -0.1032534    0.7493043     0.1856450    0.0053091 
   0.226988700     0.1451063   -0.0280980     0.0818032    0.7522806     0.0734520    0.7546734     0.1762815   -0.0153031 
   0.228988600     0.1380831   -0.0606275     0.2532922    0.7143391     0.2455346    0.7184828     0.1669114   -0.0370232 
   0.230988500     0.1249938   -0.0863504     0.4107146    0.6377937     0.4037875    0.6438468     0.1544602   -0.0605604 
   0.232988400     0.1089506   -0.1046032     0.5453658    0.5275487     0.5401106    0.5352342     0.1358608   -0.0845008 
   0.234988300     0.0923178   -0.1159486     0.6511947    0.3902812     0.6476091    0.3983773     0.1092180   -0.1057359 
   0.236988200     0.0770448   -0.1213119     0.7229335    0.2328211     0.7210685    0.2412544     0.0748294   -0.1197569 
   0.238988100     0.0645470   -0.1220856     0.7576235    0.0637981     0.7570291    0.0721372     0.0348977   -0.1225129 
   0.240988000     0.0559778   -0.1199845     0.7531461   -0.1089111     0.7540278   -0.1000192    -0.0057035   -0.1109616 
   0.242987900     0.0516238   -0.1166761     0.7097306   -0.2759950     0.7129371   -0.2663677    -0.0409337   -0.0844875 
   0.244987800     0.0512708   -0.1137723     0.6296329   -0.4296297     0.6356062   -0.4194826    -0.0644475   -0.0453903 
   0.246987700     0.0543557   -0.1128094     0.5166006   -0.5610059     0.5259562   -0.5519912    -0.0711584    0.0013131 
   0.248987600     0.0598398   -0.1150469     0.3765899   -0.6630930     0.3882515   -0.6569690    -0.0583650    0.0483923 
   0.250987500     0.0663460   -0.1213614     0.2163242   -0.7307483     0.2299726   -0.7284205    -0.0264466    0.0879212 
   0.252987400     0.0724727   -0.1323271     0.0451467   -0.7595713     0.0591667   -0.7616816     0.0207158    0.1123535 
   0.254987300     0.0762826   -0.1476157    -0.1274878   -0.7481740    -0.1146503   -0.7544463     0.0761579    0.1161762 
   0.256987200     0.0760775   -0.1664542    -0.2921957   -0.6973658    -0.2819898   -0.7073738     0.1315293    0.0970979 
   0.258987100     0.0705836   -0.1879666    -0.4397000   -0.6108477    -0.4332545   -0.6227139     0.1775456    0.0565802 
   0.260987000     0.0583302   -0.2102470    -0.5623164   -0.4935230    -0.5594402   -0.5058759     0.2066303   -0.0009627 
   0.262986900     0.0390503   -0.2310866    -0.6540339   -0.3531692    -0.6545455   -0.3645122     0.2132215   -0.0676876 
   0.264986800     0.0129673   -0.2483485    -0.7109824   -0.1977282    -0.7138374   -0.2070979     0.1952900   -0.1349312 
   0.266986700    -0.0191615   -0.2598900    -0.7317359   -0.0356060    -0.7355681   -0.0431828     0.1542779   -0.1935565 
   0.268986600    -0.0559620   -0.2637298    -0.7166972    0.1246163    -0.7211843    0.1183542     0.0948303   -0.2358852 
   0.270986500    -0.0945660   -0.2586755    -0.6680497    0.2757413    -0.6730252    0.2699774     0.0240687   -0.2566221 
   0.272986400    -0.1332029   -0.2438722    -0.5893837    0.4114249    -0.5950843    0.4061270    -0.0497237   -0.2535467 
   0.274986300    -0.1689157   -0.2190923    -0.4846909    0.5266104    -0.4919986    0.5215838    -0.1179478   -0.2276348 
   0.276986200    -0.1992409   -0.1848176    -0.3591599    0.6168571    -0.3682176    0.6132870    -0.1736380   -0.1826522 
   0.278986100    -0.2216263   -0.1424790    -0.2179037    0.6788357    -0.2278812    0.6773827    -0.2119131   -0.1251823 
   0.280986000    -0.2333946   -0.0941250    -0.0667395    0.7101660    -0.0766526    0.7111577    -0.2304092   -0.0619400 
   0.282985900    -0.2326195   -0.0423614     0.0885636    0.7093304     0.0794855    0.7123794    -0.2299929    0.0001818 
   0.284985800    -0.2188040    0.0094351     0.2414350    0.6751621     0.2336889    0.6801696    -0.2136957    0.0548388 
   0.286985700    -0.1915525    0.0570567     0.3849720    0.6082801     0.3789870    0.6146719    -0.1863718    0.0984427 
   0.288985600    -0.1518973    0.0971706     0.5123554    0.5102933     0.5071571    0.5178081    -0.1533307    0.1297150 
   0.290985500    -0.1019962    0.1261154     0.6156878    0.3845306     0.6116950    0.3936171    -0.1200508    0.1496770 
   0.292985400    -0.0451272    0.1413275     0.6889353    0.2366523     0.6862252    0.2474169    -0.0903160    0.1613429 
   0.294985300     0.0150309    0.1404299     0.7257914    0.0745002     0.7253532    0.0864918    -0.0656406    0.1689448 
   0.296985200     0.0735644    0.1233560     0.7233869   -0.0932423     0.7258582   -0.0807469    -0.0452669    0.1768744 
   0.298985100     0.1260991    0.0903250     0.6806719   -0.2559353     0.6869805   -0.2443207    -0.0260100    0.1879769 
   0.300985000     0.1679755    0.0439595     0.6004784   -0.4030553     0.6103272   -0.3939221    -0.0033716    0.2030350 
   0.302984900     0.1955639   -0.0122932     0.4882014   -0.5258339     0.5006979   -0.5204225     0.0268309    0.2200159 
   0.304984800     0.2072511   -0.0740151     0.3515351   -0.6172686     0.3654696   -0.6165271     0.0675325    0.2345748 
   0.306984700     0.2020202   -0.1364176     0.2002480   -0.6726511     0.2131874   -0.6769683     0.1190357    0.2407202 
   0.308984600     0.1810088   -0.1949983     0.0436456   -0.6911022     0.0536483   -0.6993272     0.1788505    0.2324690 
   0.310984500     0.1461061   -0.2459175    -0.1093739   -0.6738113    -0.1033424   -0.6842754     0.2412106    0.2058217 
   0.312984400     0.0998092   -0.2863944    -0.2510156   -0.6242335    -0.2493348   -0.6350439     0.2989738    0.1589592 
   0.314984300     0.0452292   -0.3143005    -0.3754632   -0.5467957    -0.3771217   -0.5559558     0.3444560    0.0929276 
