! MS46122B
! 2250307/22442219
! 2/18/2026 9:32:44 AM
! C:\USERS\SPARKY\DOCUMENTS\VNA_DATA\FEB18_2026\COLD-PORT6.S2P
! CHANNEL.1
! TR.MEASUREMENT
! RAW.DATA
# GHZ S RI R 50.0
! FREQ.GHZ         S11RE         S11IM         S21RE         S21IM         S12RE         S12IM         S22RE         S22IM         
!; PortSelection: Port_12
   0.001000000     1.0453180   -0.0671040    -0.0003789   -0.0009270    -0.0003139   -0.0009446     0.8071823   -0.5595514 
   0.002999900     0.9621455   -0.1933889    -0.0207351   -0.0139443    -0.0216965   -0.0144756     0.0501517   -0.8680365 
   0.004999800     0.8809960   -0.3138286    -0.1209199    0.0026741    -0.1275127    0.0054535    -0.7157744   -0.4328546 
   0.006999700     0.7149426   -0.3954571    -0.2356896    0.2898274    -0.2306833    0.3112697    -0.4138630    0.6707088 
   0.008999600     0.6277996   -0.3051419     0.2317955    0.5186564     0.2432011    0.5209907     0.5589574   -0.0528929 
   0.010999500     0.6589232   -0.3213965     0.4884376    0.2396265     0.5043489    0.2453623    -0.0134845   -0.5759707 
   0.012999400     0.6425536   -0.3850037     0.5215005    0.0180187     0.5425381    0.0133206    -0.4619103   -0.4293126 
   0.014999300     0.5978462   -0.4442990     0.5017254   -0.1472499     0.5185696   -0.1633396    -0.6451737   -0.1302264 
   0.016999200     0.5381646   -0.4911733     0.4558765   -0.2888539     0.4621603   -0.3107786    -0.6390206    0.1658044 
   0.018999100     0.4689373   -0.5224292     0.3836919   -0.4179527     0.3790915   -0.4387583    -0.5038180    0.3972693 
   0.020999000     0.3939431   -0.5355061     0.2803977   -0.5338820     0.2670443   -0.5478216    -0.2905572    0.5323294 
   0.022998900     0.3202723   -0.5274323     0.1409035   -0.6284631     0.1249605   -0.6319286    -0.0489763    0.5565704 
   0.024998800     0.2540880   -0.4760724    -0.0008823   -0.7145134    -0.0539024   -0.6804099     0.1786277    0.5150253 
   0.026998700     0.2075217   -0.4514470    -0.2333480   -0.6884909    -0.2355935   -0.6783598     0.3198529    0.3033313 
   0.028998600     0.1835575   -0.3967266    -0.4347883   -0.6230448    -0.4292915   -0.6169434     0.3683988    0.0936140 
   0.030998500     0.1840569   -0.3469039    -0.6095600   -0.4911696    -0.6014407   -0.4923290     0.3101550   -0.1012373 
   0.032998400     0.1993228   -0.2979165    -0.7455304   -0.3581255    -0.7335347   -0.3075504     0.1917201   -0.2420752 
   0.034998300     0.2259230   -0.2976713    -0.7905911   -0.1025912    -0.7925465   -0.1096916    -0.0008569   -0.2663130 
   0.036998200     0.2449062   -0.3006520    -0.7867059    0.1022799    -0.7921904    0.1004401    -0.1540824   -0.2142007 
   0.038998100     0.2531878   -0.3142356    -0.7331169    0.2896498    -0.7379155    0.2929410    -0.2536224   -0.1046061 
   0.040998000     0.2500486   -0.3325759    -0.6399934    0.4530077    -0.6401819    0.4588583    -0.2897812    0.0302823 
   0.042997900     0.2357011   -0.3499060    -0.5162842    0.5858086    -0.5105802    0.5913092    -0.2620786    0.1610732 
   0.044997800     0.2101386   -0.3460449    -0.4190951    0.6946413    -0.3531746    0.6934900    -0.1993313    0.2828170 
   0.046997700     0.1831138   -0.3655487    -0.2069586    0.7535646    -0.1983048    0.7496995    -0.0710833    0.3189716 
   0.048997600     0.1543478   -0.3602541    -0.0340945    0.7850470    -0.0281045    0.7768348     0.0509983    0.3233595 
   0.050997500     0.1290841   -0.3469323     0.1433498    0.7785086     0.1443322    0.7682080     0.1628442    0.2774515 
   0.052997400     0.1110958   -0.3276444     0.3164363    0.7329786     0.3107592    0.7245050     0.2446955    0.1911926 
   0.054997300     0.0997422   -0.3072024     0.4813236    0.6449763     0.4696932    0.6429861     0.2845971    0.0780757 
   0.056997200     0.0973250   -0.2883116     0.6177582    0.5234697     0.6094701    0.5237374     0.2746998   -0.0387830 
   0.058997100     0.1013745   -0.2747115     0.7241115    0.3701366     0.7179397    0.3742319     0.2187500   -0.1409815 
   0.060997000     0.1086029   -0.2684951     0.7905249    0.1956224     0.7878808    0.2010245     0.1278454   -0.2097875 
   0.062996900     0.1150736   -0.2699594     0.8131078    0.0114786     0.8141432    0.0157318     0.0192957   -0.2351816 
   0.064996800     0.1174248   -0.2775482     0.7927833   -0.1709696     0.7948847   -0.1688800    -0.0867389   -0.2144476 
   0.066996700     0.1133444   -0.2884932     0.7325146   -0.3412256     0.7331206   -0.3412107    -0.1718397   -0.1544860 
   0.068996600     0.1022102   -0.2995385     0.6373316   -0.4913722     0.6361667   -0.4917265    -0.2231470   -0.0685461 
   0.070996500     0.0851781   -0.3078206     0.5143884   -0.6167954     0.5111238   -0.6149406    -0.2346123    0.0269664 
   0.072996400     0.0636589   -0.3103016     0.3693080   -0.7120447     0.3655004   -0.7070034    -0.2076899    0.1153085 
   0.074996300     0.0403404   -0.3060737     0.2082697   -0.7745269     0.2066808   -0.7663892    -0.1498657    0.1829418 
   0.076996200     0.0182291   -0.2945341     0.0377581   -0.8026029     0.0402175   -0.7928345    -0.0726207    0.2203073 
   0.078996100     0.0000737   -0.2766465    -0.1355820   -0.7949460    -0.1279777   -0.7853485     0.0107935    0.2236376 
   0.080996000    -0.0123675   -0.2542496    -0.3047972   -0.7502111    -0.2931715   -0.7438285     0.0859302    0.1939888 
   0.082995900    -0.0169788   -0.2300266    -0.4621281   -0.6691275    -0.4482901   -0.6677799     0.1413419    0.1377981 
   0.084995800    -0.0138479   -0.2070840    -0.5990153   -0.5549719    -0.5852730   -0.5591580     0.1678688    0.0659639 
   0.086995700    -0.0046232   -0.1882924    -0.7081549   -0.4120516    -0.6971451   -0.4206261     0.1620606   -0.0086630 
   0.088995600     0.0087984   -0.1760665    -0.7829477   -0.2472982    -0.7758299   -0.2585471     0.1260966   -0.0727205 
   0.090995500     0.0232102   -0.1709230    -0.8191119   -0.0695560    -0.8157971   -0.0811702     0.0674361   -0.1143494 
   0.092995400     0.0358288   -0.1725854    -0.8148029    0.1112488    -0.8137879    0.1010150    -0.0023743   -0.1268553 
   0.094995300     0.0442531   -0.1791364    -0.7694994    0.2851519    -0.7701380    0.2770016    -0.0701887   -0.1084272 
   0.096995200     0.0471523   -0.1882192    -0.6878935    0.4441450    -0.6886790    0.4371856    -0.1229773   -0.0632267 
   0.098995100     0.0442254   -0.1970885    -0.5748143    0.5802943    -0.5753113    0.5732229    -0.1513831   -0.0007466 
   0.100995000     0.0348262   -0.2048963    -0.4346712    0.6896969    -0.4364771    0.6809475    -0.1504086    0.0686329 
   0.102994900     0.0238456   -0.2073563    -0.2770702    0.7649332    -0.2811801    0.7552521    -0.1219720    0.1299923 
   0.104994800     0.0119519   -0.2051512    -0.1081182    0.8053207    -0.1151612    0.7957431    -0.0711865    0.1742430 
   0.106994700     0.0009361   -0.1982580     0.0653191    0.8090934     0.0547285    0.8016596    -0.0074594    0.1944083 
   0.108994600    -0.0070781   -0.1881081     0.2358845    0.7768546     0.2224504    0.7729662     0.0584874    0.1875006 
   0.110994500    -0.0110951   -0.1760423     0.3959516    0.7094047     0.3815438    0.7102888     0.1162104    0.1552305 
   0.112994400    -0.0108184   -0.1639308     0.5390077    0.6093050     0.5251816    0.6149555     0.1560387    0.1036064 
   0.114994300    -0.0066901   -0.1535326     0.6574914    0.4805521     0.6465716    0.4900488     0.1719151    0.0411209 
   0.116994200     0.0001394   -0.1460716     0.7458883    0.3286094     0.7387899    0.3404948     0.1618295   -0.0218075 
   0.118994100     0.0080892   -0.1423681     0.7992750    0.1607268     0.7962207    0.1731431     0.1279848   -0.0743046 
   0.120994000     0.0156987   -0.1423978     0.8150201   -0.0143407     0.8152468   -0.0032525     0.0766471   -0.1080927 
   0.122993900     0.0212794   -0.1455252     0.7922480   -0.1887762     0.7942904   -0.1791875     0.0171656   -0.1173939 
   0.124993800     0.0240086   -0.1502816     0.7325065   -0.3534344     0.7352408   -0.3453844    -0.0398099   -0.1013585 
   0.126993700     0.0236870   -0.1555423     0.6389239   -0.5010535     0.6423573   -0.4934527    -0.0838528   -0.0635494 
   0.128993600     0.0206971   -0.1595817     0.5163635   -0.6242676     0.5207067   -0.6166687    -0.1073393   -0.0116507 
   0.130993500     0.0160735   -0.1619533     0.3710881   -0.7185377     0.3770990   -0.7105740    -0.1067974    0.0443549 
   0.132993400     0.0108613   -0.1621418     0.2098356   -0.7800562     0.2183195   -0.7723799    -0.0828288    0.0945036 
   0.134993300     0.0061108   -0.1603562     0.0395115   -0.8059258     0.0508665   -0.7999955    -0.0403172    0.1297550 
   0.136993200     0.0025130   -0.1571867    -0.1320364   -0.7954236    -0.1182842   -0.7925951     0.0131325    0.1441704 
   0.138993100     0.0007469   -0.1537296    -0.2977825   -0.7488520    -0.2829443   -0.7502299     0.0679910    0.1352337 
   0.140993000     0.0005690   -0.1509193    -0.4495960   -0.6682009    -0.4355983   -0.6742964     0.1146764    0.1045601 
   0.142992900     0.0013516   -0.1495887    -0.5809702   -0.5569636    -0.5693789   -0.5668346     0.1453582    0.0571489 
   0.144992800     0.0021942   -0.1502921    -0.6857729   -0.4204113    -0.6779729   -0.4331776     0.1544374    0.0010643 
   0.146992700     0.0019075   -0.1525920    -0.7584860   -0.2648696    -0.7546744   -0.2780517     0.1406827   -0.0544517 
   0.148992600    -0.0004258   -0.1561039    -0.7959369   -0.0975168    -0.7959159   -0.1102145     0.1060053   -0.1004896 
   0.150992500    -0.0052445   -0.1596086    -0.7964013    0.0732130    -0.7986807    0.0617062     0.0558563   -0.1293540 
   0.152992400    -0.0128495   -0.1623974    -0.7614857    0.2395802    -0.7651088    0.2296649    -0.0017278   -0.1364134 
   0.154992300    -0.0226057   -0.1628845    -0.6923011    0.3938918    -0.6970310    0.3848845    -0.0574073   -0.1205397 
   0.156992200    -0.0336562   -0.1601263    -0.5928038    0.5295858    -0.5986084    0.5213120    -0.1021806   -0.0846478 
   0.158992100    -0.0448009   -0.1536432    -0.4678951    0.6413881    -0.4749990    0.6333945    -0.1293271   -0.0350393 
   0.160992000    -0.0544992   -0.1437121    -0.3227190    0.7245802    -0.3318627    0.7171653    -0.1351612    0.0203149 
   0.162991900    -0.0614343   -0.1307799    -0.1639736    0.7759263    -0.1753521    0.7703456    -0.1195437    0.0725973 
   0.164991800    -0.0647398   -0.1159699     0.0024301    0.7932891    -0.0108396    0.7905908    -0.0859666    0.1137261 
   0.166991700    -0.0638516   -0.1008465     0.1688666    0.7758849     0.1547658    0.7767943    -0.0401737    0.1380259 
   0.168991600    -0.0589160   -0.0867182     0.3287779    0.7238542     0.3150454    0.7289911     0.0097460    0.1423921 
   0.170991500    -0.0505521   -0.0749637     0.4745291    0.6389913     0.4630442    0.6476266     0.0557327    0.1273477 
   0.172991400    -0.0398581   -0.0666411     0.5999541    0.5249003     0.5915160    0.5361004     0.0906938    0.0963032 
   0.174991300    -0.0282802   -0.0621806     0.6982156    0.3861270     0.6932412    0.3987439     0.1094452    0.0554866 
   0.176991200    -0.0172677   -0.0614087     0.7648652    0.2291055     0.7633787    0.2418244     0.1096075    0.0123735 
   0.178991100    -0.0080185   -0.0636591     0.7962222    0.0615973     0.7973914    0.0728899     0.0924588   -0.0255658 
   0.180991000    -0.0013057   -0.0678048     0.7911680   -0.1089005     0.7935935   -0.0987449     0.0618226   -0.0514730 
   0.182990900     0.0025152   -0.0725552     0.7493594   -0.2741549     0.7533789   -0.2646640     0.0240482   -0.0612462 
   0.184990800     0.0037673   -0.0766824     0.6735976   -0.4262930     0.6785632   -0.4176950    -0.0137784   -0.0536366 
   0.186990700     0.0032378   -0.0792885     0.5678233   -0.5583814     0.5737140   -0.5506563    -0.0435773   -0.0307235 
   0.188990600     0.0036358   -0.0796791     0.4562495   -0.6508336     0.4605479   -0.6464097    -0.0608346    0.0011092 
   0.190990500     0.0013495   -0.0785103     0.2889170   -0.7399552     0.2987608   -0.7344131    -0.0609324    0.0398277 
   0.192990400     0.0016660   -0.0757563     0.1229076   -0.7842898     0.1351282   -0.7812462    -0.0449574    0.0743636 
   0.194990300     0.0042470   -0.0724919    -0.0454738   -0.7923017    -0.0322416   -0.7925495    -0.0160189    0.0990758 
   0.196990200     0.0089801   -0.0698406    -0.2116923   -0.7647602    -0.1985375   -0.7686580     0.0210712    0.1098037 
   0.198990100     0.0154982   -0.0688677    -0.3686916   -0.7025979    -0.3566239   -0.7101349     0.0600409    0.1044200 
   0.200990000     0.0230010   -0.0704088    -0.5090441   -0.6083972    -0.4994101   -0.6188655     0.0939108    0.0837297 
   0.202989900     0.0302760   -0.0749866    -0.6262223   -0.4861455    -0.6199632   -0.4983893     0.1170089    0.0510711 
   0.204989800     0.0360910   -0.0824897    -0.7145128   -0.3417220    -0.7116669   -0.3542900     0.1257489    0.0116625 
   0.206989700     0.0393947   -0.0923583    -0.7702431   -0.1822164    -0.7695497   -0.1943713     0.1183541   -0.0278972 
   0.208989600     0.0391441   -0.1033906    -0.7896506   -0.0147802    -0.7915763   -0.0264490     0.0963571   -0.0614004 
   0.210989500     0.0350406   -0.1143489    -0.7732171    0.1523290    -0.7766679    0.1416817     0.0635512   -0.0835238 
   0.212989400     0.0270523   -0.1238301    -0.7218697    0.3113219    -0.7267820    0.3020543     0.0252350   -0.0911730 
   0.214989300     0.0159578   -0.1305387    -0.6383284    0.4554062    -0.6447349    0.4469745    -0.0120954   -0.0834483 
   0.216989200     0.0029161   -0.1334363    -0.5272247    0.5777878    -0.5353410    0.5704795    -0.0424018   -0.0625760 
   0.218989100    -0.0107888   -0.1320317    -0.3935618    0.6741237    -0.4037194    0.6680648    -0.0614831   -0.0328223 
   0.220989000    -0.0237972   -0.1262207    -0.2432704    0.7403418    -0.2553448    0.7365458    -0.0671658    0.0003195 
   0.222988900    -0.0346093   -0.1165217    -0.0832721    0.7738333    -0.0957479    0.7733386    -0.0596580    0.0314658 
   0.224988800    -0.0420911   -0.1037317     0.0804201    0.7737476     0.0683460    0.7764139    -0.0415457    0.0554624 
   0.226988700    -0.0454204   -0.0891071     0.2405015    0.7397992     0.2296742    0.7453933    -0.0169636    0.0690208 
   0.228988600    -0.0442591   -0.0739589     0.3902833    0.6732816     0.3812866    0.6815398     0.0090560    0.0709273 
   0.230988500    -0.0386760   -0.0597706     0.5232024    0.5769629     0.5167022    0.5865740     0.0314282    0.0620808 
   0.232988400    -0.0290780   -0.0476547     0.6331394    0.4541607     0.6295221    0.4648154     0.0460619    0.0454474 
   0.234988300    -0.0165176   -0.0387081     0.7155436    0.3106745     0.7138551    0.3208760     0.0503484    0.0254341 
   0.236988200    -0.0019237   -0.0335264     0.7655389    0.1523240     0.7659191    0.1620153     0.0441169    0.0071009 
   0.238988100     0.0134894   -0.0325130     0.7808725   -0.0131877     0.7824491   -0.0045464     0.0291952   -0.0048896 
   0.240988000     0.0286885   -0.0355019     0.7602440   -0.1787818     0.7630249   -0.1699882     0.0094938   -0.0070534 
   0.242987900     0.0425668   -0.0422522     0.7044755   -0.3359697     0.7092861   -0.3268721    -0.0098310    0.0020496 
   0.244987800     0.0543131   -0.0520494     0.6165068   -0.4777590     0.6236356   -0.4684157    -0.0234225    0.0214785 
   0.246987700     0.0634409   -0.0642157     0.4999333   -0.5969093     0.5100799   -0.5890293    -0.0269520    0.0479146 
   0.248987600     0.0696927   -0.0780097     0.3612890   -0.6881070     0.3733758   -0.6830463    -0.0174958    0.0765427 
   0.250987500     0.0728734   -0.0927725     0.2063041   -0.7476040     0.2199028   -0.7458628     0.0050631    0.1014908 
   0.252987400     0.0730536   -0.1079269     0.0430540   -0.7724274     0.0568523   -0.7747039     0.0386248    0.1172078 
   0.254987300     0.0705530   -0.1229300    -0.1209140   -0.7618696    -0.1081871   -0.7679579     0.0790696    0.1195315 
   0.256987200     0.0653858   -0.1375641    -0.2784042   -0.7169818    -0.2677412   -0.7265597     0.1207685    0.1061497 
   0.258987100     0.0576074   -0.1511868    -0.4220592   -0.6404979    -0.4146108   -0.6517993     0.1572220    0.0773489 
   0.260987000     0.0472472   -0.1632583    -0.5453644   -0.5352119    -0.5416078   -0.5473791     0.1829112    0.0355766 
   0.262986900     0.0342787   -0.1737896    -0.6434823   -0.4072056    -0.6430147   -0.4189058     0.1933593   -0.0143187 
   0.264986800     0.0193433   -0.1819562    -0.7122746   -0.2623391    -0.7138948   -0.2725125     0.1862835   -0.0664516 
   0.266986700     0.0027236   -0.1875315    -0.7489243   -0.1069539    -0.7521279   -0.1155176     0.1617755   -0.1141596 
   0.268986600    -0.0151880   -0.1899950    -0.7523177    0.0517483    -0.7564079    0.0444064     0.1223536   -0.1514296 
   0.270986500    -0.0337639   -0.1890555    -0.7230448    0.2067879    -0.7278742    0.1998936     0.0729482   -0.1734829 
   0.272986400    -0.0523456   -0.1844290    -0.6625929    0.3517622    -0.6685413    0.3451737     0.0194459   -0.1778592 
   0.274986300    -0.0699396   -0.1758962    -0.5738918    0.4808364    -0.5813149    0.4745699    -0.0311642   -0.1644514 
   0.276986200    -0.0857434   -0.1636709    -0.4609446    0.5888470    -0.4706145    0.5838358    -0.0729376   -0.1357030 
   0.278986100    -0.0988790   -0.1478728    -0.3283899    0.6712032    -0.3393028    0.6681387    -0.1013046   -0.0963608 
   0.280986000    -0.1084185   -0.1295323    -0.1817436    0.7247406    -0.1931043    0.7245111    -0.1137701   -0.0522889 
   0.282985900    -0.1138017   -0.1093403    -0.0270687    0.7470635    -0.0377147    0.7497966    -0.1104864   -0.0095531 
   0.284985800    -0.1143303   -0.0885035     0.1294571    0.7371302     0.1204807    0.7421731    -0.0936861    0.0259162 
   0.286985700    -0.1099559   -0.0682119     0.2812411    0.6946336     0.2743686    0.7015119    -0.0677337    0.0503785 
   0.288985600    -0.1008636   -0.0497571     0.4213095    0.6210961     0.4162677    0.6292924    -0.0381519    0.0618417 
   0.290985500    -0.0877590   -0.0346332     0.5435426    0.5192513     0.5400709    0.5280262    -0.0105063    0.0606332 
   0.292985400    -0.0715774   -0.0234732     0.6418971    0.3931697     0.6398356    0.4026131     0.0103343    0.0494952 
   0.294985300    -0.0531808   -0.0168160     0.7113343    0.2482905     0.7107638    0.2582003     0.0212185    0.0328134 
   0.296985200    -0.0342878   -0.0151774     0.7482094    0.0915027     0.7489567    0.1013745     0.0211823    0.0159100 
   0.298985100    -0.0161914   -0.0183373     0.7503792   -0.0699905     0.7526624   -0.0606343     0.0117714    0.0038943 
   0.300985000     0.0000810   -0.0259618     0.7170842   -0.2282856     0.7213606   -0.2197241    -0.0033033    0.0008783 
   0.302984900     0.0135330   -0.0373323     0.6505431   -0.3756301     0.6568654   -0.3678633    -0.0187646    0.0087968 
   0.304984800     0.0234654   -0.0514357     0.5535976   -0.5045170     0.5620757   -0.4984698    -0.0289837    0.0269778 
   0.306984700     0.0294941   -0.0672813     0.4314676   -0.6088507     0.4416247   -0.6054198    -0.0290400    0.0520449 
   0.308984600     0.0315692   -0.0839012     0.2906219   -0.6836353     0.3018647   -0.6833631    -0.0159789    0.0785608 
   0.310984500     0.0297978   -0.1004554     0.1379872   -0.7259166     0.1486534   -0.7288572     0.0108284    0.1001471 
   0.312984400     0.0244711   -0.1164631    -0.0188777   -0.7341965    -0.0095239   -0.7399292     0.0482751    0.1104390 
   0.314984300     0.0157793   -0.1310498    -0.1724647   -0.7087574    -0.1651955   -0.7164525     0.0911822    0.1046584 
