! MS46122B
! 2250307/22442219
! 2/18/2026 9:30:58 AM
! C:\USERS\SPARKY\DOCUMENTS\VNA_DATA\FEB18_2026\COLD-PORT5.S2P
! CHANNEL.1
! TR.MEASUREMENT
! RAW.DATA
# GHZ S RI R 50.0
! FREQ.GHZ         S11RE         S11IM         S21RE         S21IM         S12RE         S12IM         S22RE         S22IM         
!; PortSelection: Port_12
   0.001000000     1.0453440   -0.0671336    -0.0004055   -0.0009356    -0.0003512   -0.0009483     0.8071469   -0.5596099 
   0.002999900     0.9622417   -0.1933488    -0.0214014   -0.0140499    -0.0223704   -0.0145922     0.0485835   -0.8677066 
   0.004999800     0.8799062   -0.3136735    -0.1277001    0.0063939    -0.1345698    0.0096768    -0.7247551   -0.4048354 
   0.006999700     0.7113620   -0.3783625    -0.2106577    0.3398523    -0.2016533    0.3596992    -0.2189611    0.7052520 
   0.008999600     0.6720634   -0.3043381     0.2892811    0.4433322     0.2987170    0.4473442     0.4944951   -0.2818100 
   0.010999500     0.6861584   -0.3570114     0.4539859    0.1758879     0.4705223    0.1802216    -0.1363912   -0.6185161 
   0.012999400     0.6512336   -0.4301082     0.4682300   -0.0056638     0.4876340   -0.0115003    -0.5344825   -0.4321117 
   0.014999300     0.5923063   -0.4946981     0.4508148   -0.1437877     0.4654376   -0.1591634    -0.6978349   -0.1429970 
   0.016999200     0.5174313   -0.5460435     0.4150195   -0.2666919     0.4206899   -0.2876130    -0.7005084    0.1384941 
   0.018999100     0.4293236   -0.5811737     0.3571839   -0.3847113     0.3528681   -0.4045877    -0.5914875    0.3673672 
   0.020999000     0.3309467   -0.5936518     0.2708651   -0.4975331     0.2578326   -0.5117800    -0.4097502    0.5187081 
   0.022998900     0.2277280   -0.5776752     0.1469486   -0.5982990     0.1304302   -0.6023458    -0.1941097    0.5779579 
   0.024998800     0.1329902   -0.5062513     0.0129551   -0.6978318    -0.0412337   -0.6652392     0.0103386    0.5865818 
   0.026998700     0.0523346   -0.4398476    -0.2248104   -0.6907623    -0.2285825   -0.6788796     0.1739478    0.4230739 
   0.028998600     0.0154742   -0.3264573    -0.4461703   -0.6337924    -0.4406284   -0.6252894     0.2468609    0.2573146 
   0.030998500     0.0308452   -0.2088454    -0.6458058   -0.4908000    -0.6364810   -0.4908929     0.2203566    0.1001529 
   0.032998400     0.0905322   -0.1092267    -0.7981395   -0.3285170    -0.7809119   -0.2757966     0.1325132    0.0125170 
   0.034998300     0.1839535   -0.0638791    -0.8297130   -0.0345954    -0.8310255   -0.0410113     0.0008321    0.0058413 
   0.036998200     0.2749240   -0.0587308    -0.7939774    0.1979289    -0.7978957    0.1964733    -0.0787525    0.0819267 
   0.038998100     0.3500300   -0.0848531    -0.6973382    0.3943844    -0.6994361    0.3972904    -0.0878478    0.1893716 
   0.040998000     0.4055230   -0.1326489    -0.5597188    0.5467072    -0.5570006    0.5504718    -0.0300809    0.2884016 
   0.042997900     0.4374178   -0.1916260    -0.3981279    0.6506091    -0.3916304    0.6524069     0.0795392    0.3486480 
   0.044997800     0.4367614   -0.2357927    -0.2718045    0.7259567    -0.2116264    0.7105263     0.2286306    0.3864883 
   0.046997700     0.4439131   -0.3116259    -0.0553790    0.7270451    -0.0511306    0.7205470     0.3480479    0.2940947 
   0.048997600     0.4274459   -0.3651254     0.1083395    0.7075173     0.1090075    0.6994562     0.4538024    0.1840233 
   0.050997500     0.4019639   -0.4132786     0.2591397    0.6544438     0.2553923    0.6477938     0.5147892    0.0365169 
   0.052997400     0.3703688   -0.4555362     0.3898927    0.5726364     0.3832234    0.5698965     0.5208880   -0.1276652 
   0.054997300     0.3301160   -0.4952886     0.5006550    0.4646918     0.4916436    0.4679571     0.4691015   -0.2907592 
   0.056997200     0.2851176   -0.5297326     0.5801992    0.3427865     0.5757971    0.3463569     0.3672076   -0.4280480 
   0.058997100     0.2340878   -0.5590613     0.6315352    0.2086880     0.6304223    0.2129725     0.2254977   -0.5271350 
   0.060997000     0.1763332   -0.5823056     0.6536371    0.0702841     0.6549388    0.0738089     0.0609696   -0.5772539 
   0.062996900     0.1126181   -0.5976091     0.6472949   -0.0666265     0.6500119   -0.0648572    -0.1087750   -0.5753311 
   0.064996800     0.0425794   -0.6032696     0.6150503   -0.1963264     0.6172865   -0.1969655    -0.2674987   -0.5240793 
   0.066996700    -0.0314359   -0.5971727     0.5596143   -0.3154630     0.5599549   -0.3173266    -0.4004579   -0.4318657 
   0.068996600    -0.1079588   -0.5772973     0.4837441   -0.4211684     0.4819330   -0.4225500    -0.4986982   -0.3092125 
   0.070996500    -0.1850123   -0.5427999     0.3904535   -0.5113565     0.3867039   -0.5105115    -0.5562052   -0.1701617 
   0.072996400    -0.2582149   -0.4896111     0.2813600   -0.5829446     0.2775527   -0.5792399    -0.5728069   -0.0270933 
   0.074996300    -0.3231741   -0.4190701     0.1590361   -0.6341152     0.1570560   -0.6273963    -0.5513852    0.1081484 
   0.076996200    -0.3747340   -0.3304071     0.0259595   -0.6619878     0.0275389   -0.6533289    -0.4986364    0.2255197 
   0.078996100    -0.4077576   -0.2262698    -0.1140240   -0.6631660    -0.1084686   -0.6547422    -0.4225285    0.3186284 
   0.080996000    -0.4152866   -0.1108523    -0.2567170   -0.6351719    -0.2470552   -0.6288066    -0.3330393    0.3840573 
   0.082995900    -0.3926462    0.0091841    -0.3953452   -0.5745182    -0.3830705   -0.5723008    -0.2403920    0.4219304 
   0.084995800    -0.3366520    0.1238056    -0.5205361   -0.4810021    -0.5084795   -0.4838625    -0.1534708    0.4357872 
   0.086995700    -0.2484480    0.2220645    -0.6247116   -0.3567219    -0.6146506   -0.3637821    -0.0773833    0.4325973 
   0.088995600    -0.1339310    0.2932202    -0.6976489   -0.2069299    -0.6906881   -0.2164817    -0.0148950    0.4209178 
   0.090995500    -0.0027509    0.3282548    -0.7315618   -0.0406703    -0.7283219   -0.0506531     0.0364552    0.4080431 
   0.092995400     0.1319749    0.3243214    -0.7232112    0.1305977    -0.7219188    0.1215770     0.0829709    0.3987002 
   0.094995300     0.2567593    0.2825420    -0.6714935    0.2933410    -0.6713775    0.2856318     0.1317471    0.3927763 
   0.096995200     0.3617967    0.2097495    -0.5817974    0.4366423    -0.5817471    0.4299491     0.1885516    0.3857049 
   0.098995100     0.4393075    0.1157241    -0.4619422    0.5516152    -0.4622058    0.5443926     0.2557329    0.3700665 
   0.100995000     0.4888365    0.0070003    -0.3201534    0.6345099    -0.3224300    0.6257297     0.3323646    0.3377856 
   0.102994900     0.5080335   -0.1019046    -0.1689325    0.6789298    -0.1739446    0.6695870     0.4075723    0.2846950 
   0.104994800     0.5018631   -0.2065037    -0.0166871    0.6878151    -0.0247859    0.6794443     0.4753344    0.2078223 
   0.106994700     0.4739271   -0.3023215     0.1288204    0.6634158     0.1181816    0.6581146     0.5270530    0.1086274 
   0.108994600     0.4291995   -0.3873036     0.2619497    0.6107390     0.2493953    0.6091199     0.5542175   -0.0076582 
   0.110994500     0.3709737   -0.4589609     0.3774396    0.5337607     0.3648365    0.5364950     0.5514386   -0.1336726 
   0.112994400     0.3022967   -0.5168621     0.4719203    0.4376756     0.4612941    0.4442348     0.5159684   -0.2602901 
   0.114994300     0.2259547   -0.5605758     0.5435727    0.3275973     0.5355701    0.3368050     0.4473478   -0.3777199 
   0.116994200     0.1442412   -0.5895917     0.5906514    0.2086980     0.5863581    0.2191884     0.3490837   -0.4764836 
   0.118994100     0.0590024   -0.6039651     0.6136116    0.0857541     0.6124631    0.0959942     0.2267056   -0.5485460 
   0.120994000    -0.0269437   -0.6042779     0.6129649   -0.0362314     0.6143214   -0.0279715     0.0885148   -0.5879492 
   0.122993900    -0.1128896   -0.5888078     0.5898687   -0.1550362     0.5926225   -0.1477670    -0.0558040   -0.5910167 
   0.124993800    -0.1958951   -0.5582531     0.5461665   -0.2657747     0.5493816   -0.2599955    -0.1964380   -0.5574042 
   0.126993700    -0.2737490   -0.5124996     0.4834823   -0.3661488     0.4869508   -0.3609930    -0.3225877   -0.4900184 
   0.128993600    -0.3434913   -0.4516864     0.4036245   -0.4538930     0.4076322   -0.4486953    -0.4265085   -0.3940348 
   0.130993500    -0.4022909   -0.3776993     0.3094248   -0.5259125     0.3142663   -0.5209831    -0.5018638   -0.2769872 
   0.132993400    -0.4471373   -0.2911137     0.2026243   -0.5803801     0.2084755   -0.5759850    -0.5439671   -0.1482208 
   0.134993300    -0.4749149   -0.1946390     0.0858194   -0.6154147     0.0929481   -0.6114321    -0.5522045   -0.0174396 
   0.136993200    -0.4826762   -0.0913105    -0.0383943   -0.6285094    -0.0294750   -0.6262360    -0.5289594    0.1066157 
   0.138993100    -0.4676103    0.0146117    -0.1662424   -0.6176862    -0.1563919   -0.6175396    -0.4785106    0.2153925 
   0.140993000    -0.4284075    0.1170215    -0.2936647   -0.5806873    -0.2836514   -0.5834996    -0.4078505    0.3033621 
   0.142992900    -0.3656517    0.2103360    -0.4150204   -0.5167188    -0.4059250   -0.5222140    -0.3242282    0.3679611 
   0.144992800    -0.2812019    0.2878071    -0.5242522   -0.4255486    -0.5170739   -0.4333730    -0.2363012    0.4082535 
   0.146992700    -0.1790912    0.3426850    -0.6140691   -0.3088762    -0.6091263   -0.3177330    -0.1505647    0.4278294 
   0.148992600    -0.0658100    0.3709333    -0.6773851   -0.1704380    -0.6749164   -0.1796748    -0.0716247    0.4309160 
   0.150992500     0.0500860    0.3692177    -0.7077044   -0.0170457    -0.7066277   -0.0260114    -0.0013639    0.4234027 
   0.152992400     0.1611037    0.3396580    -0.7012384    0.1426560    -0.7013929    0.1340323     0.0613450    0.4096419 
   0.154992300     0.2585808    0.2844929    -0.6561360    0.2984396    -0.6573560    0.2895462     0.1188729    0.3922702 
   0.156992200     0.3374594    0.2084534    -0.5742276    0.4400241    -0.5768853    0.4305560     0.1749914    0.3717978 
   0.158992100     0.3940973    0.1191175    -0.4609625    0.5579394    -0.4655353    0.5481718     0.2318987    0.3460671 
   0.160992000     0.4263831    0.0224592    -0.3236266    0.6449456    -0.3312883    0.6355140     0.2903372    0.3115998 
   0.162991900     0.4353262   -0.0753983    -0.1712283    0.6969211    -0.1826707    0.6889253     0.3482100    0.2648811 
   0.164991800     0.4229143   -0.1691811    -0.0138936    0.7120188    -0.0276335    0.7073438     0.4010398    0.2030600 
   0.166991700     0.3917651   -0.2543468     0.1398703    0.6914902     0.1248554    0.6915137     0.4434653    0.1258093 
   0.168991600     0.3448875   -0.3290493     0.2826172    0.6386054     0.2676134    0.6435090     0.4696148    0.0348736 
   0.170991500     0.2856266   -0.3903222     0.4072132    0.5580595     0.3948312    0.5670872     0.4745868   -0.0650406 
   0.172991400     0.2169247   -0.4374975     0.5097834    0.4552477     0.5009903    0.4673393     0.4543371   -0.1680750 
   0.174991300     0.1420455   -0.4691624     0.5869941    0.3364089     0.5825818    0.3497119     0.4080481   -0.2666643 
   0.176991200     0.0636168   -0.4855992     0.6375712    0.2072292     0.6370184    0.2201126     0.3365910   -0.3528482 
   0.178991100    -0.0159260   -0.4862657     0.6611040    0.0731585     0.6638502    0.0842791     0.2439531   -0.4198247 
   0.180991000    -0.0932204   -0.4721043     0.6588169   -0.0607446     0.6635423   -0.0514742     0.1357951   -0.4615914 
   0.182990900    -0.1664809   -0.4425386     0.6310350   -0.1904503     0.6367521   -0.1828415     0.0199791   -0.4738396 
   0.184990800    -0.2321318   -0.3992294     0.5802798   -0.3112236     0.5859793   -0.3056902    -0.0952412   -0.4559013 
   0.186990700    -0.2880356   -0.3431375     0.5079796   -0.4203995     0.5136105   -0.4160646    -0.2006015   -0.4086654 
   0.188990600    -0.3241424   -0.2851821     0.4314677   -0.5014005     0.4349168   -0.5003330    -0.2799275   -0.3442577 
   0.190990500    -0.3596935   -0.2026932     0.3101503   -0.5894987     0.3168064   -0.5868654    -0.3519208   -0.2467734 
   0.192990400    -0.3726446   -0.1212093     0.1854700   -0.6464264     0.1932503   -0.6443744    -0.3887858   -0.1440452 
   0.194990300    -0.3671380   -0.0398673     0.0523013   -0.6783884     0.0606905   -0.6778265    -0.3964161   -0.0409630 
   0.196990200    -0.3433859    0.0383882    -0.0878560   -0.6841460    -0.0787125   -0.6853551    -0.3769842    0.0554229 
   0.198990100    -0.3021964    0.1090948    -0.2299727   -0.6614917    -0.2208926   -0.6646445    -0.3349543    0.1376949 
   0.200990000    -0.2452964    0.1682552    -0.3688171   -0.6085837    -0.3602789   -0.6138615    -0.2772027    0.2010584 
   0.202989900    -0.1764624    0.2118278    -0.4971574   -0.5251272    -0.4899337   -0.5321673    -0.2108047    0.2430200 
   0.204989800    -0.0999452    0.2367160    -0.6073962   -0.4125753    -0.6020647   -0.4209353    -0.1434846    0.2639915 
   0.206989700    -0.0213869    0.2418835    -0.6922873   -0.2749989    -0.6884196   -0.2841850    -0.0814808    0.2671859 
   0.208989600     0.0536354    0.2270402    -0.7449329   -0.1176681    -0.7422954   -0.1282310    -0.0288138    0.2574445 
   0.210989500     0.1202315    0.1945932    -0.7600028    0.0501627    -0.7594606    0.0389712     0.0128830    0.2402589 
   0.212989400     0.1738960    0.1483441    -0.7353974    0.2190590    -0.7369208    0.2078078     0.0446531    0.2204853 
   0.214989300     0.2116821    0.0930705    -0.6716870    0.3787546    -0.6755496    0.3675824     0.0686355    0.2018361 
   0.216989200     0.2329261    0.0335230    -0.5725771    0.5194537    -0.5798155    0.5088804     0.0886498    0.1856222 
   0.218989100     0.2379226   -0.0249644    -0.4442632    0.6336747    -0.4548719    0.6245375     0.1078609    0.1712568 
   0.220989000     0.2286751   -0.0788678    -0.2940364    0.7154207    -0.3075610    0.7092187     0.1281666    0.1563876 
   0.222988900     0.2080709   -0.1248562    -0.1305589    0.7613025    -0.1455424    0.7594025     0.1497623    0.1382623 
   0.224988800     0.1792072   -0.1607496     0.0377056    0.7703581     0.0231705    0.7726908     0.1712095    0.1144248 
   0.226988700     0.1454441   -0.1858437     0.2027936    0.7427646     0.1899715    0.7493789     0.1893213    0.0837440 
   0.228988600     0.1104582   -0.2003113     0.3572448    0.6810929     0.3471330    0.6906629     0.2004870    0.0464919 
   0.230988500     0.0766511   -0.2046726     0.4945462    0.5884274     0.4878748    0.5998382     0.2015241    0.0047752 
   0.232988400     0.0463009   -0.2002362     0.6088264    0.4688616     0.6057296    0.4808344     0.1900181   -0.0377889 
   0.234988300     0.0215692   -0.1895193     0.6956161    0.3277720     0.6951611    0.3388880     0.1651257   -0.0757323 
   0.236988200     0.0033316   -0.1742215     0.7504699    0.1711753     0.7523117    0.1810925     0.1284703   -0.1041554 
   0.238988100    -0.0080362   -0.1564344     0.7713014    0.0060199     0.7739998    0.0144983     0.0838635   -0.1183354 
   0.240988000    -0.0120631   -0.1385737     0.7557364   -0.1607626     0.7593586   -0.1527926     0.0370441   -0.1152592 
   0.242987900    -0.0095105   -0.1224192     0.7044909   -0.3208728     0.7095543   -0.3129178    -0.0049032   -0.0944366 
   0.244987800    -0.0014392   -0.1100322     0.6190189   -0.4672851     0.6260188   -0.4588546    -0.0348665   -0.0585422 
   0.246987700     0.0106988   -0.1026963     0.5026655   -0.5916845     0.5122612   -0.5844260    -0.0472095   -0.0133119 
   0.248987600     0.0252197   -0.1015099     0.3613442   -0.6875021     0.3729681   -0.6827366    -0.0391726    0.0336301 
   0.250987500     0.0398770   -0.1069177     0.2012264   -0.7496863     0.2143938   -0.7482154    -0.0108576    0.0739386 
   0.252987400     0.0527374   -0.1189292     0.0313035   -0.7741134     0.0448550   -0.7767658     0.0337172    0.0996855 
   0.254987300     0.0618598   -0.1371383    -0.1391899   -0.7595819    -0.1269212   -0.7661607     0.0879791    0.1050599 
   0.256987200     0.0648872   -0.1595330    -0.3014756   -0.7070104    -0.2916305   -0.7171697     0.1431979    0.0874434 
   0.258987100     0.0608505   -0.1847752    -0.4463374   -0.6199621    -0.4401983   -0.6320025     0.1903912    0.0477779 
   0.260987000     0.0485095   -0.2105243    -0.5667011   -0.5035606    -0.5642192   -0.5158806     0.2217243   -0.0097901 
   0.262986900     0.0279147   -0.2343690    -0.6568357   -0.3652752    -0.6577407   -0.3766228     0.2313953   -0.0783790 
   0.264986800    -0.0006027   -0.2539476    -0.7134389   -0.2130803    -0.7165597   -0.2222735     0.2164651   -0.1496685 
   0.266986700    -0.0361677   -0.2668660    -0.7354865   -0.0548950    -0.7395138   -0.0618081     0.1774301   -0.2146719 
   0.268986600    -0.0768372   -0.2710417    -0.7234876    0.1017160    -0.7277867    0.0960443     0.1178099   -0.2653965 
   0.270986500    -0.1200638   -0.2653878    -0.6797094    0.2497343    -0.6842211    0.2447549     0.0438926   -0.2956633 
   0.272986400    -0.1632697   -0.2484490    -0.6074970    0.3835934    -0.6122540    0.3787565    -0.0370298   -0.3022670 
   0.274986300    -0.2037636   -0.2203133    -0.5107024    0.4983461    -0.5166135    0.4936498    -0.1163301   -0.2848355 
   0.276986200    -0.2385714   -0.1815016    -0.3939382    0.5906407    -0.4013399    0.5865822    -0.1867770   -0.2452752 
   0.278986100    -0.2647365   -0.1326759    -0.2617498    0.6571693    -0.2704333    0.6543167    -0.2425760   -0.1886932 
   0.280986000    -0.2796549   -0.0766719    -0.1192561    0.6958238    -0.1284044    0.6949610    -0.2800892   -0.1210136 
   0.282985900    -0.2814153   -0.0155397     0.0283264    0.7053722     0.0192888    0.7062479    -0.2979324   -0.0483872 
   0.284985800    -0.2678699    0.0471395     0.1757662    0.6844016     0.1673964    0.6870953    -0.2969339    0.0230747 
   0.286985700    -0.2388064    0.1071109     0.3169970    0.6330411     0.3096576    0.6375791    -0.2802472    0.0883006 
   0.288985600    -0.1945395    0.1604144     0.4458048    0.5523661     0.4391027    0.5586436    -0.2515271    0.1446087 
   0.290985500    -0.1364665    0.2034147     0.5558946    0.4444948     0.5496955    0.4525995    -0.2148324    0.1908208 
   0.292985400    -0.0675516    0.2318099     0.6405956    0.3133236     0.6356735    0.3236171    -0.1739706    0.2272040 
   0.294985300     0.0089290    0.2425971     0.6940785    0.1647705     0.6912356    0.1771695    -0.1314867    0.2558379 
   0.296985200     0.0883673    0.2341400     0.7120717    0.0068870     0.7124304    0.0203323    -0.0881022    0.2789558 
   0.298985100     0.1651435    0.2053429     0.6926128   -0.1513194     0.6966352   -0.1382930    -0.0427759    0.2983349 
   0.300985000     0.2338603    0.1572219     0.6362593   -0.3001789     0.6444599   -0.2890195     0.0066202    0.3144533 
   0.302984900     0.2892631    0.0926945     0.5470045   -0.4303431     0.5585962   -0.4220960     0.0618533    0.3260696 
   0.304984800     0.3274709    0.0155604     0.4309706   -0.5339373     0.4449626   -0.5300976     0.1246413    0.3300165 
   0.306984700     0.3459852   -0.0688940     0.2969064   -0.6055777     0.3113126   -0.6070838     0.1945998    0.3219242 
   0.308984600     0.3439596   -0.1552501     0.1542650   -0.6429206     0.1665644   -0.6490906     0.2690445    0.2973174 
   0.310984500     0.3220335   -0.2384231     0.0117490   -0.6467533     0.0206293   -0.6561666     0.3428944    0.2529423 
   0.312984400     0.2821378   -0.3139897    -0.1229574   -0.6197413    -0.1182624   -0.6304926     0.4097635    0.1873081 
   0.314984300     0.2268261   -0.3783491    -0.2435310   -0.5663692    -0.2427699   -0.5766273     0.4623286    0.1014822 
