! Created with skrf 1.9.0 (http://scikit-rf.org).
# Hz S RI R 50.0 
!freq ReS11 ImS11 ReS21 ImS21 ReS12 ImS12 ReS22 ImS22
1000000.0 1.046258 -0.06949846 1.009735e-05 -3.490463e-06 7.804665e-08 -1.753343e-06 0.799903 -0.5594703
20999000.0 0.6344848 -0.6760119 0.0003053468 3.229403e-05 0.0002984689 3.769506e-05 -0.3765172 -0.8121533
40998000.0 -0.4810756 -0.6259516 -0.0002291195 -0.0008239947 -0.0002264368 -0.0008598411 -0.2440504 0.8505676
60997000.0 0.7979902 0.374332 -0.0001646274 0.001842994 -0.000100421 0.001836442 0.8019398 -0.3864883
80996000.0 0.2921188 -0.868966 0.001307033 -0.0008753696 0.00135175 -0.0008732387 -0.846413 -0.1894328
100995000.0 -0.7535406 -0.3448267 -0.001505204 -0.001405906 -0.001644164 -0.001405783 0.3562045 0.7721831
120994000.0 0.4053574 0.7448454 8.397396e-05 0.003454891 9.126741e-05 0.003376448 0.3510474 -0.7406596
140993000.0 0.4764605 -0.7677106 0.002186833 -0.001999609 0.002309143 -0.002116517 -0.7511389 0.30168
160992000.0 -0.6993032 -0.4669772 -0.002921233 -0.001691471 -0.003015775 -0.001518433 0.719614 0.3795477
180991000.0 -0.1020526 0.8285213 0.0003482022 0.004581769 0.0002398928 0.004583444 -0.2139189 -0.7630839
200990000.0 0.7881933 -0.4585333 0.003488761 -0.00327523 0.003513309 -0.00358771 -0.3993943 0.7057443
220989000.0 -0.5271782 -0.668816 -0.004814032 -0.001571466 -0.004722981 -0.001410501 0.8377194 -0.1366581
240988000.0 -0.3879935 0.6909256 0.001335963 0.005854362 0.001305973 0.006053995 -0.6968485 -0.4747202
260987000.0 0.8684281 -0.1584246 0.003874309 -0.005381539 0.003630464 -0.005593795 0.1859703 0.8354268
280986000.0 -0.2996629 -0.8207847 -0.00580869 -0.0003475875 -0.005800824 -0.0003495292 0.5655689 -0.690078
300985000.0 -0.6850218 0.3961125 0.002135444 0.006111301 0.002286561 0.006205378 -0.8566896 0.06196967
320984000.0 0.6821117 0.1853523 0.003258401 -0.006344499 0.003147116 -0.006402599 0.5998355 0.5824943
340983000.0 0.07703775 -0.7141308 -0.006023989 -0.0004481901 -0.006119358 -0.0003479111 0.1095275 -0.8301072
360982000.0 -0.7970646 0.131778 0.002737207 0.005949115 0.002873641 0.005911138 -0.6486341 0.4833786
380981000.0 0.3530993 0.7134567 0.004862999 -0.005897345 0.004912181 -0.006129689 0.7331988 0.3135047
400980000.0 0.4637575 -0.6868256 -0.007662883 -0.0005254147 -0.007633448 -0.0003877604 -0.1588276 -0.7515578
420979000.0 -0.7538103 -0.2686613 0.002707292 0.007274689 0.002680556 0.00744519 -0.4210025 0.6167709
440978000.0 -0.03364519 0.7912091 0.006006659 -0.007063989 0.005790803 -0.007549122 0.7466899 -0.1130537
460977000.0 0.7681602 -0.3336277 -0.009753361 -0.0004228634 -0.00949958 -0.0004334084 -0.5742851 -0.44643
480976000.0 -0.5307649 -0.6133714 0.004312759 0.008660941 0.004493845 0.009131208 0.1215947 0.7322712
500975000.0 -0.3916695 0.647873 0.005949454 -0.009338571 0.005305085 -0.009537738 0.4698805 -0.63039
520974000.0 0.7158194 0.005949754 -0.01077408 0.001386552 -0.01088785 0.0009848664 -0.7711048 0.125638
540973000.0 -0.1822916 -0.7375596 0.005982144 0.008503068 0.006634494 0.008554521 0.6495379 0.4743297
560972000.0 -0.6757179 0.3772477 0.004800325 -0.009854653 0.00452681 -0.009654105 -0.07115495 -0.8329329
580971000.0 0.6156811 0.4304515 -0.0115604 0.002431978 -0.01208286 0.002367917 -0.5464967 0.6052444
600970000.0 0.1155838 -0.7774304 0.006899437 0.006792262 0.007257199 0.00645112 0.8005933 0.03447082
620969000.0 -0.7775974 0.06747865 0.004281136 -0.008544572 0.004293404 -0.008466749 -0.4031743 -0.6903329
640968000.0 0.2653356 0.723983 -0.01120159 0.001197049 -0.01155921 0.001403106 -0.3373774 0.6979764
660967000.0 0.5650367 -0.5459681 0.005939397 0.007997727 0.006153169 0.007838431 0.7295341 -0.1787934
680966000.0 -0.6760032 -0.3588584 0.006105705 -0.009521062 0.006015109 -0.009629506 -0.5785081 -0.4402542
700965000.0 -0.1444715 0.7232695 -0.01256489 0.001209578 -0.01259871 0.001373684 -0.001709761 0.7118466
720964000.0 0.7261919 -0.2101603 0.006111653 0.009956803 0.00638775 0.01008469 0.5454237 -0.4661291
740963000.0 -0.473244 -0.5895109 0.006405081 -0.01346513 0.005750273 -0.0135276 -0.6737144 -0.008520865
760962000.0 -0.4835709 0.5517232 -0.01371854 0.002945322 -0.01414304 0.002685451 0.4761941 0.4758457
780961000.0 0.67685 0.1929683 0.008357722 0.01130937 0.00921083 0.0110704 -0.0410075 -0.7337025
800960000.0 -0.09698293 -0.7501433 0.003765569 -0.01521289 0.00391193 -0.01465487 -0.4938774 0.5285228
820959000.0 -0.7022723 0.2817893 -0.01292472 0.004050778 -0.01371861 0.004448645 0.7362663 -0.05203533
840958000.0 0.472648 0.5452994 0.0102789 0.0102933 0.01065091 0.009336849 -0.5448278 -0.5702123
860957000.0 0.281648 -0.684859 0.002133212 -0.01393354 0.002861805 -0.01392063 -0.1194351 0.7610199
880956000.0 -0.7418634 -0.07679134 -0.01239791 0.004472971 -0.01265705 0.005490323 0.5968001 -0.4370522
900955000.0 0.09091341 0.723968 0.009137842 0.008242194 0.008921172 0.007826363 -0.7178145 -0.2306449
920954000.0 0.6333285 -0.3639192 0.004170924 -0.01226192 0.004632268 -0.01263364 0.1368036 0.7335513
940953000.0 -0.5870279 -0.4163586 -0.01350158 0.003305318 -0.01339382 0.004114936 0.4826115 -0.4828119
960952000.0 -0.2149233 0.6717554 0.008576795 0.00999736 0.008467243 0.00984938 -0.6606992 -0.07676516
980951000.0 0.7101088 -0.000406128 0.005814281 -0.01383757 0.005773696 -0.01442407 0.3694368 0.5355766
1000950000.0 -0.1995918 -0.7055486 -0.01504291 0.003228573 -0.01499679 0.003722767 0.1144348 -0.5996372
1020949000.0 -0.597298 0.3952245 0.00986862 0.01266499 0.01021047 0.01254995 -0.5367469 0.3520467
1040948000.0 0.5842963 0.3613438 0.004846333 -0.01766834 0.00471224 -0.01778693 0.6024013 0.1443112
1060947000.0 0.07717588 -0.7193737 -0.01607371 0.005165285 -0.016379 0.005852069 -0.3690239 -0.5167547
1080946000.0 -0.7259037 0.1308858 0.01380119 0.01208177 0.01377051 0.01132307 -0.0876596 0.6800711
1100945000.0 0.299173 0.6455019 0.001396179 -0.01665278 0.001839915 -0.01713138 0.5440514 -0.3932783
1120944000.0 0.4431792 -0.5416962 -0.01565823 0.005510965 -0.01557636 0.006849091 -0.7023249 -0.1492661
1140943000.0 -0.6797894 -0.1645575 0.01455972 0.00940223 0.01377307 0.009243546 0.2751653 0.6997775
1160942000.0 0.0399315 0.702016 0.001494889 -0.01437361 0.001480527 -0.0154081 0.3926192 -0.5981004
1180941000.0 0.6862347 -0.2205876 -0.01533171 0.004641752 -0.01448559 0.00575422 -0.6979456 0.1071391
1200940000.0 -0.3790472 -0.6063589 0.01228989 0.01012764 0.01167502 0.01064509 0.5195478 0.4899185
1220939000.0 -0.4569995 0.5043712 0.004150969 -0.015634 0.003567259 -0.01682135 0.07393716 -0.6930837
1240938000.0 0.6316767 0.2087665 -0.01669466 0.004972589 -0.01576155 0.005229667 -0.5826039 0.3337111
1260937000.0 -0.06488229 -0.697425 0.01226315 0.01306002 0.01228245 0.01390429 0.5871823 0.2485066
1280936000.0 -0.6619396 0.2560161 0.004546337 -0.02057499 0.003080775 -0.0210823 -0.2527297 -0.5749298
1300935000.0 0.4400234 0.5079976 -0.01744413 0.00722904 -0.01722358 0.007220112 -0.2023598 0.57752
1320934000.0 0.2476902 -0.6286364 0.01692954 0.01418766 0.01758917 0.01427465 0.4929726 -0.3188145
1340933000.0 -0.7017192 -0.01876123 -0.00259105 -0.01944845 -0.00298251 -0.01951188 -0.63723 -0.1091883
1360932000.0 0.1461049 0.6784949 -0.0146781 0.00610469 -0.01459009 0.006539368 0.2721265 0.6068753
1380931000.0 0.5838249 -0.3590312 0.01730411 0.01359982 0.0171489 0.01360407 0.2491242 -0.5817868
1400930000.0 -0.5519329 -0.3909676 -0.001761837 -0.0173713 -0.002480586 -0.01795811 -0.6377276 0.2253377
1420929000.0 -0.196216 0.6319568 -0.01566117 0.005097616 -0.01501155 0.005712344 0.5496955 0.4426742
1440928000.0 0.6753531 -0.006885373 0.01646874 0.01245731 0.01641793 0.01326371 0.02192636 -0.673381
1460927000.0 -0.207991 -0.6602918 0.001610701 -0.01783705 0.0003089302 -0.01843952 -0.5384624 0.4069766
1480926000.0 -0.5553448 0.3673528 -0.01939715 0.006070192 -0.0183403 0.005766125 0.6442789 0.1784609
1500925000.0 0.5299929 0.3480824 0.01736219 0.01262205 0.01850375 0.0136632 -0.3095166 -0.557555
1520924000.0 0.09164544 -0.6572178 0.001828007 -0.02119949 0.0001802258 -0.02073981 -0.22502 0.6027407
1540923000.0 -0.6831734 0.09959293 -0.01866156 0.009755729 -0.01888167 0.008765278 0.5747593 -0.1829022
1560922000.0 0.2588218 0.6168601 0.01626975 0.01320019 0.01799075 0.01312006 -0.5283152 -0.2548504
1580921000.0 0.4575747 -0.4580206 0.001152968 -0.02600922 0.0002709649 -0.02474459 0.1973951 0.5656294
1600920000.0 -0.6128169 -0.2304095 -0.01682229 0.01314022 -0.01755173 0.01357128 0.1880242 -0.5145279
1620919000.0 -0.01937104 0.6591625 0.01729764 0.01090541 0.0180341 0.009965563 -0.5358837 0.292865
1640918000.0 0.6348548 -0.1893646 -0.001363292 -0.02283335 -0.001344367 -0.02258214 0.5578701 0.3408886
1660917000.0 -0.4004407 -0.5203151 -0.0159073 0.01078153 -0.01600065 0.01144135 -0.03998315 -0.6025552
1680916000.0 -0.3346141 0.5404115 0.01629801 0.01145064 0.01657505 0.01107962 -0.4433189 0.4537768
1700915000.0 0.6211732 0.124495 0.0008225168 -0.02194843 0.0004807927 -0.02216699 0.6554185 0.1562393
1720914000.0 -0.0793542 -0.6518044 -0.01821397 0.009410882 -0.01808156 0.009553874 -0.2444586 -0.5963768
1740913000.0 -0.6138532 0.2428195 0.01656827 0.01384302 0.01735837 0.0140587 -0.3060064 0.5820561
1760912000.0 0.3860501 0.4998503 0.004023725 -0.02557048 0.002728024 -0.02515768 0.6371443 -0.1055978
1780911000.0 0.2975878 -0.5346904 -0.02299995 0.01231665 -0.02363085 0.01192067 -0.5242391 -0.3376522
1800910000.0 -0.6271913 -0.06998506 0.02175857 0.01474966 0.02369091 0.01362175 0.1035766 0.6324233
1820909000.0 0.1386148 0.6226483 -0.0006378751 -0.02996617 -0.0006608311 -0.02835496 0.3487795 -0.4566531
1840908000.0 0.4913569 -0.3699275 -0.02219845 0.0176202 -0.02378561 0.01902783 -0.557136 0.1646751
1860907000.0 -0.5446259 -0.2799127 0.02628473 0.009234253 0.02604243 0.006966656 0.5072308 0.3190508
1880906000.0 -0.1112941 0.618768 -0.006703662 -0.02423724 -0.005674242 -0.02455217 -0.1839031 -0.5032372
1900905000.0 0.6347063 -0.04900058 -0.01748119 0.01510908 -0.01737759 0.01706196 -0.2610297 0.5516024
1920904000.0 -0.2343685 -0.5873671 0.02191487 0.008214229 0.02097286 0.007328251 0.6385808 0.004232958
1940903000.0 -0.447744 0.4034421 -0.002484975 -0.02233887 -0.002090457 -0.02319628 -0.3329754 -0.4718987
1960902000.0 0.5382735 0.2073799 -0.02053758 0.01351273 -0.01977737 0.0149167 -0.1635054 0.5848551
1980901000.0 -0.04686003 -0.613834 0.02225058 0.009053921 0.02161733 0.009174146 0.6046391 -0.16614
2000900000.0 -0.6223801 0.1776244 -4.07251e-05 -0.02234071 -0.0003532343 -0.02313609 -0.48412 -0.357457
2020899000.0 0.2705782 0.551504 -0.02512512 0.01076709 -0.02466697 0.01140136 -0.01927703 0.6328107
2040898000.0 0.3498663 -0.446642 0.02807062 0.01471975 0.02844103 0.01458517 0.4714807 -0.3537965
2060897000.0 -0.5847847 -0.09509552 -0.003176437 -0.02976632 -0.003569706 -0.02970634 -0.5761158 0.03710735
2080896000.0 0.0808294 0.6089588 -0.02629563 0.01817742 -0.02674245 0.0191393 0.4203592 0.4802878
2100895000.0 0.5382041 -0.2602632 0.03314511 0.0103946 0.03279425 0.009008125 0.07517827 -0.536218
2120894000.0 -0.4564971 -0.3737693 -0.00951812 -0.03014426 -0.009024448 -0.03100727 -0.3302554 0.4391249
2140893000.0 -0.1849245 0.5592942 -0.02188621 0.02417751 -0.02061858 0.02633795 0.5903972 -0.04746416
2160892000.0 0.5822264 -0.01792039 0.03065167 0.001428658 0.02931359 0.001870138 -0.4163982 -0.3111536
2180891000.0 -0.2519038 -0.5400554 -0.01021065 -0.02344869 -0.01118772 -0.02496433 0.05880468 0.5907487
2200890000.0 -0.4239288 0.4273504 -0.01723459 0.02004417 -0.01529207 0.02054604 0.5182966 -0.3213564
2220889000.0 0.5153501 0.2658671 0.0248835 0.004087043 0.02445731 0.00525227 -0.5146019 -0.1990352
2240888000.0 0.06123885 -0.5747495 -0.005765255 -0.02356827 -0.007288078 -0.02471911 0.1409438 0.5837116
2260887000.0 -0.5832289 0.1371783 -0.01969033 0.01677058 -0.01824035 0.01649552 0.4371911 -0.3955324
2280886000.0 0.2890524 0.5191867 0.02573085 0.01063096 0.0261685 0.01192155 -0.5569389 -0.06290155
2300885000.0 0.3457011 -0.4465808 -0.004565654 -0.03050051 -0.006804766 -0.03068352 0.2672868 0.5656812
2320884000.0 -0.5583288 -0.117664 -0.0246553 0.01969937 -0.02400333 0.01895341 0.2961271 -0.4783196
2340883000.0 0.04863597 0.5871938 0.03675815 0.0132995 0.03839872 0.01340257 -0.4482309 0.2772134
2360882000.0 0.5259667 -0.2339622 -0.01695033 -0.03277558 -0.01758542 -0.03197411 0.5971759 0.1368332
2380881000.0 -0.45048 -0.3373274 -0.02128163 0.02541448 -0.02122506 0.02580371 -0.2736738 -0.4622035
2400880000.0 -0.1448861 0.5584729 0.03998359 0.0002810365 0.04006474 -0.0002777341 -0.08941135 0.5561901
2420879000.0 0.5779396 -0.01929013 -0.01764577 -0.02405238 -0.01836472 -0.02421612 0.5132574 -0.2775875
2440878000.0 -0.2292711 -0.5334478 -0.01765268 0.02636387 -0.01665556 0.02648368 -0.5075921 -0.07427244
2460877000.0 -0.4498917 0.3918036 0.03048939 -0.00476128 0.03137833 -0.004256651 0.3313819 0.4787658
2480876000.0 0.4747842 0.3352657 -0.01266829 -0.02122743 -0.01408659 -0.02107914 0.2584742 -0.5214005
2500875000.0 0.1070183 -0.5398077 -0.01654681 0.02357004 -0.0157457 0.02280504 -0.5315759 0.1258808
2520874000.0 -0.5577945 0.1435639 0.02658183 0.0001153486 0.02805062 0.0002003748 0.4117788 0.4240278
2540873000.0 0.282985 0.5262603 -0.008643692 -0.02435049 -0.01015566 -0.02370807 0.1632194 -0.5308434
2560872000.0 0.4013055 -0.4095148 -0.01874986 0.02303177 -0.01898383 0.02206393 -0.4729089 0.2441235
2580871000.0 -0.5367269 -0.1736069 0.02893398 0.005702836 0.03090698 0.005114438 0.5131443 0.3031327
2600870000.0 0.01660668 0.5779467 -0.01064483 -0.03247898 -0.01167186 -0.03068641 -0.03145955 -0.5338188
2620869000.0 0.5393339 -0.1932974 -0.02038711 0.02717867 -0.02148965 0.02725066 -0.2669788 0.436347
2640868000.0 -0.4064598 -0.4068133 0.03919405 0.004498345 0.04022429 0.002029445 0.5548968 -0.1228092
2660867000.0 -0.2451526 0.5267952 -0.02376169 -0.02846623 -0.0231128 -0.02784311 -0.4587339 -0.1873041
2680866000.0 0.5519194 0.06986652 -0.01479185 0.02845292 -0.01471954 0.02955899 0.2431331 0.5143443
2700865000.0 -0.1900374 -0.5219494 0.03658418 -0.004831164 0.0357893 -0.006019253 0.3370245 -0.4783889
2720864000.0 -0.4457132 0.3910023 -0.02014698 -0.02246693 -0.02031393 -0.02246167 -0.486804 0.1188249
2740863000.0 0.467462 0.3640461 -0.01288257 0.0288802 -0.01233669 0.02918877 0.4803769 0.2893766
2760862000.0 0.1973706 -0.5285875 0.0283482 -0.006817424 0.02874781 -0.007408164 -0.05606814 -0.5362294
2780861000.0 -0.5687874 0.03137083 -0.01466398 -0.02162595 -0.01526999 -0.02107706 -0.3436845 0.4026156
2800860000.0 0.1798997 0.5591771 -0.01333179 0.02612807 -0.01350397 0.02604783 0.5697144 0.1554417
2820859000.0 0.4767866 -0.3186131 0.02683998 -0.0006070037 0.02755153 -0.001437885 -0.1172387 -0.5078786
2840858000.0 -0.4889432 -0.2694522 -0.01303026 -0.02874904 -0.01322787 -0.02777134 -0.2312203 0.433023
2860857000.0 -0.06763977 0.5627156 -0.01394605 0.02938891 -0.01491622 0.03014765 0.561322 -0.05526011
2880856000.0 0.5579771 -0.09499754 0.03053918 0.0004964572 0.03086371 -0.001012898 -0.3458376 -0.352053
2900855000.0 -0.3231473 -0.4568336 -0.01884543 -0.03036948 -0.01779583 -0.03006377 0.05725314 0.5047672
2920854000.0 -0.2987515 0.4913705 -0.01325237 0.03137614 -0.01339603 0.033388 0.4134693 -0.3793564
2940853000.0 0.5474327 0.170494 0.0345743 -0.004707247 0.03338326 -0.005997168 -0.4985386 0.009597645
2960852000.0 -0.03162959 -0.5541527 -0.01946577 -0.02416127 -0.01930469 -0.02502775 0.4059861 0.374884
2980851000.0 -0.5024478 0.265056 -0.014313 0.03253047 -0.01297886 0.03436314 0.07315226 -0.5569436
3000850000.0 0.2665564 0.5274037 0.03175784 -0.004937591 0.03108489 -0.003657835 -0.4746758 0.2590331
3020849000.0 0.3125157 -0.474032 -0.01488084 -0.02299359 -0.01543695 -0.02349953 0.5576615 0.1479753
3040848000.0 -0.5529979 -0.08139813 -0.01564758 0.03767689 -0.0139354 0.03825685 -0.1956002 -0.4743568
3060847000.0 0.07423478 0.572403 0.02567501 -0.0111127 0.02566004 -0.01138767 -0.07403877 0.4942872
3080846000.0 0.5241244 -0.2040323 -0.01377981 -0.02458335 -0.01431448 -0.02430039 0.5195978 -0.2357712
3100845000.0 -0.4267559 -0.3404022 -0.009523814 0.03758051 -0.009142459 0.03771047 -0.4192999 -0.2907353
3120844000.0 -0.1554466 0.5583312 0.0242645 -0.00674253 0.02417448 -0.007253694 0.05460175 0.4983707
3140843000.0 0.5728114 0.07553739 -0.01296452 -0.02860763 -0.0129447 -0.02818494 0.4170857 -0.3222815
3160842000.0 -0.126336 -0.5204546 -0.01103777 0.03699899 -0.01075061 0.03837182 -0.4468292 -0.02698293
3180841000.0 -0.375547 0.4058285 0.02987078 -0.006669309 0.0292128 -0.007320425 0.3658521 0.3433844
3200840000.0 0.5135441 0.2671039 -0.02308805 -0.02626989 -0.0226706 -0.02737527 0.07578364 -0.5193819
3220839000.0 0.1307733 -0.5439062 -0.007763932 0.03096432 -0.006379361 0.03205433 -0.363074 0.3284403
3240838000.0 -0.5402194 0.112338 0.03035467 -0.006082326 0.02928821 -0.005873458 0.547958 0.1393396
3260837000.0 0.2744623 0.5047287 -0.02047075 -0.0233921 -0.02118905 -0.02483881 -0.1309861 -0.5308696
3280836000.0 0.4290297 -0.3708521 -0.01290377 0.0305357 -0.01109863 0.0310377 -0.2245983 0.449411
3300835000.0 -0.4988163 -0.211601 0.03448366 -0.007711283 0.0343143 -0.006518818 0.5701727 -0.07504771
3320834000.0 0.008921367 0.562479 -0.02186867 -0.02469796 -0.02356916 -0.0253616 -0.3363361 -0.3916847
3340833000.0 0.567968 -0.1043967 -0.01227956 0.03485506 -0.01113149 0.03433577 0.05844375 0.4618046
3360832000.0 -0.2482037 -0.4983748 0.03474079 -0.01052098 0.03567621 -0.01048633 0.3319869 -0.399086
3380831000.0 -0.3105771 0.4477561 -0.02715868 -0.0243763 -0.02816909 -0.0238836 -0.4443261 0.05777176
3400830000.0 0.5399144 0.1517374 -0.004397947 0.03317298 -0.004268919 0.03344032 0.3853706 0.2914611
3420829000.0 -0.01007735 -0.5488817 0.03139357 -0.009017644 0.03162871 -0.009766946 0.05653568 -0.5101804
3440828000.0 -0.4614596 0.2723538 -0.02798492 -0.02205886 -0.02845516 -0.02207709 -0.3565579 0.2739889
3460827000.0 0.4462911 0.3544756 -0.004050635 0.02953462 -0.003285712 0.03008144 0.4819632 0.104085
3480826000.0 0.2799438 -0.5051627 0.03169069 -0.007993241 0.03116439 -0.008100557 -0.2084576 -0.4402882
3500825000.0 -0.5368847 -0.09689409 -0.0263344 -0.0196551 -0.0277611 -0.02030381 -0.08288126 0.4627119
3520824000.0 0.1281534 0.5332351 -0.006112463 0.02741857 -0.004560596 0.02735629 0.5185789 -0.2069852
3540823000.0 0.5087954 -0.2553564 0.0308173 -0.006190795 0.03067179 -0.005223934 -0.4044673 -0.3553821
3560822000.0 -0.389452 -0.3897518 -0.02223661 -0.0233994 -0.02438425 -0.02363493 0.01450416 0.503266
3580821000.0 -0.1687786 0.5174609 -0.01096197 0.03039109 -0.00951001 0.02950746 0.4796374 -0.3097798
3600820000.0 0.5632796 0.0426687 0.03407705 -0.005494558 0.03534243 -0.00438663 -0.4725275 -0.2330365
3620819000.0 -0.09382661 -0.5358008 -0.02413101 -0.03183471 -0.02674366 -0.03097286 0.1825604 0.4306647
3640818000.0 -0.3895023 0.3523768 -0.007601878 0.0439212 -0.008200545 0.04248672 0.1773161 -0.4581603
3660817000.0 0.502194 0.2695649 0.03364867 -0.0145835 0.0349586 -0.01578835 -0.3278571 0.2571109
3680816000.0 0.2245272 -0.528147 -0.03114616 -0.02641258 -0.03166245 -0.02506285 0.4648559 -0.0102409
3700815000.0 -0.5182739 -0.02728065 0.001789409 0.03837388 0.001867459 0.03889399 -0.304728 -0.3573053
3720814000.0 0.2671275 0.4515622 0.02894861 -0.01413769 0.02874551 -0.01491129 0.002749381 0.4580963
3740813000.0 0.3859701 -0.4107575 -0.02885908 -0.02082734 -0.02907357 -0.02073859 0.4664374 -0.2493009
3760812000.0 -0.4816507 -0.2695977 -0.0008352443 0.03204805 -0.0002095211 0.03220243 -0.4051597 -0.2718104
3780811000.0 -0.05125507 0.5317767 0.02880201 -0.0104003 0.02901512 -0.0102766 0.1549333 0.4331607
3800810000.0 0.5341518 -0.1116817 -0.02622721 -0.02185168 -0.02779262 -0.02175338 0.3346494 -0.4306763
3820809000.0 -0.2463643 -0.4811653 -0.003893209 0.0312212 -0.0034793 0.03046632 -0.5037127 -0.07319329
3840808000.0 -0.3178802 0.4307973 0.02931288 -0.007517256 0.03058548 -0.007188077 0.2782818 0.4150383
3860807000.0 0.5286443 0.1769459 -0.02225092 -0.02631021 -0.02433407 -0.02513189 0.293431 -0.4828732
