! Created with skrf 1.9.0 (http://scikit-rf.org).
# Hz S RI R 50.0 
!freq ReS11 ImS11 ReS21 ImS21 ReS12 ImS12 ReS22 ImS22
1000000.0 1.124779 0.105889 4.65604e-06 -1.713171e-06 9.457871e-07 1.547274e-06 0.7999372 -0.5595259
20999000.0 -0.5064396 0.8583544 0.0003040334 3.713128e-05 0.0002931341 3.730512e-05 -0.3765727 -0.8117687
40998000.0 0.7051401 0.2931133 -0.0002281476 -0.0008271102 -0.0002214527 -0.0008548996 -0.2437825 0.8504279
60997000.0 -0.9026476 0.294115 -0.000164077 0.001840469 -0.0001044786 0.001831302 0.8017982 -0.3868616
80996000.0 0.5631997 0.7360047 0.001307372 -0.0008747599 0.001356037 -0.0008663933 -0.8468478 -0.1890009
100995000.0 0.4748466 -0.6162851 -0.001504032 -0.001406974 -0.001641335 -0.001406026 0.3566969 0.7724373
120994000.0 -0.8294498 0.3707262 8.202272e-05 0.003452647 8.450903e-05 0.003372811 0.3507795 -0.7412235
140993000.0 0.826697 0.3384462 0.002187461 -0.001996965 0.002307083 -0.002110802 -0.7511644 0.3025212
160992000.0 0.0498793 -0.7797912 -0.002921297 -0.001690147 -0.003010782 -0.001522747 0.720233 0.3789225
180991000.0 -0.7586439 0.4541866 0.0003492674 0.004579395 0.0002343498 0.004576193 -0.2147437 -0.7631133
200990000.0 0.8927416 0.1186058 0.003484081 -0.003273602 0.003511743 -0.0035808 -0.3989695 0.7059751
220989000.0 -0.2759025 -0.7412465 -0.004809067 -0.001567976 -0.004715914 -0.00141208 0.8373475 -0.1370741
240988000.0 -0.5339096 0.6420913 0.001340088 0.005845388 0.00130395 0.006042842 -0.6966556 -0.4734994
260987000.0 0.8271999 -0.230741 0.003861876 -0.005376129 0.003624498 -0.005580693 0.1871004 0.8340036
280986000.0 -0.5668461 -0.5901669 -0.005799991 -0.0003442877 -0.005785797 -0.0003538621 0.5635501 -0.6900992
300985000.0 -0.3898263 0.720951 0.002133596 0.006098124 0.002277229 0.006194254 -0.8556614 0.06305562
320984000.0 0.5718285 -0.3561575 0.003254168 -0.006334597 0.003148952 -0.006385904 0.5998459 0.5817084
340983000.0 -0.5929917 -0.3442834 -0.006019013 -0.0004471152 -0.006112437 -0.0003540334 0.1090347 -0.8296539
360982000.0 -0.1700241 0.8022409 0.002736965 0.005943831 0.002866538 0.00590626 -0.6476537 0.483564
380981000.0 0.6943234 -0.324866 0.004853984 -0.005894733 0.004907774 -0.006118515 0.7329093 0.312311
400980000.0 -0.7734641 -0.2330045 -0.007650672 -0.0005200351 -0.007621413 -0.0003888553 -0.1596504 -0.7506952
420979000.0 0.07039736 0.7906542 0.002707589 0.00726268 0.00266972 0.007431851 -0.4202256 0.6168703
440978000.0 0.5827886 -0.4609676 0.005996909 -0.007056028 0.005785797 -0.007530786 0.7464061 -0.1134266
460977000.0 -0.8329964 -0.1017447 -0.009743995 -0.0004213525 -0.009489642 -0.0004354547 -0.5743299 -0.4457178
480976000.0 0.2315114 0.7559839 0.004315849 0.008649788 0.004486215 0.009116181 0.122536 0.7314589
500975000.0 0.4263425 -0.5377404 0.005933667 -0.009332906 0.005292501 -0.009521745 0.4682607 -0.630578
520974000.0 -0.7274647 0.1497235 -0.01075663 0.001394906 -0.01086354 0.000987285 -0.7697747 0.126858
540973000.0 0.3764856 0.6269997 0.005980483 0.008483108 0.006624016 0.008535472 0.6494699 0.4726285
560972000.0 0.3024995 -0.6093874 0.004783711 -0.009842902 0.004515785 -0.009633224 -0.07244763 -0.8316035
580971000.0 -0.7445447 0.2738945 -0.01153547 0.00243843 -0.01204942 0.002365349 -0.5445812 0.6052944
600970000.0 0.5568357 0.4860795 0.006888279 0.006773066 0.007236946 0.006437558 0.7995307 0.03309998
620969000.0 0.09699581 -0.6647133 0.004267512 -0.008530585 0.00428555 -0.008442062 -0.4035759 -0.6889169
640968000.0 -0.716158 0.4039538 -0.01117967 0.001198162 -0.01152863 0.001389758 -0.3362137 0.6975005
660967000.0 0.5971915 0.448128 0.005929343 0.007986053 0.006128104 0.007828472 0.7286246 -0.1791073
680966000.0 0.01276464 -0.6372685 0.006097229 -0.00950818 0.006011999 -0.00960619 -0.5782042 -0.4394078
700965000.0 -0.5908184 0.5252901 -0.01254945 0.001215869 -0.01257899 0.001368989 -0.00105504 0.7111222
720964000.0 0.6604619 0.283594 0.006110087 0.009940212 0.006374671 0.01006827 0.5442307 -0.4663014
740963000.0 -0.1429531 -0.6006433 0.006384788 -0.0134531 0.005737022 -0.01349864 -0.6729926 -0.00759871
760962000.0 -0.4405899 0.6421897 -0.01369618 0.002949849 -0.01411687 0.002676463 0.4764315 0.4746748
780961000.0 0.6636409 0.1656183 0.008355219 0.01128834 0.009196524 0.01104624 -0.0421465 -0.7327325
800960000.0 -0.2773162 -0.546018 0.003743791 -0.01519287 0.00390375 -0.01462944 -0.4920374 0.5286844
820959000.0 -0.2708516 0.737044 -0.01289835 0.004058388 -0.0136869 0.004446428 0.7349114 -0.05361725
840958000.0 0.7047275 0.04815841 0.01026989 0.01025797 0.0106251 0.009306327 -0.545044 -0.5681664
860957000.0 -0.379103 -0.4667206 0.002122089 -0.01390331 0.00285017 -0.01388516 -0.1179567 0.7597173
880956000.0 -0.08162882 0.7437299 -0.01236706 0.004469275 -0.01262037 0.005470074 0.5950671 -0.4371491
900955000.0 0.711215 -0.06397958 0.009124245 0.008225045 0.008895037 0.007809861 -0.7170594 -0.2294471
920954000.0 -0.402442 -0.4535375 0.004157908 -0.01224315 0.004623996 -0.01260016 0.1373161 0.7323042
940953000.0 0.05573357 0.6946605 -0.01347604 0.003307324 -0.01336345 0.004100775 0.4813775 -0.4825515
960952000.0 0.6357047 -0.2517115 0.008565271 0.009976706 0.008450877 0.009832426 -0.6597794 -0.07584126
980951000.0 -0.4975033 -0.3503539 0.005796621 -0.01381384 0.005765168 -0.01439031 0.36948 0.5342835
1000950000.0 0.0732701 0.6759772 -0.0150146 0.003230155 -0.01496521 0.003711489 0.1134753 -0.5988939
1020949000.0 -0.5966903 0.3953845 0.009862205 0.01263799 0.01020589 0.01252663 -0.535498 0.3523784
1040948000.0 0.5842491 0.3607212 0.004820457 -0.01764277 0.004688395 -0.01776657 0.6017823 0.1429898
1060947000.0 0.07656104 -0.7192103 -0.01603889 0.005169277 -0.01634772 0.005865369 -0.3695972 -0.5152775
1080946000.0 -0.7255266 0.1311989 0.01378984 0.01204302 0.01375534 0.01128505 -0.0862584 0.6790835
1100945000.0 0.2992237 0.6451064 0.00138197 -0.01661531 0.001822391 -0.01709829 0.5424304 -0.3934545
1120944000.0 0.4427198 -0.5416111 -0.01562146 0.005510229 -0.0155394 0.006848638 -0.7013006 -0.1479526
1140943000.0 -0.6794994 -0.1642222 0.01453332 0.009374219 0.01375121 0.009214068 0.27557 0.698114
1160942000.0 0.0402294 0.7016705 0.001486303 -0.0143472 0.001467745 -0.01537766 0.3910255 -0.5973532
1180941000.0 0.6858297 -0.2207656 -0.01529342 0.004642809 -0.01445088 0.00575205 -0.6963967 0.1079128
1200940000.0 -0.3790799 -0.6058505 0.01226834 0.01009446 0.01165543 0.01061724 0.5190653 0.4884406
1220939000.0 -0.4564994 0.5042586 0.004136775 -0.01560668 0.003550814 -0.01679219 0.073067 -0.6918502
1240938000.0 0.631412 0.2083602 -0.01666037 0.004972075 -0.0157317 0.005229102 -0.5810957 0.3337431
1260937000.0 -0.06519867 -0.6969711 0.01225119 0.01303428 0.01227178 0.01387447 0.5864023 0.2471158
1280936000.0 -0.6613683 0.2562187 0.004517903 -0.02054606 0.003059354 -0.02105339 -0.2534351 -0.5732082
1300935000.0 0.440006 0.507405 -0.01740525 0.007225586 -0.01718739 0.007219481 -0.2007065 0.5768978
1320934000.0 0.2472243 -0.6283588 0.01691077 0.01414223 0.01757147 0.01423111 0.4913939 -0.3193678
1340933000.0 -0.701367 -0.01833321 -0.002598561 -0.01939767 -0.002992688 -0.01946785 -0.636586 -0.1079567
1360932000.0 0.1464041 0.6780087 -0.01464314 0.006101254 -0.01455941 0.00653873 0.2725558 0.6056728
1380931000.0 0.5832707 -0.3590796 0.01727465 0.01354981 0.01712487 0.01355171 0.2478868 -0.5809427
1400930000.0 -0.5517377 -0.3905293 -0.001760064 -0.01733284 -0.002480844 -0.01791972 -0.6362868 0.2256253
1420929000.0 -0.1959009 0.631677 -0.01562607 0.005103168 -0.01497718 0.005717556 0.5489805 0.4413404
1440928000.0 0.6749785 -0.007093775 0.01643591 0.01242107 0.01638818 0.01322452 0.02126711 -0.6718038
1460927000.0 -0.2079979 -0.6598122 0.001610033 -0.0178058 0.0003097116 -0.01840528 -0.5367634 0.406505
1480926000.0 -0.5546111 0.3671111 -0.01935765 0.006079346 -0.0183028 0.005770881 0.6428659 0.1772055
1500925000.0 0.5297297 0.3474737 0.01733942 0.01258605 0.01848124 0.01362371 -0.3096203 -0.5556486
1520924000.0 0.09112612 -0.65679 0.001807906 -0.02116305 0.0001665074 -0.02070459 -0.2234602 0.6016901
1540923000.0 -0.682557 0.09995171 -0.01861341 0.00975467 -0.01883622 0.008773284 0.5730178 -0.1835739
1560922000.0 0.2589938 0.6162258 0.01625126 0.01315952 0.01796876 0.01308002 -0.5277532 -0.2529659
1580921000.0 0.4570436 -0.4578932 0.001111243 -0.02594972 0.0002422432 -0.02469973 0.198397 0.5638563
1600920000.0 -0.6124691 -0.2298564 -0.01677185 0.01311429 -0.01749954 0.01355297 0.1863241 -0.5140309
1620919000.0 -0.01894429 0.6587305 0.01726707 0.01086812 0.01800497 0.00992944 -0.5346581 0.2933605
1640918000.0 0.6342812 -0.1896313 -0.001377415 -0.02277796 -0.00135756 -0.02253168 0.5573646 0.3398661
1660917000.0 -0.4004341 -0.5196152 -0.01586543 0.01076839 -0.01595954 0.01142417 -0.04018958 -0.6014935
1680916000.0 -0.3339362 0.5401616 0.01627069 0.0114171 0.01654896 0.01104669 -0.44229 0.4530874
1700915000.0 0.620698 0.1239437 0.000811301 -0.0219034 0.0004657323 -0.02212231 0.6541547 0.1557015
1720914000.0 -0.07973918 -0.6512105 -0.01817525 0.009407216 -0.01804359 0.009550189 -0.2440617 -0.5948004
1740913000.0 -0.6131384 0.2429582 0.01654459 0.01380606 0.01733653 0.01401114 -0.3047201 0.5807745
1760912000.0 0.3859739 0.4990954 0.003979577 -0.02552229 0.002701589 -0.02510981 0.6352202 -0.1059195
1780911000.0 0.2968377 -0.5343645 -0.02294334 0.01231313 -0.02357342 0.01192224 -0.5231227 -0.3358097
1800910000.0 -0.6265953 -0.06934572 0.02173813 0.01470769 0.02366374 0.013583 0.1044501 0.6304098
1820909000.0 0.1390518 0.6217844 -0.000681731 -0.02990237 -0.0006966839 -0.02830166 0.3464954 -0.4560426
1840908000.0 0.490307 -0.3701195 -0.02212014 0.01760912 -0.02369865 0.01902413 -0.5552273 0.1660139
1860907000.0 -0.5444059 -0.2789966 0.02623572 0.009170815 0.02599138 0.006914475 0.5070016 0.3169563
1880906000.0 -0.110565 0.6182956 -0.006709034 -0.02416281 -0.005685266 -0.02448209 -0.1847911 -0.5017438
1900905000.0 0.634092 -0.04964399 -0.0174204 0.0150859 -0.01731417 0.01703521 -0.2599117 0.5512056
1920904000.0 -0.2347945 -0.5866869 0.02186479 0.008178636 0.02092703 0.007293411 0.6376439 0.003809704
1940903000.0 -0.4467854 0.4034472 -0.002488811 -0.02229093 -0.002101235 -0.02314791 -0.3324859 -0.470971
1960902000.0 0.5377063 0.2065871 -0.0204749 0.01351006 -0.01971127 0.01491286 -0.1631288 0.5838009
1980901000.0 -0.0475185 -0.6131313 0.02220845 0.009018302 0.02158153 0.009137097 0.6033336 -0.1657532
2000900000.0 -0.6215445 0.1781995 -6.162268e-05 -0.02230108 -0.0003804189 -0.02309682 -0.4829048 -0.3565412
2020899000.0 0.2710603 0.5504341 -0.02505881 0.01078152 -0.02460386 0.01142239 -0.01909147 0.6310267
2040898000.0 0.3486572 -0.4465557 0.02801482 0.01464425 0.02838278 0.01451376 0.4695558 -0.3527016
2060897000.0 -0.5842264 -0.09395444 -0.003193215 -0.0297011 -0.003591158 -0.0296436 -0.573983 0.03785495
2080896000.0 0.08176467 0.6081062 -0.02620989 0.01817374 -0.0266487 0.01914299 0.4198123 0.4781426
2100895000.0 0.5370607 -0.2608872 0.03308103 0.01032474 0.03272929 0.008941936 0.07364282 -0.5343639
2120894000.0 -0.4566227 -0.3724408 -0.009540467 -0.03005764 -0.00905352 -0.03092555 -0.3279206 0.4390157
2140893000.0 -0.183664 0.5589331 -0.02178139 0.02414395 -0.02051483 0.02629502 0.5889217 -0.04887998
2160892000.0 0.5814615 -0.0191155 0.0305553 0.00138347 0.02923006 0.001826298 -0.4162965 -0.3096018
2180891000.0 -0.2525168 -0.5389428 -0.01020446 -0.0233748 -0.01118142 -0.02488569 0.0595357 0.5898713
2200890000.0 -0.4225776 0.4276308 -0.01715943 0.02000438 -0.01522641 0.02050446 0.5173738 -0.3211835
2220889000.0 0.5152 0.2644881 0.02481363 0.004051377 0.02439628 0.00520753 -0.5136893 -0.1986153
2240888000.0 0.05997998 -0.5741953 -0.005772895 -0.02349262 -0.007296185 -0.0246358 0.1405874 0.5826688
2260887000.0 -0.5822556 0.1381812 -0.01962972 0.01674487 -0.01818402 0.01646949 0.4363803 -0.3944181
2280886000.0 0.2896423 0.5179011 0.02568342 0.01057197 0.02612633 0.01185782 -0.5553688 -0.0628374
2300885000.0 0.3440572 -0.4467508 -0.004597666 -0.03041306 -0.006831871 -0.03058977 0.2665935 0.5640712
2320884000.0 -0.5579276 -0.1161216 -0.02456607 0.01968915 -0.02391799 0.01895064 0.2948763 -0.4763895
2340883000.0 0.05014602 0.5863134 0.03667185 0.0131792 0.03831338 0.01326315 -0.445661 0.2767676
2360882000.0 0.5244681 -0.2352321 -0.01693846 -0.03264746 -0.0175748 -0.03184339 0.5952735 0.1353383
2380881000.0 -0.4509237 -0.3355307 -0.02118235 0.02537242 -0.02112199 0.02576035 -0.2734726 -0.4600519
2400880000.0 -0.1433462 0.5581916 0.03984001 0.0002102125 0.03992517 -0.0003492314 -0.08790025 0.5549397
2420879000.0 0.5771675 -0.02053461 -0.01760381 -0.02395487 -0.01832557 -0.02411591 0.511427 -0.2778513
2440878000.0 -0.2301175 -0.5323905 -0.01756177 0.02630264 -0.01656661 0.02642403 -0.5066034 -0.07311992
2460877000.0 -0.4487208 0.3921907 0.03037541 -0.004773742 0.03126411 -0.004271222 0.3313924 0.4777213
2480876000.0 0.4750331 0.3337723 -0.01264602 -0.02114011 -0.01406682 -0.02099857 0.2579292 -0.5205845
2500875000.0 0.1056243 -0.5392485 -0.01647639 0.02351818 -0.01568259 0.02276355 -0.5305812 0.1256176
2520874000.0 -0.556776 0.1446305 0.02650551 7.842606e-05 0.02796496 0.0001569003 0.4109204 0.4233558
2540873000.0 0.2838068 0.525124 -0.008657044 -0.02427546 -0.01016126 -0.02363978 0.1631642 -0.529516
2560872000.0 0.3997602 -0.4099219 -0.01866274 0.02298338 -0.0188985 0.02203039 -0.4715316 0.2433099
2580871000.0 -0.5364395 -0.1720597 0.02884831 0.005635704 0.03081834 0.00502969 0.5115932 0.3022355
2600870000.0 0.01779399 0.5772044 -0.01066352 -0.03234306 -0.01168081 -0.0305591 -0.03149125 -0.5315792
2620869000.0 0.5381496 -0.1943363 -0.02028576 0.0271076 -0.02137474 0.0271974 -0.2650018 0.4348449
2640868000.0 -0.4069071 -0.405351 0.03904567 0.004408255 0.04006069 0.001948306 0.5522385 -0.1232815
2660867000.0 -0.2437309 0.5267003 -0.02367462 -0.0283226 -0.02304826 -0.02770754 -0.4572006 -0.1855063
2680866000.0 0.5514079 0.06859081 -0.01471821 0.02836089 -0.01464792 0.02946502 0.2434002 0.5126157
2700865000.0 -0.1909965 -0.520938 0.03643227 -0.004840457 0.03563731 -0.006023777 0.3356761 -0.4775781
2720864000.0 -0.4446421 0.3913552 -0.02007851 -0.02237633 -0.02025239 -0.02237905 -0.4855274 0.1190535
2740863000.0 0.467395 0.3628601 -0.01281619 0.02877846 -0.01227479 0.02907993 0.4797187 0.2885106
2760862000.0 0.19642 -0.5282125 0.02825045 -0.006802509 0.02864843 -0.007392078 -0.05602989 -0.5351822
2780861000.0 -0.5680482 0.03195735 -0.01461744 -0.02155709 -0.01522172 -0.02101284 -0.343012 0.4018134
2800860000.0 0.1804105 0.558359 -0.01325746 0.02605953 -0.01342647 0.02598334 0.5684955 0.1552816
2820859000.0 0.4756713 -0.3189088 0.02675087 -0.0006254429 0.02746376 -0.001454677 -0.1166115 -0.5064254
2840858000.0 -0.4887631 -0.2681389 -0.01304583 -0.02864475 -0.01324366 -0.02768097 -0.2303185 0.4314378
2860857000.0 -0.06650139 0.5621497 -0.01385659 0.0293016 -0.01481929 0.03006716 0.5592831 -0.05558799
2880856000.0 0.5569665 -0.09593015 0.03042146 0.0004448673 0.03073821 -0.001059694 -0.344568 -0.3499081
2900855000.0 -0.3236125 -0.4556512 -0.01879322 -0.03021465 -0.01776093 -0.02991065 0.0581664 0.5024981
2920854000.0 -0.2977434 0.4912878 -0.01317212 0.03123689 -0.01330059 0.03325128 0.4111735 -0.3785584
2940853000.0 0.5471202 0.1697408 0.03441353 -0.0047254 0.03322664 -0.00600978 -0.4964971 0.01029727
2960852000.0 -0.03218745 -0.5535348 -0.01938001 -0.02405918 -0.01923093 -0.02492298 0.4051497 0.3734195
2980851000.0 -0.5016596 0.2651134 -0.01425814 0.03238904 -0.01292234 0.03421676 0.07282233 -0.5554984
3000850000.0 0.2665406 0.5267465 0.03164731 -0.004895316 0.03097624 -0.003628531 -0.4736204 0.258484
3020849000.0 0.3116935 -0.4737385 -0.01484238 -0.02292442 -0.01540302 -0.02342661 0.556531 0.1477559
3040848000.0 -0.5524365 -0.08076908 -0.01557871 0.03754005 -0.01387137 0.03812537 -0.1949892 -0.4732441
3060847000.0 0.07461789 0.5717784 0.02559537 -0.01107553 0.02558315 -0.01135315 -0.0738123 0.4930134
3080846000.0 0.5232647 -0.2042802 -0.01374341 -0.0245041 -0.01429103 -0.02422028 0.5182816 -0.2352256
3100845000.0 -0.4265698 -0.3395203 -0.009451939 0.03743394 -0.009068717 0.03756824 -0.417982 -0.2897015
3120844000.0 -0.1549862 0.5578703 0.02418005 -0.006751494 0.02408969 -0.007266205 0.05485934 0.4964559
3140843000.0 0.5721926 0.07511718 -0.01296098 -0.02847059 -0.01294652 -0.02805916 0.4147838 -0.321514
3160842000.0 -0.1266818 -0.5196602 -0.01093134 0.03685902 -0.01063101 0.03823141 -0.4443722 -0.02561561
3180841000.0 -0.3748791 0.4055716 0.02973508 -0.006670731 0.02908014 -0.007331235 0.3653032 0.3408138
3200840000.0 0.5132505 0.2664469 -0.02299081 -0.0261122 -0.02258969 -0.02719856 0.0742913 -0.5172671
3220839000.0 0.1303336 -0.5433539 -0.007723075 0.03079317 -0.006347866 0.03188396 -0.361128 0.3277861
3240838000.0 -0.539625 0.1123893 0.03021119 -0.006034274 0.02915614 -0.005845743 0.5466288 0.13867
3260837000.0 0.2741441 0.5042372 -0.02036276 -0.02329939 -0.02107394 -0.02474334 -0.1303718 -0.5294921
3280836000.0 0.4284952 -0.370319 -0.01288881 0.03040375 -0.01108098 0.03090198 -0.2243204 0.4480416
3300835000.0 -0.4981416 -0.2114479 0.03437978 -0.007649722 0.03420002 -0.006472788 0.5690047 -0.07447815
3320834000.0 0.008800754 0.5618378 -0.02179036 -0.02463729 -0.02348479 -0.02530014 -0.335085 -0.3909492
3340833000.0 0.5673665 -0.1042962 -0.0122286 0.03477117 -0.01108841 0.03426512 0.05822369 0.4603187
3360832000.0 -0.2480145 -0.4977192 0.03464022 -0.01049413 0.03556957 -0.01045747 0.3307185 -0.3979793
3380831000.0 -0.3100893 0.4473097 -0.02708794 -0.02427583 -0.02809785 -0.02379049 -0.4423333 0.05786852
3400830000.0 0.5393787 0.151477 -0.004356502 0.03305604 -0.004220035 0.0333331 0.3844432 0.2897301
3420829000.0 -0.009902965 -0.5482852 0.03126554 -0.009011536 0.03150503 -0.009757541 0.05539197 -0.5080723
3440828000.0 -0.4610595 0.2718494 -0.02786866 -0.02194481 -0.02836046 -0.0219635 -0.3540208 0.2735218
3460827000.0 0.4458323 0.3543315 -0.004018161 0.02939769 -0.003239638 0.02994416 0.4802039 0.1022596
3480826000.0 0.280002 -0.5044398 0.03151977 -0.007955477 0.0309952 -0.008067538 -0.2085079 -0.4376911
3500825000.0 -0.5361747 -0.0972247 -0.02617854 -0.01957476 -0.02760948 -0.02020897 -0.0816258 0.4611368
3520824000.0 0.1276614 0.5327188 -0.006103673 0.0272865 -0.004558878 0.02722673 0.5170875 -0.2066989
3540823000.0 0.5083207 -0.2547258 0.03069003 -0.006120629 0.03053735 -0.00516524 -0.4031103 -0.3547457
3560822000.0 -0.3887268 -0.3895318 -0.02211544 -0.02333152 -0.02425976 -0.02357193 0.01388004 0.5018905
3580821000.0 -0.1688666 0.5167919 -0.01096184 0.03026485 -0.009510035 0.02939913 0.4789056 -0.3083054
3600820000.0 0.5626334 0.04301036 0.0339868 -0.005420021 0.03524858 -0.00431309 -0.4707853 -0.2333477
3620819000.0 -0.0931445 -0.5352455 -0.02403196 -0.03173142 -0.02664902 -0.03088431 0.1815615 0.4295176
3640818000.0 -0.3893838 0.3513732 -0.007581848 0.0437806 -0.008170282 0.04237043 0.1764191 -0.4564644
3660817000.0 0.5013276 0.2697965 0.03355414 -0.01456145 0.03485421 -0.01576396 -0.3256865 0.2564356
3680816000.0 0.2247542 -0.5273486 -0.03106485 -0.02628263 -0.03157281 -0.02495362 0.4628935 -0.01142407
3700815000.0 -0.5175013 -0.02783769 0.001790949 0.03820473 0.001879313 0.0387219 -0.3040543 -0.3549079
3720814000.0 0.2665075 0.4511858 0.02881618 -0.01409766 0.02863175 -0.01487027 0.003873131 0.4561233
3740813000.0 0.3858475 -0.4099062 -0.02874351 -0.02073703 -0.02895904 -0.02063883 0.4643461 -0.2492968
3760812000.0 -0.480765 -0.2698929 -0.0008445988 0.03191217 -0.0002176543 0.03205666 -0.4037512 -0.2699384
3780811000.0 -0.05192032 0.5310707 0.02868821 -0.01035869 0.02889309 -0.01022818 0.1551264 0.4311082
3800810000.0 0.533636 -0.1106746 -0.02607945 -0.0217985 -0.02764249 -0.0216767 0.333366 -0.4296324
3820809000.0 -0.2450847 -0.4808557 -0.003932496 0.03110065 -0.003510246 0.03034264 -0.5021057 -0.07319615
3840808000.0 -0.3180822 0.4298767 0.02923905 -0.007424737 0.03049319 -0.007115803 0.277061 0.4141633
3860807000.0 0.5277138 0.1773743 -0.02214989 -0.02624356 -0.02422683 -0.02508966 0.2934754 -0.481248
