! Created with skrf 1.9.0 (http://scikit-rf.org).
# Hz S RI R 50.0 
!freq ReS11 ImS11 ReS21 ImS21 ReS12 ImS12 ReS22 ImS22
1000000.0 1.045767 -0.06818964 3.650031e-06 -1.999081e-06 2.806022e-06 2.155243e-06 0.7996073 -0.5595323
20999000.0 0.6353987 -0.6746867 0.0003061687 3.467107e-05 0.0002982187 3.769338e-05 -0.3762183 -0.8124403
40998000.0 -0.4798641 -0.6267763 -0.0002293875 -0.0008283 -0.0002241693 -0.000858269 -0.2443522 0.8505341
60997000.0 0.7971858 0.3752436 -0.0001600201 0.001845798 -9.905446e-05 0.001835878 0.8022597 -0.3862316
80996000.0 0.292908 -0.8681108 0.001307863 -0.0008739809 0.001355129 -0.0008713229 -0.8463895 -0.1900637
100995000.0 -0.7529774 -0.3454199 -0.001505293 -0.001405858 -0.001642016 -0.00140558 0.3557274 0.7729065
120994000.0 0.4044877 0.7450002 8.349439e-05 0.003455094 8.711579e-05 0.003372878 0.3522222 -0.7408317
140993000.0 0.4769558 -0.7673189 0.002188349 -0.001998591 0.002308922 -0.002113582 -0.7520351 0.300818
160992000.0 -0.698818 -0.4676145 -0.002922368 -0.001694221 -0.003014615 -0.001523117 0.7196459 0.3806855
180991000.0 -0.1031313 0.8284466 0.0003470384 0.004584233 0.0002310205 0.004581978 -0.2131335 -0.763896
200990000.0 0.7885779 -0.4578109 0.003489584 -0.003275818 0.00351987 -0.00358569 -0.4005368 0.7056375
220989000.0 -0.5266964 -0.6694375 -0.004815149 -0.00157119 -0.004722802 -0.001415732 0.8384969 -0.1358162
240988000.0 -0.3887081 0.6902236 0.001336696 0.005854221 0.001295596 0.006055843 -0.6967284 -0.4759535
260987000.0 0.8682571 -0.1576207 0.003877345 -0.005383054 0.003637592 -0.00558851 0.1850619 0.8359208
280986000.0 -0.2988584 -0.8208864 -0.005810419 -0.0003490088 -0.005799414 -0.0003599661 0.56642 -0.6896459
300985000.0 -0.685441 0.3953416 0.002132871 0.006111905 0.002277433 0.006208123 -0.8570917 0.06096772
320984000.0 0.6821595 0.1861051 0.003264172 -0.00634572 0.003158793 -0.006397849 0.5995837 0.5835557
340983000.0 0.07774521 -0.7140344 -0.006025061 -0.0004529864 -0.006119878 -0.0003602696 0.110751 -0.8308225
360982000.0 -0.7972797 0.1308091 0.002731587 0.00595559 0.002862959 0.005917766 -0.6501732 0.4830311
380981000.0 0.3523779 0.7141498 0.004871145 -0.005895623 0.004927104 -0.006121371 0.7335998 0.3150658
400980000.0 0.4645098 -0.6862283 -0.007667023 -0.000533139 -0.007637507 -0.0004027552 -0.1577898 -0.7527845
420979000.0 -0.7532514 -0.2695003 0.002702787 0.007281407 0.002664381 0.007448161 -0.4228502 0.6170054
440978000.0 -0.03451166 0.7910118 0.006018599 -0.0070615 0.005805686 -0.007538986 0.7483872 -0.1118169
460977000.0 0.7685378 -0.3330164 -0.009759641 -0.0004326462 -0.009505807 -0.0004510809 -0.5743656 -0.4486021
480976000.0 -0.5300115 -0.6138776 0.004306881 0.008672236 0.004475856 0.009140817 0.1199801 0.7336473
500975000.0 -0.3925601 0.6474812 0.005967463 -0.009341124 0.005324355 -0.009530169 0.4717304 -0.6300749
520974000.0 0.7160144 0.006673187 -0.01078449 0.001376052 -0.01088994 0.0009665532 -0.7718885 0.1241165
540973000.0 -0.1814872 -0.7378714 0.005976458 0.008516226 0.006620464 0.008569466 0.6489906 0.4759679
560972000.0 -0.6761798 0.3764163 0.004813656 -0.009856259 0.004546025 -0.009646107 -0.06958198 -0.833824
580971000.0 0.6149808 0.4312588 -0.01157543 0.002416196 -0.01209085 0.002338581 -0.5483437 0.6047708
600970000.0 0.1164781 -0.7772433 0.006897113 0.006808356 0.007248682 0.006467053 0.8013183 0.03606384
620969000.0 -0.7776335 0.06649607 0.00429409 -0.008544641 0.00431438 -0.008458225 -0.402306 -0.691872
640968000.0 0.2643126 0.7242403 -0.01121553 0.001180182 -0.01156736 0.001372573 -0.3392092 0.6983738
660967000.0 0.565775 -0.545324 0.005934136 0.00801187 0.006137803 0.007855928 0.7312725 -0.177718
680966000.0 -0.6756539 -0.3597353 0.006128497 -0.009518529 0.006042521 -0.009617023 -0.5790069 -0.4425347
700965000.0 -0.1455225 0.7230979 -0.01258326 0.001185082 -0.01260847 0.001341322 -0.003489123 0.7136127
720964000.0 0.7265377 -0.2092457 0.006102173 0.009973634 0.006369782 0.01010497 0.5479985 -0.4657526
740963000.0 -0.4726077 -0.5901186 0.00643607 -0.01347298 0.005785248 -0.01352327 -0.6753182 -0.01054922
760962000.0 -0.4842804 0.5511045 -0.01373893 0.002933138 -0.01415726 0.002657117 0.4757123 0.4783663
780961000.0 0.6765114 0.1937139 0.008350587 0.01132991 0.00919401 0.01109431 -0.03898799 -0.7350233
800960000.0 -0.09618022 -0.7503728 0.003788288 -0.0152205 0.003946633 -0.01464822 -0.4960815 0.5278516
820959000.0 -0.7026156 0.2809596 -0.01294185 0.004036183 -0.01373325 0.004413303 0.7371679 -0.04999895
840958000.0 0.4719492 0.5457491 0.01027151 0.01032114 0.01063414 0.009364774 -0.5439422 -0.572107
860957000.0 0.2826042 -0.6846454 0.002161173 -0.01394497 0.002896208 -0.01392289 -0.1214661 0.7616446
880956000.0 -0.7418246 -0.07763512 -0.01242351 0.004456721 -0.0126786 0.005463049 0.5988641 -0.4363206
900955000.0 0.09005865 0.7240619 0.009137026 0.008267391 0.008908076 0.007848307 -0.7185521 -0.2325768
920954000.0 0.6336865 -0.3631661 0.004196317 -0.012266 0.004671619 -0.01262603 0.1354403 0.73527
940953000.0 -0.5865839 -0.4170368 -0.01352533 0.003276967 -0.01341441 0.004079241 0.4850079 -0.4828216
960952000.0 -0.2157544 0.6716559 0.008566863 0.01002507 0.008454291 0.009875981 -0.6623202 -0.07884576
980951000.0 0.7100055 0.0003938278 0.005855672 -0.01384627 0.005826509 -0.01442393 0.3689367 0.5383835
1000950000.0 -0.1989173 -0.7057433 -0.01507623 0.003206612 -0.01502477 0.003687633 0.1168559 -0.6012434
1020949000.0 -0.5978961 0.3949033 0.00986088 0.01270187 0.01020269 0.01258563 -0.5396811 0.3512514
1040948000.0 0.5841591 0.36211 0.004886172 -0.01769148 0.004751988 -0.01781 0.6034787 0.1468711
1060947000.0 0.0778055 -0.71961 -0.01610338 0.005147764 -0.01641168 0.005840261 -0.3677806 -0.5190939
1080946000.0 -0.7261859 0.130256 0.01380564 0.01212579 0.01376956 0.01135741 -0.08996943 0.6809269
1100945000.0 0.2986237 0.6459588 0.00142253 -0.01667146 0.001871563 -0.01714933 0.5459378 -0.3922986
1120944000.0 0.4436734 -0.5414991 -0.01568116 0.005486196 -0.01560503 0.006828058 -0.7029271 -0.1513348
1140943000.0 -0.6798601 -0.1650617 0.01456107 0.009441258 0.01377448 0.009277776 0.273882 0.7015878
1160942000.0 0.03942242 0.7022762 0.001522815 -0.01438677 0.001513556 -0.01542062 0.3949914 -0.5982642
1180941000.0 0.6866302 -0.220214 -0.01536444 0.004612232 -0.01452016 0.005731774 -0.6998782 0.1055106
1200940000.0 -0.3788189 -0.6068082 0.01228958 0.01016732 0.01167025 0.01067989 0.5195487 0.492654
1220939000.0 -0.4575101 0.504227 0.004196766 -0.01564458 0.003610603 -0.01683766 0.07620622 -0.6950095
1240938000.0 0.6317753 0.209407 -0.01673696 0.004945979 -0.01579983 0.005210106 -0.5856109 0.3329746
1260937000.0 -0.06443164 -0.6976469 0.01225228 0.01310429 0.01226939 0.01394946 0.5884601 0.2516101
1280936000.0 -0.6623397 0.2556083 0.004613539 -0.02060473 0.003139732 -0.02111471 -0.2512524 -0.5783026
1300935000.0 0.439798 0.5086483 -0.01749559 0.007215261 -0.01727398 0.007201594 -0.2056711 0.5787992
1320934000.0 0.2483468 -0.628674 0.01692571 0.01425486 0.01759328 0.01433895 0.4958851 -0.3174848
1340933000.0 -0.7020069 -0.01927655 -0.002570196 -0.01949788 -0.002959088 -0.01955511 -0.6382238 -0.1117044
1360932000.0 0.1456603 0.6789395 -0.01470705 0.006093465 -0.01461835 0.006529598 0.2708714 0.6088117
1380931000.0 0.5843757 -0.3586937 0.01729811 0.01365793 0.01714572 0.01365776 0.25128 -0.5820172
1400930000.0 -0.551875 -0.3915471 -0.001740572 -0.01740182 -0.002455817 -0.01798653 -0.6393008 0.2240824
1420929000.0 -0.1967676 0.6320992 -0.01569045 0.005066761 -0.01504005 0.005685589 0.5495988 0.4448509
1440928000.0 0.6756217 -0.006441247 0.0164667 0.0125129 0.0164093 0.01332081 0.02375229 -0.6750861
1460927000.0 -0.2076521 -0.6606375 0.001651101 -0.0178485 0.000342874 -0.01845934 -0.5412989 0.4066208
1480926000.0 -0.555708 0.3670867 -0.0194475 0.00601402 -0.01837872 0.005714815 0.6460603 0.1812511
1500925000.0 0.530074 0.3487715 0.01736143 0.01269006 0.01850583 0.01374071 -0.3086035 -0.5609594
1520924000.0 0.09229584 -0.6574721 0.00189684 -0.02123241 0.0002319479 -0.02077617 -0.2281706 0.6042314
1540923000.0 -0.6836249 0.09911247 -0.0187378 0.009729449 -0.0189494 0.008733393 0.5781233 -0.1813753
1560922000.0 0.2583751 0.6175085 0.01627273 0.01326562 0.01800064 0.01319217 -0.52934 -0.2585911
1580921000.0 0.4583516 -0.4578259 0.001228956 -0.02607136 0.0003347155 -0.02480631 0.1954403 0.5688091
1600920000.0 -0.6129797 -0.2310131 -0.01688898 0.0131559 -0.01761885 0.01358317 0.1912289 -0.5154231
1620919000.0 -0.01993693 0.6595596 0.0173146 0.01095449 0.01805527 0.01001138 -0.5380021 0.2914546
1640918000.0 0.6354055 -0.1889506 -0.001324701 -0.02287767 -0.00130358 -0.02262625 0.5579308 0.3429413
1660917000.0 -0.400434 -0.5208787 -0.01595157 0.01077405 -0.01604254 0.01143007 -0.03846521 -0.603906
1680916000.0 -0.3353379 0.5405524 0.01629678 0.01150068 0.01657137 0.0111271 -0.445346 0.4534942
1700915000.0 0.6214381 0.1251926 0.0008752201 -0.02197575 0.000533359 -0.02220181 0.6564839 0.1580481
1720914000.0 -0.07885344 -0.6522893 -0.01826375 0.009378229 -0.01812592 0.009520121 -0.2436172 -0.5987324
1740913000.0 -0.6145999 0.2424593 0.01654981 0.01391179 0.01734227 0.01412649 -0.3087252 0.5830662
1760912000.0 0.3857948 0.5005985 0.00411013 -0.02559942 0.002807857 -0.02519386 0.6402352 -0.1038784
1780911000.0 0.2983448 -0.5347376 -0.02309162 0.0122697 -0.02371287 0.0118698 -0.5252879 -0.3415779
1800910000.0 -0.6275916 -0.07058648 0.02175567 0.01484376 0.02370215 0.01371666 0.1013102 0.6360079
1820909000.0 0.1379473 0.6234205 -0.0005405416 -0.03005056 -0.0005737089 -0.02843084 0.3531267 -0.4573472
1840908000.0 0.4923618 -0.369626 -0.02231148 0.01760816 -0.02391141 0.01901296 -0.5604321 0.162178
1860907000.0 -0.5447784 -0.2809329 0.02633824 0.009336615 0.02610245 0.007044686 0.5077552 0.3227931
1880906000.0 -0.1121118 0.6191764 -0.006677433 -0.0243197 -0.00563949 -0.024631 -0.1820913 -0.5057788
1900905000.0 0.63534 -0.04828047 -0.01754876 0.01510703 -0.01745078 0.01707613 -0.2632914 0.5516768
1920904000.0 -0.2339647 -0.5882437 0.02194246 0.008272708 0.02099824 0.00737466 0.6397508 0.005800675
1940903000.0 -0.448754 0.4032377 -0.002446131 -0.02237843 -0.002044644 -0.02323568 -0.3325078 -0.4737098
1960902000.0 0.5384923 0.2084446 -0.02060966 0.01346989 -0.01984518 0.0148857 -0.1651335 0.5856083
1980901000.0 -0.04606757 -0.6144029 0.02226369 0.009124832 0.02162787 0.009242946 0.6064875 -0.1653411
2000900000.0 -0.6231847 0.1771182 2.511484e-05 -0.02237215 -0.0002903756 -0.02317106 -0.4848225 -0.3598544
2020899000.0 0.2701685 0.5526153 -0.02520243 0.01068838 -0.02474739 0.01133042 -0.02117908 0.6351473
2040898000.0 0.3512745 -0.4465763 0.02809037 0.01486185 0.02846552 0.01473697 0.47537 -0.3540271
2060897000.0 -0.5852699 -0.09628993 -0.003088986 -0.02985059 -0.003487966 -0.02978523 -0.5794318 0.03441846
2080896000.0 0.07986116 0.60991 -0.02642975 0.01812941 -0.02689 0.01909376 0.4204089 0.4845021
2100895000.0 0.5392883 -0.2596256 0.03320986 0.01053493 0.03287188 0.009132479 0.07858488 -0.5392255
2120894000.0 -0.4562959 -0.3751056 -0.009466208 -0.03026784 -0.008958613 -0.03112826 -0.3346034 0.4390583
2140893000.0 -0.186203 0.5597229 -0.02202492 0.02419659 -0.0207649 0.02638183 0.5929162 -0.04471681
2160892000.0 0.5830207 -0.01673355 0.0307465 0.001499141 0.02940055 0.001937801 -0.4161282 -0.3140331
2180891000.0 -0.2511145 -0.5413151 -0.01019665 -0.02352701 -0.01116504 -0.02504926 0.05698428 0.5919865
2200890000.0 -0.4253229 0.4271444 -0.01731923 0.02005853 -0.01537273 0.0205655 0.52008 -0.3207105
2220889000.0 0.5154992 0.2672364 0.02492667 0.004152535 0.02449274 0.005318986 -0.515193 -0.2006619
2240888000.0 0.06240147 -0.5753305 -0.005707746 -0.02362914 -0.007236812 -0.02478893 0.1399499 0.5852789
2260887000.0 -0.5841817 0.1362951 -0.01977571 0.01675146 -0.01831113 0.01647247 0.4392008 -0.3958542
2280886000.0 0.2884367 0.5205408 0.02573908 0.01073482 0.02617552 0.0120355 -0.5588067 -0.06449004
2300885000.0 0.3472458 -0.4465683 -0.004452099 -0.03059029 -0.006702649 -0.03078361 0.2668591 0.5685933
2320884000.0 -0.5589114 -0.1190488 -0.02479528 0.01965121 -0.02413145 0.01890357 0.2996517 -0.4804332
2340883000.0 0.04738128 0.5882044 0.03681281 0.01352098 0.0384738 0.0136362 -0.4531499 0.2764098
2360882000.0 0.527443 -0.233058 -0.01692541 -0.03297366 -0.0175652 -0.03215988 0.5999605 0.1406721
2380881000.0 -0.4503982 -0.3390394 -0.02141867 0.02543793 -0.02136503 0.02582698 -0.2728013 -0.4665138
2400880000.0 -0.1463242 0.5589129 0.04014973 0.0004125905 0.04023331 -0.0001548642 -0.09277779 0.5580141
2420879000.0 0.5787848 -0.01807536 -0.01766156 -0.02416833 -0.01838392 -0.02433597 0.5164757 -0.2763071
2440878000.0 -0.2284817 -0.5346694 -0.01777213 0.02639562 -0.01676239 0.02652615 -0.5088771 -0.07695562
2460877000.0 -0.451211 0.3914421 0.0306063 -0.004716808 0.03148675 -0.004199964 0.3303865 0.4807692
2480876000.0 0.4747608 0.3367944 -0.0126569 -0.02130306 -0.01408238 -0.0211611 0.2603295 -0.521781
2500875000.0 0.1085357 -0.5403668 -0.0166465 0.02357422 -0.01583819 0.02281141 -0.5330068 0.1248374
2520874000.0 -0.5588377 0.1424645 0.02664652 0.0001955557 0.0281113 0.0002864843 0.4119216 0.4258403
2540873000.0 0.2822705 0.5276617 -0.008582837 -0.02442069 -0.01010324 -0.02378521 0.1649347 -0.5322798
2560872000.0 0.4029927 -0.4092045 -0.01888461 0.02302901 -0.01911458 0.02205003 -0.4755717 0.243647
2580871000.0 -0.5371299 -0.1751537 0.02898862 0.005834764 0.03097426 0.005252392 0.5145644 0.3061687
2600870000.0 0.01534897 0.5788541 -0.01052974 -0.03264586 -0.01157563 -0.03084603 -0.02969147 -0.5376593
2620869000.0 0.5407091 -0.1922475 -0.02056547 0.02721061 -0.02168029 0.02727738 -0.2715089 0.4378659
2640868000.0 -0.4061101 -0.4084228 0.0393399 0.004686065 0.0403981 0.002197744 0.5596548 -0.1205626
2660867000.0 -0.2467454 0.5270686 -0.02382191 -0.02867905 -0.02316516 -0.0280389 -0.4607467 -0.1916242
2680866000.0 0.5527014 0.0713649 -0.01490372 0.02853005 -0.01483486 0.0296437 0.2414807 0.5175239
2700865000.0 -0.1890506 -0.5232081 0.03674924 -0.004759867 0.03594822 -0.005974457 0.3401222 -0.4788234
2720864000.0 -0.4471012 0.390476 -0.02017091 -0.02257472 -0.02033738 -0.02256918 -0.4888602 0.1171317
2740863000.0 0.4674045 0.3653884 -0.01298495 0.02894125 -0.01243709 0.0292506 0.4804365 0.2916108
2760862000.0 0.1987606 -0.5289876 0.02844351 -0.006783145 0.0288482 -0.007369824 -0.05470355 -0.5376598
2780861000.0 -0.5696069 0.0302848 -0.014658 -0.02171043 -0.01526208 -0.02115959 -0.3455673 0.4026919
2800860000.0 0.179093 0.5602616 -0.01345646 0.02615183 -0.01362713 0.02606698 0.5708863 0.1570768
2820859000.0 0.4783016 -0.3181252 0.02690972 -0.0005234528 0.02763117 -0.001364161 -0.1165603 -0.5103266
2840858000.0 -0.4890886 -0.2711449 -0.0129262 -0.02888751 -0.01314562 -0.02790309 -0.2338945 0.4344217
2860857000.0 -0.0689977 0.5634 -0.0140968 0.02944962 -0.01508508 0.0302127 0.5647648 -0.05346155
2880856000.0 0.5589717 -0.09379751 0.03064626 0.000633058 0.03098303 -0.0008971592 -0.346974 -0.3564876
2900855000.0 -0.322473 -0.4583573 -0.01883034 -0.0305952 -0.01776775 -0.03026851 0.0544909 0.5087753
2920854000.0 -0.3000815 0.4913836 -0.0134066 0.03148609 -0.01356206 0.03350441 0.4185045 -0.3797359
2940853000.0 0.5479621 0.1717765 0.03476612 -0.004612393 0.03356858 -0.005925754 -0.5021297 0.006647042
2960852000.0 -0.03053672 -0.5550519 -0.01951454 -0.02429943 -0.01935123 -0.02516417 0.4059141 0.3786158
2980851000.0 -0.5035064 0.2644066 -0.01444264 0.03262347 -0.01309737 0.03447065 0.07575868 -0.5589886
3000850000.0 0.2661073 0.5286404 0.0318896 -0.004909864 0.03121064 -0.003629894 -0.4771163 0.2580027
3020849000.0 0.3138954 -0.4741444 -0.01487385 -0.02308326 -0.01542982 -0.02358958 0.558495 0.1499589
3040848000.0 -0.5535502 -0.08257127 -0.01582556 0.03774141 -0.01408537 0.03832871 -0.1948027 -0.4765232
3060847000.0 0.07341826 0.5732972 0.02577733 -0.0110985 0.02576467 -0.01137425 -0.07593925 0.4955418
3080846000.0 0.5253186 -0.2033688 -0.01371955 -0.02467601 -0.01426651 -0.02439439 0.5217427 -0.2352116
3100845000.0 -0.4265873 -0.3418504 -0.009699216 0.03769267 -0.009301566 0.03779665 -0.4205166 -0.2932886
3120844000.0 -0.1564664 0.5587953 0.02435864 -0.006671334 0.02427531 -0.007191233 0.05294077 0.501243
3140843000.0 0.5735081 0.07654213 -0.01285644 -0.02877177 -0.01284781 -0.02834253 0.4213834 -0.3227057
3160842000.0 -0.125457 -0.5215576 -0.01124302 0.03714705 -0.01097224 0.03853133 -0.4510871 -0.03019078
3180841000.0 -0.3768248 0.4056638 0.03003938 -0.00659029 0.02936983 -0.007259167 0.3661366 0.3484305
3200840000.0 0.5137819 0.2683323 -0.02313902 -0.02651411 -0.02271351 -0.02762171 0.07954014 -0.5229518
3220839000.0 0.1319155 -0.5443816 -0.007848024 0.03110988 -0.006456535 0.03221768 -0.3675583 0.3282725
3240838000.0 -0.5410647 0.1116081 0.03050271 -0.006041293 0.029424 -0.005846696 0.5496247 0.1423909
3260837000.0 0.2740805 0.5056772 -0.02052823 -0.02352174 -0.02124593 -0.02497586 -0.1295265 -0.5337179
3280836000.0 0.430022 -0.3706537 -0.01300102 0.03062092 -0.01117697 0.03112802 -0.2270693 0.4500786
3300835000.0 -0.4991564 -0.2126496 0.03461178 -0.007683544 0.03443501 -0.006475409 0.571786 -0.07379398
3320834000.0 0.008217492 0.5631123 -0.02188879 -0.02480435 -0.02358351 -0.02548276 -0.3364363 -0.3938786
3340833000.0 0.5687887 -0.1038491 -0.01241161 0.03490742 -0.0112563 0.03438175 0.05707328 0.4637834
3360832000.0 -0.2478621 -0.4994702 0.0348793 -0.01044798 0.03581935 -0.01040299 0.3347684 -0.3997586
3380831000.0 -0.311747 0.4478408 -0.02715711 -0.02455379 -0.02816869 -0.02405697 -0.4472024 0.0564119
3400830000.0 0.5402909 0.1526679 -0.004537034 0.03327866 -0.004402214 0.03354946 0.3861037 0.2949451
3420829000.0 -0.009162033 -0.5496913 0.03154274 -0.008933793 0.03179003 -0.00969274 0.05924144 -0.5136127
3440828000.0 -0.4624783 0.2719731 -0.028034 -0.0222678 -0.02849498 -0.02228354 -0.3612596 0.2741403
3460827000.0 0.446577 0.3552864 -0.004170315 0.02965663 -0.003391679 0.03022717 0.4848109 0.1080861
3480826000.0 0.2807728 -0.5054591 0.03190611 -0.007915737 0.03135439 -0.008037925 -0.2073535 -0.4455815
3500825000.0 -0.5374083 -0.09764447 -0.02644421 -0.01980681 -0.02788001 -0.02046973 -0.08674681 0.4652062
3520824000.0 0.1277536 0.5339943 -0.006174685 0.02754053 -0.004610128 0.02747964 0.5217872 -0.2055457
3540823000.0 0.5096253 -0.2550301 0.03096713 -0.006171992 0.03080267 -0.005192545 -0.4050508 -0.3584039
3560822000.0 -0.3893994 -0.3907655 -0.02228859 -0.023499 -0.02443924 -0.02375224 0.01280542 0.5050653
3580821000.0 -0.169464 0.5178314 -0.0110412 0.03046424 -0.00958012 0.02957756 0.481666 -0.3093313
3600820000.0 0.5638702 0.04320471 0.03417172 -0.005462081 0.03544435 -0.004329975 -0.4736668 -0.2348288
3620819000.0 -0.09331356 -0.5365611 -0.02409127 -0.03199113 -0.02672679 -0.03112985 0.1819895 0.4327911
3640818000.0 -0.3904416 0.3523168 -0.007785928 0.04403719 -0.00837311 0.0425924 0.1798335 -0.459884
3660817000.0 0.5025252 0.2702398 0.03380853 -0.01452374 0.03513296 -0.01572798 -0.3317316 0.2573859
3680816000.0 0.2252462 -0.5284801 -0.0311689 -0.02665435 -0.03166592 -0.02527965 0.4680241 -0.007625492
3700815000.0 -0.5189404 -0.02794917 0.001661047 0.03856781 0.001746036 0.03908859 -0.3050389 -0.3619729
3720814000.0 0.2672139 0.452505 0.02910357 -0.01409054 0.02890682 -0.01490245 -0.0003525631 0.4613271
3740813000.0 0.3868254 -0.4107912 -0.02893433 -0.02102998 -0.02912829 -0.02093859 0.4705516 -0.2483419
3760812000.0 -0.4818491 -0.2703602 -0.0009248628 0.03221634 -0.0002876427 0.03236125 -0.4068761 -0.2762365
3780811000.0 -0.05167735 0.5324109 0.02895757 -0.01039854 0.02916701 -0.01026086 0.1530144 0.4370583
3800810000.0 0.5348418 -0.1113952 -0.02632058 -0.02200926 -0.02788919 -0.02191613 0.3383307 -0.4312145
3820809000.0 -0.2462584 -0.481887 -0.003949752 0.03133482 -0.003526928 0.03057529 -0.5060432 -0.07551773
3840808000.0 -0.318563 0.4312547 0.02942764 -0.007491548 0.03069572 -0.007175683 0.2778618 0.417489
3860807000.0 0.5290672 0.1774951 -0.02226361 -0.0264187 -0.02435462 -0.02525328 0.2954072 -0.4836758
