! Created with skrf 1.9.0 (http://scikit-rf.org).
# Hz S RI R 50.0 
!freq ReS11 ImS11 ReS21 ImS21 ReS12 ImS12 ReS22 ImS22
1000000.0 1.046236 -0.06949002 4.50739e-06 -5.023104e-06 1.004376e-06 1.36336e-06 0.7996575 -0.5595421
20999000.0 0.6346377 -0.6759531 0.0003093811 3.398812e-05 0.0002985356 3.412152e-05 -0.3763244 -0.8124416
40998000.0 -0.4807932 -0.6263025 -0.0002322068 -0.0008252477 -0.0002252874 -0.000856158 -0.2443036 0.8505367
60997000.0 0.7980846 0.3744348 -0.0001625177 0.001845328 -9.583919e-05 0.001839515 0.8021955 -0.3862672
80996000.0 0.292202 -0.8688957 0.001307693 -0.0008778332 0.001352093 -0.0008722764 -0.8464477 -0.190074
100995000.0 -0.7533975 -0.3450828 -0.001506202 -0.001407203 -0.001645962 -0.0014047 0.3557612 0.7728787
120994000.0 0.4052012 0.7449551 8.301862e-05 0.003455984 9.08e-05 0.003377759 0.3522172 -0.7408505
140993000.0 0.4766983 -0.7677383 0.002186409 -0.001998425 0.00230934 -0.002118863 -0.75205 0.3008798
160992000.0 -0.6992854 -0.4673756 -0.002921747 -0.001693262 -0.003017907 -0.00152209 0.719638 0.3806651
180991000.0 -0.1025784 0.8286965 0.0003456582 0.004584308 0.0002387725 0.004583151 -0.213149 -0.7638937
200990000.0 0.7885517 -0.4582959 0.003489664 -0.003276724 0.003515044 -0.003589187 -0.4004651 0.7056574
220989000.0 -0.5270833 -0.6690932 -0.004815127 -0.001571207 -0.004726851 -0.001410146 0.8384811 -0.1358295
240988000.0 -0.3883556 0.6906672 0.001334708 0.005854455 0.001303562 0.00605546 -0.6967474 -0.4759802
260987000.0 0.868462 -0.1580384 0.003876961 -0.005382151 0.003633935 -0.005595118 0.185118 0.8359145
280986000.0 -0.2993068 -0.8209863 -0.005808913 -0.0003487787 -0.005802036 -0.0003549678 0.5663886 -0.6896701
300985000.0 -0.6853724 0.3957602 0.002133402 0.006113115 0.002283565 0.006207838 -0.8571234 0.0609934
320984000.0 0.6822415 0.1858606 0.003267113 -0.006343776 0.003152661 -0.006403487 0.5995929 0.5835593
340983000.0 0.07739893 -0.7141819 -0.006024891 -0.0004518659 -0.006122736 -0.0003535139 0.1106984 -0.8308182
360982000.0 -0.7974439 0.131354 0.002732626 0.005954225 0.002871315 0.005915538 -0.6501597 0.4829865
380981000.0 0.3525299 0.7139273 0.004871093 -0.005894217 0.004920522 -0.006126232 0.733628 0.3150316
400980000.0 0.4642368 -0.6866515 -0.007665903 -0.000531749 -0.007640472 -0.0003924874 -0.1577688 -0.7527857
420979000.0 -0.753634 -0.269153 0.002702272 0.007282655 0.002673853 0.007451836 -0.4228972 0.6170362
440978000.0 -0.03409654 0.7910573 0.006018969 -0.007062756 0.00580226 -0.007546974 0.7484121 -0.1118714
460977000.0 0.7684905 -0.3333091 -0.009760958 -0.0004315774 -0.00950723 -0.0004397068 -0.5744102 -0.448585
480976000.0 -0.5303885 -0.6138576 0.004307975 0.008672551 0.004486354 0.009140233 0.1199921 0.7336151
500975000.0 -0.3924739 0.6476636 0.005964378 -0.009341536 0.005320461 -0.00953776 0.4717413 -0.6301347
520974000.0 0.7161211 0.006445041 -0.01078432 0.001377325 -0.01089396 0.0009775496 -0.7718731 0.1241307
540973000.0 -0.1819111 -0.7379264 0.005977888 0.008515984 0.006630681 0.008568465 0.6490432 0.4758897
560972000.0 -0.676221 0.3767377 0.004813996 -0.009857048 0.00453976 -0.009654976 -0.06960396 -0.833828
580971000.0 0.61537 0.4308906 -0.011574 0.00241667 -0.01209308 0.002355371 -0.5483058 0.6047918
600970000.0 0.116239 -0.7771118 0.006898031 0.006807639 0.007254993 0.006463307 0.8013504 0.03599235
620969000.0 -0.7775816 0.06686038 0.004296163 -0.00854329 0.004306362 -0.008463585 -0.4024269 -0.6918483
640968000.0 0.2647819 0.7242715 -0.01121498 0.001179268 -0.01157172 0.001387289 -0.3392055 0.6984003
660967000.0 0.5655599 -0.5456986 0.005933384 0.008013519 0.006147056 0.007854088 0.7312964 -0.1777492
680966000.0 -0.6759481 -0.3594484 0.006129281 -0.009518205 0.006033421 -0.009628883 -0.5790161 -0.4425403
700965000.0 -0.145004 0.7234138 -0.01258274 0.001185764 -0.01261288 0.001358653 -0.003452136 0.7136324
720964000.0 0.7266712 -0.2095934 0.006104757 0.009975448 0.006380421 0.01010423 0.54798 -0.4657689
740963000.0 -0.472787 -0.5900447 0.006435561 -0.01347534 0.005775855 -0.01353319 -0.6753438 -0.0105019
760962000.0 -0.4841895 0.5513729 -0.01373964 0.00293374 -0.01416268 0.002671648 0.4757096 0.4784029
780961000.0 0.6767415 0.1935614 0.008352211 0.01132944 0.009207681 0.01109285 -0.0389991 -0.7350534
800960000.0 -0.09640051 -0.750269 0.00379066 -0.01522143 0.003933526 -0.01465797 -0.4960981 0.5278744
820959000.0 -0.7026984 0.2812407 -0.01293921 0.00403443 -0.0137352 0.00442599 0.7371869 -0.05005616
840958000.0 0.4721495 0.5459322 0.01027185 0.01032028 0.01064221 0.009364757 -0.543995 -0.5720573
860957000.0 0.2823878 -0.6848439 0.002160633 -0.01394539 0.00288769 -0.01393551 -0.1214181 0.7616967
880956000.0 -0.7419744 -0.07740302 -0.01241984 0.004458341 -0.01268164 0.005475638 0.5988353 -0.4363424
900955000.0 0.09036968 0.7241305 0.009135799 0.008266751 0.008918894 0.007846976 -0.7185366 -0.232554
920954000.0 0.6338362 -0.3634305 0.004196535 -0.01226518 0.004663738 -0.01263484 0.1354794 0.7352759
940953000.0 -0.5867712 -0.4169322 -0.01352491 0.003276967 -0.01341758 0.00408812 0.4850114 -0.4828459
960952000.0 -0.2155323 0.671673 0.008567395 0.01002515 0.008459357 0.009875593 -0.6623077 -0.07884612
980951000.0 0.7102942 0.0002055525 0.005854899 -0.0138463 0.005814638 -0.01443854 0.3689831 0.53837
1000950000.0 -0.1991576 -0.7058613 -0.01507832 0.003207396 -0.01502671 0.00370378 0.1168266 -0.6011965
1020949000.0 -0.5978835 0.3948239 0.009859094 0.01270276 0.01020182 0.01258716 -0.5396871 0.3512426
1040948000.0 0.584141 0.3620931 0.004886443 -0.01769084 0.004748536 -0.01780823 0.6034485 0.1468466
1060947000.0 0.07781333 -0.7195701 -0.01610502 0.005148343 -0.0164104 0.005840458 -0.3677898 -0.5191409
1080946000.0 -0.7261858 0.1302706 0.01380315 0.01212515 0.01377166 0.01135855 -0.08995378 0.6809164
1100945000.0 0.2986012 0.6459169 0.00142328 -0.01667234 0.001868592 -0.01714973 0.5459967 -0.392336
1120944000.0 0.4437404 -0.5414604 -0.0156819 0.005487638 -0.01560444 0.006827543 -0.7029177 -0.1513342
1140943000.0 -0.6798496 -0.1651832 0.01456027 0.00944139 0.0137719 0.009277749 0.273884 0.7015893
1160942000.0 0.03938471 0.7022147 0.001523002 -0.01438714 0.00151269 -0.01541829 0.3949983 -0.598316
1180941000.0 0.6866197 -0.2201647 -0.01536687 0.004614073 -0.01451886 0.005729929 -0.6998725 0.1055059
1200940000.0 -0.3787533 -0.6068152 0.01228897 0.01016687 0.01166838 0.01068177 0.5195922 0.4926838
1220939000.0 -0.4576772 0.5041239 0.004195733 -0.01564497 0.003610716 -0.01683733 0.07619642 -0.695074
1240938000.0 0.6317142 0.209439 -0.01673947 0.004945235 -0.01579866 0.00520864 -0.5856308 0.3330123
1260937000.0 -0.06440522 -0.6975991 0.01225269 0.01310511 0.01227035 0.01394796 0.5884509 0.2516331
1280936000.0 -0.6623418 0.2555774 0.004614983 -0.02060269 0.003139542 -0.02111344 -0.251249 -0.5783432
1300935000.0 0.4396923 0.5085987 -0.01749477 0.007214251 -0.01727086 0.007200658 -0.2056504 0.5788314
1320934000.0 0.2484203 -0.6286224 0.01692687 0.01425099 0.01759017 0.01434108 0.4958544 -0.3174937
1340933000.0 -0.7019669 -0.01928554 -0.002569437 -0.01949823 -0.002962158 -0.01955716 -0.638245 -0.1117237
1360932000.0 0.1455711 0.6788746 -0.01470683 0.006094479 -0.01461707 0.006530654 0.2708769 0.6088399
1380931000.0 0.5844156 -0.3586581 0.01730155 0.01365361 0.0171467 0.01365773 0.2512507 -0.5820766
1400930000.0 -0.5518448 -0.3915889 -0.001738465 -0.01740059 -0.002456832 -0.01798964 -0.6392721 0.2240851
1420929000.0 -0.196815 0.6319968 -0.01568935 0.005066419 -0.01503948 0.005684278 0.5496765 0.444812
1440928000.0 0.6755537 -0.0064019 0.01646616 0.0125135 0.01640929 0.01331924 0.02373216 -0.6750438
1460927000.0 -0.2075979 -0.6606561 0.001642563 -0.01785469 0.0003449874 -0.01845837 -0.5413297 0.4066021
1480926000.0 -0.555766 0.3669913 -0.01944776 0.006015788 -0.0183791 0.005716887 0.6460539 0.1812266
1500925000.0 0.529864 0.3488222 0.01736177 0.01268889 0.01850092 0.01374228 -0.3086511 -0.5609887
1520924000.0 0.09231409 -0.6574669 0.001894538 -0.02123281 0.000230397 -0.02077691 -0.2281907 0.6042233
1540923000.0 -0.6835374 0.098952 -0.0187397 0.009728347 -0.01895054 0.008733083 0.5781074 -0.1813668
1560922000.0 0.2582965 0.6174427 0.01627301 0.01326734 0.0179998 0.01318824 -0.5293306 -0.258567
1580921000.0 0.4583733 -0.4577721 0.001227394 -0.02607094 0.0003389678 -0.02480558 0.1954187 0.5687581
1600920000.0 -0.6129198 -0.2310778 -0.01688653 0.01315081 -0.01762237 0.01358157 0.191241 -0.515402
1620919000.0 -0.01999112 0.6594541 0.01731622 0.01095514 0.01805106 0.01001087 -0.5379916 0.2914811
1640918000.0 0.6353939 -0.1889195 -0.001325409 -0.02287888 -0.001302814 -0.02262521 0.5579557 0.3429397
1660917000.0 -0.4001946 -0.5210499 -0.01594939 0.01077749 -0.01604494 0.01143293 -0.0385035 -0.6039256
1680916000.0 -0.3353402 0.540465 0.01629607 0.01149862 0.01656819 0.01112719 -0.4452928 0.4535263
1700915000.0 0.6214167 0.1252339 0.0008747451 -0.02197845 0.000533337 -0.02220211 0.6564922 0.1580283
1720914000.0 -0.0787781 -0.6522537 -0.01826224 0.009378328 -0.01812606 0.00952024 -0.243606 -0.5987312
1740913000.0 -0.6143537 0.2423271 0.01655009 0.01390968 0.01733878 0.0141256 -0.3087098 0.5831076
1760912000.0 0.3857506 0.5006072 0.004108282 -0.02559844 0.002808192 -0.02519527 0.6402412 -0.1038989
1780911000.0 0.298342 -0.5347236 -0.02309415 0.01227529 -0.02371122 0.01187132 -0.5253104 -0.3415983
1800910000.0 -0.6275854 -0.07062953 0.02175468 0.01485003 0.02370568 0.01371693 0.1013566 0.6360791
1820909000.0 0.1379286 0.6233413 -0.0005372081 -0.03005196 -0.0005762786 -0.02842949 0.3531154 -0.4573449
1840908000.0 0.4923897 -0.3695441 -0.02230895 0.01760664 -0.02391119 0.01901355 -0.5604342 0.1622356
1860907000.0 -0.5447099 -0.281033 0.02633789 0.009334504 0.02610342 0.007045297 0.507755 0.3227921
1880906000.0 -0.112155 0.6191245 -0.006677275 -0.02432254 -0.005641562 -0.02462644 -0.1820802 -0.50581
1900905000.0 0.6353321 -0.04826432 -0.0175453 0.01510981 -0.01744819 0.01707493 -0.2632902 0.5516989
1920904000.0 -0.2338949 -0.5882412 0.0219453 0.008270055 0.02099648 0.00737814 0.6397497 0.005735043
1940903000.0 -0.4486846 0.4032305 -0.002446338 -0.02237752 -0.002045491 -0.02323194 -0.3325228 -0.4737028
1960902000.0 0.5384682 0.2084201 -0.02060439 0.01347435 -0.01984649 0.01488678 -0.1651006 0.5856397
1980901000.0 -0.04604146 -0.6144217 0.0222621 0.009126744 0.02162246 0.009247863 0.6065018 -0.1652763
2000900000.0 -0.6231983 0.1770882 2.786872e-05 -0.02236831 -0.0002925259 -0.02317218 -0.4847965 -0.3599026
2020899000.0 0.2701039 0.5525764 -0.025202 0.01069122 -0.02474575 0.01133026 -0.02116891 0.6351635
2040898000.0 0.3512697 -0.4465325 0.02809283 0.01485828 0.02846498 0.01473871 0.4753729 -0.3540685
2060897000.0 -0.5852492 -0.09631579 -0.003089242 -0.02985284 -0.003492034 -0.02978196 -0.579452 0.03441297
2080896000.0 0.07984363 0.6097913 -0.02643033 0.01813084 -0.02688566 0.01909623 0.4203936 0.4845254
2100895000.0 0.5393378 -0.2595965 0.0332087 0.01053964 0.03287136 0.009132396 0.07861111 -0.5392121
2120894000.0 -0.4562263 -0.3750902 -0.009464478 -0.03026814 -0.008964735 -0.03112677 -0.3345679 0.439092
2140893000.0 -0.1861584 0.5596427 -0.02202302 0.02420061 -0.02076141 0.02638678 0.592887 -0.04479871
2160892000.0 0.5829396 -0.01666189 0.03073744 0.001497183 0.0293958 0.001932115 -0.4161582 -0.3139858
2180891000.0 -0.2509438 -0.5413588 -0.0101899 -0.023528 -0.01116397 -0.02504824 0.05700413 0.5919402
2200890000.0 -0.4253124 0.4270314 -0.01731838 0.0200588 -0.01537048 0.02056369 0.520066 -0.3207457
2220889000.0 0.5154853 0.267235 0.0249255 0.004151243 0.024493 0.005310478 -0.5152161 -0.2005792
2240888000.0 0.06246989 -0.5753435 -0.005711282 -0.02362906 -0.007236579 -0.02479029 0.1399487 0.5852571
2260887000.0 -0.5841293 0.1362559 -0.01977195 0.01674904 -0.01831297 0.01647182 0.4392912 -0.3958496
2280886000.0 0.2883781 0.5204867 0.02574 0.01073958 0.02617083 0.0120343 -0.5587606 -0.06457102
2300885000.0 0.347259 -0.4465023 -0.004451904 -0.03059709 -0.006702214 -0.03078475 0.2668577 0.5686747
2320884000.0 -0.5588822 -0.1190561 -0.02479728 0.0196515 -0.02413054 0.01890177 0.2996771 -0.480416
2340883000.0 0.04736533 0.5881001 0.0368233 0.01351945 0.03848618 0.01363036 -0.4531098 0.2764128
2360882000.0 0.5274521 -0.2329387 -0.01692568 -0.03297234 -0.01756782 -0.03216556 0.5999925 0.1406839
2380881000.0 -0.4503667 -0.3390618 -0.02142143 0.02543713 -0.02136591 0.02582818 -0.2728277 -0.466548
2400880000.0 -0.1462622 0.5588607 0.04015218 0.0004111114 0.04022935 -0.0001671143 -0.09276515 0.5580459
2420879000.0 0.5787063 -0.01797516 -0.01766222 -0.02416682 -0.01838852 -0.02433861 0.5165327 -0.2762854
2440878000.0 -0.2284002 -0.5346351 -0.01777351 0.02639622 -0.01676622 0.02652886 -0.5088746 -0.07693887
2460877000.0 -0.4512377 0.3913707 0.03060793 -0.004711238 0.03148612 -0.004197284 0.3304643 0.4808159
2480876000.0 0.4747012 0.3368137 -0.01265648 -0.02130612 -0.01408588 -0.02115783 0.260371 -0.5218073
2500875000.0 0.1085541 -0.5403164 -0.01664885 0.02357558 -0.01583371 0.02281338 -0.5330049 0.1248666
2520874000.0 -0.5588593 0.1424035 0.02664413 0.0001977979 0.02810922 0.0002913495 0.4119159 0.4258482
2540873000.0 0.2821645 0.5275771 -0.008583548 -0.02442043 -0.0101025 -0.02378384 0.1648481 -0.5323108
2560872000.0 0.4030018 -0.4091967 -0.01888391 0.02302695 -0.01911828 0.02205154 -0.4755777 0.2436668
2580871000.0 -0.5371121 -0.1751708 0.02898765 0.005832626 0.03097355 0.005245712 0.5145888 0.3061165
2600870000.0 0.01528446 0.5787991 -0.01052975 -0.03264448 -0.01157212 -0.03084492 -0.02969769 -0.537648
2620869000.0 0.5407313 -0.1921146 -0.02056419 0.02721206 -0.02168273 0.027275 -0.2714546 0.4379436
2640868000.0 -0.4060716 -0.4084143 0.03933992 0.004686919 0.0403905 0.002202657 0.5596396 -0.1205495
2660867000.0 -0.2467261 0.5270928 -0.02382178 -0.02867629 -0.02318116 -0.02804712 -0.4607601 -0.1915939
2680866000.0 0.5526838 0.07139133 -0.01490296 0.02852741 -0.01483864 0.0296431 0.2414939 0.517549
2700865000.0 -0.1889102 -0.5231836 0.03674636 -0.004758628 0.0359439 -0.005961163 0.3400592 -0.4788302
2720864000.0 -0.4470657 0.3905717 -0.02017089 -0.02257342 -0.02034376 -0.02257393 -0.4888624 0.1171512
2740863000.0 0.4673476 0.3652969 -0.01298314 0.02894064 -0.0124369 0.0292429 0.4804658 0.2915561
2760862000.0 0.1987644 -0.5289407 0.02844133 -0.006782516 0.02884663 -0.007370587 -0.05471632 -0.5376951
2780861000.0 -0.5695323 0.03022798 -0.01465411 -0.02171341 -0.0152573 -0.02115454 -0.3455609 0.4026992
2800860000.0 0.1790388 0.5602078 -0.01345602 0.02615467 -0.01362915 0.02606008 0.5708875 0.1570273
2820859000.0 0.4782605 -0.3180364 0.02690676 -0.00053101 0.02762752 -0.001356723 -0.1165768 -0.5102852
2840858000.0 -0.48905 -0.2711671 -0.01294202 -0.02888954 -0.01312678 -0.02790965 -0.2339313 0.4344338
2860857000.0 -0.06912139 0.5633787 -0.0141048 0.02945613 -0.01507712 0.03022491 0.5647547 -0.05353965
2880856000.0 0.5588611 -0.09375261 0.03064901 0.000622777 0.03096547 -0.0009324905 -0.3469408 -0.3564652
2900855000.0 -0.3225136 -0.4582537 -0.01882897 -0.03059231 -0.01773407 -0.03027382 0.05452549 0.5087255
2920854000.0 -0.3001631 0.491414 -0.01340621 0.03148467 -0.01355191 0.0335245 0.41855 -0.379756
2940853000.0 0.5478919 0.1716879 0.03477034 -0.004611651 0.03351957 -0.005925577 -0.5021431 0.006624203
2960852000.0 -0.0305539 -0.5550869 -0.01951585 -0.0242884 -0.01938311 -0.02516153 0.4058907 0.3785925
2980851000.0 -0.5035146 0.2643846 -0.01444268 0.03261994 -0.01309944 0.03446567 0.0757767 -0.5589522
3000850000.0 0.2659552 0.5285894 0.031891 -0.004908554 0.03120616 -0.003647065 -0.4770935 0.2580477
3020849000.0 0.313901 -0.4741141 -0.01487358 -0.02308075 -0.01544238 -0.0235599 0.5584752 0.149978
3040848000.0 -0.5535662 -0.08262686 -0.01582045 0.03774131 -0.01409836 0.03832614 -0.1948148 -0.4765173
3060847000.0 0.07332141 0.5732119 0.02578196 -0.01110236 0.02576681 -0.01138005 -0.07582393 0.4955685
3080846000.0 0.5253005 -0.2032735 -0.01371533 -0.02467363 -0.01427395 -0.02439739 0.5217367 -0.2352244
3100845000.0 -0.4266102 -0.3417953 -0.009702234 0.03768292 -0.009380722 0.037768 -0.4205003 -0.2932521
3120844000.0 -0.1565831 0.5586302 0.02435897 -0.006668264 0.02421693 -0.007205442 0.05301305 0.5012484
3140843000.0 0.573433 0.07659495 -0.01286131 -0.0287724 -0.01283841 -0.02834872 0.421369 -0.3227597
3160842000.0 -0.1254985 -0.521552 -0.01124456 0.03714387 -0.01096413 0.03855351 -0.4510386 -0.0301366
3180841000.0 -0.3768864 0.4055649 0.03002539 -0.006575472 0.02936802 -0.007256847 0.3661635 0.3484201
3200840000.0 0.5136888 0.2683289 -0.023144 -0.02650982 -0.02271758 -0.02761492 0.07950924 -0.5229299
3220839000.0 0.1319685 -0.5443146 -0.007843181 0.03111037 -0.006450317 0.03220524 -0.3674988 0.3282911
3240838000.0 -0.5410565 0.1115155 0.03049176 -0.006035558 0.02942314 -0.005849522 0.54963 0.1423892
3260837000.0 0.2740216 0.505653 -0.02053376 -0.02352271 -0.02124604 -0.02497504 -0.1295451 -0.5336862
3280836000.0 0.4300095 -0.3705708 -0.01299295 0.03061947 -0.01117566 0.03112809 -0.2270615 0.4501113
3300835000.0 -0.4990513 -0.2126316 0.03460842 -0.007676989 0.03442803 -0.006483739 0.5718009 -0.07380164
3320834000.0 0.008161519 0.5630429 -0.02188005 -0.02481319 -0.02359148 -0.02547549 -0.3365006 -0.3938663
3340833000.0 0.5687855 -0.1037708 -0.01239858 0.0348987 -0.01124068 0.03438081 0.05712684 0.4637794
3360832000.0 -0.2477558 -0.4994945 0.03487006 -0.01045565 0.03581851 -0.01040481 0.3347166 -0.399743
3380831000.0 -0.3117371 0.4478201 -0.02716208 -0.02454542 -0.0281709 -0.02405045 -0.4472263 0.05648526
3400830000.0 0.5403029 0.1527301 -0.004529221 0.03328151 -0.004405997 0.03354619 0.3861309 0.2948669
3420829000.0 -0.009097289 -0.549643 0.03155022 -0.008930302 0.03178036 -0.009686498 0.05925248 -0.5135679
3440828000.0 -0.462417 0.2719648 -0.0280312 -0.02226019 -0.02849949 -0.02228001 -0.3612432 0.2741459
3460827000.0 0.4465458 0.3552541 -0.004170361 0.0296615 -0.003392867 0.03022686 0.48479 0.1080462
3480826000.0 0.2807882 -0.5053825 0.031903 -0.007926383 0.03135485 -0.008043586 -0.2073723 -0.4455943
3500825000.0 -0.5373659 -0.09769039 -0.02645211 -0.01980572 -0.02787802 -0.02046853 -0.08669873 0.4651839
3520824000.0 0.1276804 0.5339449 -0.006171284 0.02754568 -0.004609576 0.02747301 0.521783 -0.2055867
3540823000.0 0.509641 -0.2550443 0.03095876 -0.006174891 0.03080151 -0.005202368 -0.4050383 -0.3583913
3560822000.0 -0.389405 -0.3907466 -0.02229529 -0.0234926 -0.02444123 -0.02375014 0.01290963 0.5050556
3580821000.0 -0.1694759 0.5178543 -0.01103074 0.03046435 -0.009577995 0.02957957 0.4816276 -0.3093627
3600820000.0 0.5638425 0.04326003 0.03417892 -0.005446518 0.03544842 -0.004346002 -0.473708 -0.2347438
3620819000.0 -0.09329689 -0.5365352 -0.0240868 -0.03198726 -0.02672249 -0.03112242 0.1820022 0.4327707
3640818000.0 -0.3904506 0.3522736 -0.007780961 0.0440296 -0.008372901 0.04258061 0.1798076 -0.4598635
3660817000.0 0.502481 0.2702657 0.03380349 -0.01451984 0.03512235 -0.01573593 -0.3317056 0.2574083
3680816000.0 0.2252643 -0.5284582 -0.03116062 -0.02664034 -0.03166995 -0.02527296 0.4679874 -0.007655607
3700815000.0 -0.5188441 -0.02805817 0.001670685 0.03855854 0.001747229 0.03909 -0.3050815 -0.361908
3720814000.0 0.2670363 0.4524311 0.02909685 -0.01411801 0.02889997 -0.01489918 -0.0002463224 0.4612887
3740813000.0 0.3868031 -0.4107921 -0.02892176 -0.02102995 -0.02913091 -0.02093028 0.4705541 -0.2483607
3760812000.0 -0.4818959 -0.2704078 -0.0009304154 0.03221548 -0.0002844472 0.03236509 -0.4069032 -0.2762109
3780811000.0 -0.05176686 0.5323215 0.02896195 -0.01039784 0.02916056 -0.01025965 0.1530244 0.4370764
3800810000.0 0.5348136 -0.1113786 -0.02630797 -0.02201743 -0.02789283 -0.02191415 0.3382915 -0.4312053
3820809000.0 -0.2462026 -0.4819004 -0.003933932 0.03134445 -0.003528418 0.03057755 -0.5060049 -0.07548552
3840808000.0 -0.3186113 0.431097 0.02940716 -0.007495239 0.03068968 -0.007173777 0.2778325 0.4175067
3860807000.0 0.5290482 0.1775161 -0.02225229 -0.02641715 -0.02436297 -0.02524793 0.2954249 -0.4836737
