! Created with skrf 1.9.0 (http://scikit-rf.org).
# Hz S RI R 50.0 
!freq ReS11 ImS11 ReS21 ImS21 ReS12 ImS12 ReS22 ImS22
1000000.0 1.046002 -0.06816342 3.599535e-06 -2.469464e-06 1.731583e-06 3.139338e-06 0.7998047 -0.559413
20999000.0 0.6350647 -0.674765 0.000301688 3.891448e-05 0.0002930387 3.662861e-05 -0.3764128 -0.8112834
40998000.0 -0.4800084 -0.6257665 -0.000224199 -0.0008227901 -0.0002236785 -0.0008547484 -0.2434348 0.8498921
60997000.0 0.796443 0.3740778 -0.0001677301 0.001837911 -0.0001062733 0.001829933 0.800775 -0.3867399
80996000.0 0.2922139 -0.8677082 0.001304733 -0.0008697077 0.001348928 -0.0008657525 -0.8459271 -0.1883807
100995000.0 -0.7527784 -0.3443071 -0.001502351 -0.001403373 -0.001638184 -0.001404267 0.3566255 0.7713149
120994000.0 0.4050875 0.7437065 8.173114e-05 0.003446964 8.662049e-05 0.003365759 0.3497373 -0.7402059
140993000.0 0.4760489 -0.7670594 0.002181423 -0.00199258 0.002304015 -0.002108306 -0.7492738 0.3026234
160992000.0 -0.6986253 -0.4664783 -0.002915692 -0.001685554 -0.003006579 -0.001518425 0.7191729 0.3772416
180991000.0 -0.1015633 0.8273271 0.0003501044 0.004569153 0.0002385035 0.004568111 -0.2152569 -0.7613003
200990000.0 0.7865525 -0.4582104 0.003476428 -0.003267532 0.003502342 -0.003575037 -0.3976891 0.7053187
220989000.0 -0.5269503 -0.6673155 -0.004800276 -0.001564348 -0.004707527 -0.001408034 0.8360326 -0.1375955
240988000.0 -0.3858329 0.689796 0.001341198 0.005832693 0.001305719 0.00603154 -0.696049 -0.471964
260987000.0 0.8663709 -0.1594694 0.003849437 -0.00536608 0.003612149 -0.005570059 0.187972 0.8324258
280986000.0 -0.2998028 -0.8193582 -0.005785103 -0.0003406261 -0.005773742 -0.0003507123 0.5616119 -0.6898257
300985000.0 -0.683937 0.3958318 0.002130143 0.006084011 0.002273111 0.006177919 -0.8542505 0.06388354
320984000.0 0.6813836 0.1851163 0.003245478 -0.00632111 0.003139974 -0.006374965 0.599471 0.5805833
340983000.0 0.07725894 -0.7135159 -0.006009022 -0.0004435682 -0.00610008 -0.0003524987 0.1084176 -0.8285075
360982000.0 -0.7959546 0.1317216 0.002737378 0.005930327 0.002869054 0.005890287 -0.6460473 0.4832171
380981000.0 0.3533186 0.711889 0.004835405 -0.00588398 0.004887835 -0.006111789 0.7316542 0.3108506
400980000.0 0.4618322 -0.6859373 -0.007632397 -0.0005118115 -0.007602741 -0.0003819178 -0.1600413 -0.7486123
420979000.0 -0.7523772 -0.2672836 0.002704154 0.007240536 0.002669912 0.007409459 -0.4185147 0.6156036
440978000.0 -0.03266369 0.7896823 0.005976465 -0.007040282 0.005762915 -0.007514635 0.7443283 -0.1136927
460977000.0 0.7665662 -0.3338101 -0.009717919 -0.0004132185 -0.009466182 -0.0004309252 -0.5730565 -0.4438673
480976000.0 -0.5299569 -0.6120337 0.004309673 0.008624456 0.004479861 0.009088536 0.1231774 0.7292648
500975000.0 -0.390417 0.6469897 0.00591474 -0.009310169 0.005274506 -0.009498751 0.4661438 -0.6296062
520974000.0 0.7144625 0.005414296 -0.01072734 0.001395293 -0.01083581 0.0009886374 -0.7677957 0.1276069
540973000.0 -0.1827326 -0.7362913 0.005967457 0.008458648 0.006607721 0.008507745 0.64876 0.4708105
560972000.0 -0.6741315 0.3770266 0.004767899 -0.009821564 0.004500015 -0.009612314 -0.0733119 -0.8299156
580971000.0 0.6148448 0.4288878 -0.0115019 0.002440801 -0.01201484 0.002367098 -0.5428311 0.6047343
600970000.0 0.1149972 -0.7760245 0.006871925 0.006751353 0.007218828 0.006417132 0.798124 0.03217429
620969000.0 -0.7762602 0.06769108 0.004250215 -0.00851294 0.004270079 -0.008426731 -0.403436 -0.6872069
640968000.0 0.2650083 0.7226251 -0.01114538 0.001202507 -0.01149376 0.001394317 -0.3350191 0.6961905
660967000.0 0.5640168 -0.5450191 0.005914642 0.007957521 0.006117357 0.007802143 0.726673 -0.1789912
680966000.0 -0.6748829 -0.3580584 0.006073138 -0.009488464 0.00598414 -0.00958675 -0.5768071 -0.4379286
700965000.0 -0.1438833 0.7217659 -0.01251258 0.001220394 -0.01253942 0.001374699 -0.000569621 0.7089867
720964000.0 0.724342 -0.2103321 0.00610067 0.009909153 0.006365383 0.01003551 0.5419483 -0.4651157
740963000.0 -0.4727717 -0.5879095 0.006350025 -0.01341141 0.005706253 -0.01346003 -0.670465 -0.006937733
760962000.0 -0.4821523 0.550823 -0.01365384 0.002943759 -0.01406945 0.00267711 0.4753253 0.4724663
780961000.0 0.6755466 0.1920802 0.008333859 0.01124915 0.009169508 0.01100927 -0.04286512 -0.7304189
800960000.0 -0.09721015 -0.7488925 0.003729996 -0.01514856 0.003886708 -0.01458755 -0.4899614 0.5277194
820959000.0 -0.7008958 0.2814377 -0.01286297 0.004052982 -0.01364442 0.004436906 0.7329518 -0.05445983
840958000.0 0.4718099 0.5437928 0.01024643 0.01022153 0.01059562 0.009275235 -0.5444365 -0.5663664
860957000.0 0.2808858 -0.6836263 0.002111748 -0.01386137 0.002834565 -0.01384377 -0.1170092 0.7581118
880956000.0 -0.7405538 -0.07650933 -0.01233166 0.004460613 -0.01257745 0.005458272 0.5934531 -0.436578
900955000.0 0.09082647 0.7225394 0.009103092 0.008197462 0.00887669 0.007785895 -0.7157039 -0.2286087
920954000.0 0.6317819 -0.3632567 0.004138172 -0.01221075 0.004602254 -0.0125702 0.1373403 0.7306688
940953000.0 -0.5858169 -0.4153228 -0.01343311 0.003310347 -0.01332227 0.004097693 0.4798705 -0.4813884
960952000.0 -0.2143061 0.6705557 0.008548029 0.009944766 0.008434162 0.009799599 -0.6577105 -0.07522464
980951000.0 0.7084938 -0.0005928027 0.005762717 -0.01377378 0.005731755 -0.01434649 0.3683771 0.5320655
1000950000.0 -0.199444 -0.7040209 -0.01496136 0.003226528 -0.01490953 0.003707368 0.112508 -0.5965728
1020949000.0 -0.5957978 0.3948881 0.009836482 0.01258581 0.01017843 0.0124728 -0.5330359 0.3515814
1040948000.0 0.5833613 0.360055 0.004790895 -0.01757992 0.004662743 -0.01769994 0.5994654 0.1418412
1060947000.0 0.07635652 -0.7181512 -0.01597746 0.00514852 -0.01628405 0.005848353 -0.3689119 -0.5127959
1080946000.0 -0.7245226 0.1309892 0.01373944 0.01199643 0.01370986 0.01124389 -0.08535521 0.6769479
1100945000.0 0.2988153 0.6441986 0.001380987 -0.01656011 0.001816024 -0.01703904 0.5406089 -0.3926378
1120944000.0 0.4421233 -0.540678 -0.01557428 0.005493077 -0.0154905 0.006825447 -0.699623 -0.1471981
1140943000.0 -0.6784713 -0.1640762 0.01448586 0.009346678 0.0137079 0.009189123 0.2751448 0.6963804
1160942000.0 0.04023308 0.7005973 0.001479345 -0.01430905 0.00145925 -0.01533599 0.3898946 -0.5959575
1180941000.0 0.6848515 -0.2204396 -0.01524339 0.004638174 -0.0144039 0.005739243 -0.6944937 0.1079206
1200940000.0 -0.3784646 -0.6049717 0.01223691 0.0100603 0.01162707 0.01057702 0.5178459 0.4869342
1220939000.0 -0.4558628 0.503364 0.004113797 -0.01556174 0.00352751 -0.01674205 0.07269587 -0.6898259
1240938000.0 0.630277 0.2081083 -0.01660327 0.0049643 -0.0156775 0.005222287 -0.5791445 0.3328373
1260937000.0 -0.06503388 -0.6957973 0.01222169 0.01298321 0.01224649 0.01381393 0.5842374 0.2458314
1280936000.0 -0.6603427 0.2556797 0.004481071 -0.02046941 0.003027688 -0.02097479 -0.2528379 -0.5704247
1300935000.0 0.4391768 0.5065635 -0.01733707 0.007204489 -0.01711928 0.007200893 -0.1991236 0.5744395
1320934000.0 0.2467256 -0.6272197 0.01685044 0.01407149 0.01750661 0.01415596 0.4887301 -0.3185382
1340933000.0 -0.7002028 -0.01833539 -0.002578242 -0.01931998 -0.002972536 -0.01938952 -0.6343623 -0.1070359
1360932000.0 0.1461009 0.6769596 -0.01459568 0.006080625 -0.01450546 0.006519133 0.2718248 0.6035961
1380931000.0 0.5823151 -0.3582978 0.0172054 0.01349236 0.01705936 0.01349564 0.246976 -0.5789959
1400930000.0 -0.5506632 -0.3899649 -0.001743368 -0.01727782 -0.002460479 -0.01786049 -0.6344237 0.2251223
1420929000.0 -0.1957509 0.6305254 -0.01557208 0.005094645 -0.0149287 0.005704355 0.5474427 0.4403056
1440928000.0 0.6737715 -0.006847448 0.01638027 0.01238381 0.0163313 0.01318095 0.02140576 -0.6699235
1460927000.0 -0.2074263 -0.6586484 0.001608967 -0.01775609 0.0003155131 -0.01835305 -0.5353122 0.40526
1480926000.0 -0.5536871 0.3663605 -0.01929153 0.006073949 -0.01824383 0.005770481 0.640792 0.1767446
1500925000.0 0.5284981 0.3468399 0.01728978 0.01253996 0.0184296 0.01356696 -0.3086211 -0.5536574
1520924000.0 0.09096316 -0.6554046 0.001780761 -0.021097 0.0001514431 -0.02063943 -0.222472 0.5996751
1540923000.0 -0.6812373 0.09955322 -0.01853621 0.009732413 -0.01875506 0.008756863 0.5706137 -0.183085
1560922000.0 0.2583166 0.615081 0.01620509 0.01309722 0.01790769 0.01301364 -0.5256304 -0.2512899
1580921000.0 0.4561099 -0.4567641 0.001089227 -0.02582855 0.0002202112 -0.02459328 0.1980247 0.5610389
1600920000.0 -0.6111254 -0.2295104 -0.01670321 0.01305185 -0.0174231 0.0134897 0.1849106 -0.5117345
1620919000.0 -0.0190691 0.6573886 0.01719719 0.01082343 0.01793222 0.009886942 -0.5324644 0.2927318
1640918000.0 0.6328826 -0.1888823 -0.001358978 -0.02268033 -0.001341773 -0.0224294 0.5555245 0.3388212
1660917000.0 -0.3994149 -0.5185978 -0.0158111 0.01071825 -0.01590483 0.01137251 -0.0397654 -0.5994682
1680916000.0 -0.3333542 0.5389275 0.01620909 0.01138173 0.01648719 0.0110095 -0.4411298 0.4514587
1700915000.0 0.6192811 0.1237785 0.0008189316 -0.02182528 0.0004692009 -0.02204518 0.6521225 0.1556351
1720914000.0 -0.07939392 -0.6498433 -0.01811933 0.009374502 -0.01799005 0.009519915 -0.2428922 -0.5931288
1740913000.0 -0.61214 0.2422052 0.01649147 0.01375845 0.01728115 0.01396582 -0.304082 0.5787975
1760912000.0 0.3848356 0.4980789 0.003968062 -0.02543292 0.002687057 -0.0250192 0.6330333 -0.1052485
1780911000.0 0.2962641 -0.5328861 -0.02286368 0.01227453 -0.02348556 0.01189026 -0.5210538 -0.3345962
1800910000.0 -0.6250193 -0.06919383 0.02167438 0.01465098 0.02358732 0.01352218 0.1040313 0.6280167
1820909000.0 0.1387106 0.6202188 -0.0007009728 -0.02978123 -0.0007193757 -0.02819372 0.3448061 -0.4540713
1840908000.0 0.4890007 -0.3690664 -0.02202373 0.01754847 -0.02358289 0.01895519 -0.5525806 0.1657796
1860907000.0 -0.5430056 -0.2782186 0.02612265 0.009121721 0.0258802 0.006876182 0.504959 0.3153186
1880906000.0 -0.110261 0.6168541 -0.006673196 -0.0240601 -0.005663826 -0.02437107 -0.1842062 -0.499354
1900905000.0 0.632585 -0.04948362 -0.01734788 0.01501116 -0.01724035 0.01695577 -0.2588258 0.5493764
1920904000.0 -0.233938 -0.585122 0.02176937 0.008151486 0.02083922 0.007272225 0.6356771 0.004102079
1940903000.0 -0.4456925 0.4020949 -0.002468944 -0.02220562 -0.002083439 -0.02305514 -0.3308626 -0.4696426
1960902000.0 0.536238 0.2059429 -0.0203965 0.01345074 -0.01963997 0.01484765 -0.1630441 0.581733
1980901000.0 -0.04740254 -0.6115295 0.02212172 0.009001554 0.02149671 0.009114614 0.6016047 -0.1645583
2000900000.0 -0.6201158 0.177782 -5.66038e-05 -0.02222539 -0.0003754725 -0.02301538 -0.4808936 -0.3557993
2020899000.0 0.2702879 0.5489756 -0.02495751 0.01074879 -0.02450495 0.01138718 -0.01969035 0.6288552
2040898000.0 0.3473613 -0.445214 0.02789247 0.01458698 0.02825708 0.01444969 0.4680175 -0.3506308
2060897000.0 -0.5823993 -0.09353744 -0.003177709 -0.02959392 -0.00357401 -0.02953226 -0.5714985 0.03750061
2080896000.0 0.0816409 0.6064162 -0.02609958 0.01811283 -0.02653008 0.01907711 0.4181098 0.4765272
2100895000.0 0.5353547 -0.260197 0.0329376 0.01027739 0.03259189 0.008900841 0.07349934 -0.5318002
2120894000.0 -0.4551446 -0.3711454 -0.009503281 -0.02993399 -0.009023443 -0.03079463 -0.3261459 0.4372383
2140893000.0 -0.1829049 0.5573979 -0.02167357 0.02403204 -0.02040554 0.02617231 0.5865213 -0.04876098
2160892000.0 0.5796354 -0.01926808 0.03039952 0.001382798 0.02909471 0.001819481 -0.4145305 -0.3082391
2180891000.0 -0.2521948 -0.5370573 -0.0101507 -0.02327845 -0.01112567 -0.02477154 0.05933964 0.5879174
2200890000.0 -0.4212142 0.4265388 -0.01708879 0.01990261 -0.01516194 0.02040648 0.5160266 -0.3197411
2220889000.0 0.5137667 0.2635805 0.02470149 0.004043546 0.02428866 0.005190737 -0.5116094 -0.1985153
2240888000.0 0.05962912 -0.5724868 -0.005738479 -0.02338866 -0.007249349 -0.02452503 0.1394108 0.580888
2260887000.0 -0.580548 0.1379477 -0.0195547 0.01666752 -0.01811445 0.01639657 0.43549 -0.3923222
2280886000.0 0.2888942 0.5163081 0.02557298 0.0105339 0.02601227 0.01180295 -0.5530768 -0.06343973
2300885000.0 0.3427611 -0.4453784 -0.00456857 -0.03027878 -0.006791304 -0.03045689 0.264939 0.5623649
2320884000.0 -0.5562887 -0.1154311 -0.02446257 0.01961035 -0.02381525 0.01887591 0.2943475 -0.4737263
2340883000.0 0.05043501 0.5844495 0.03649285 0.01310638 0.03811532 0.01319525 -0.4434323 0.2749458
2360882000.0 0.5226252 -0.2348151 -0.01683384 -0.03251442 -0.01746878 -0.03170949 0.5926639 0.1351185
2380881000.0 -0.4495978 -0.3340907 -0.02108814 0.02526295 -0.02102824 0.02564766 -0.2719541 -0.4582611
2400880000.0 -0.142555 0.5566182 0.03963267 0.0002244743 0.03971689 -0.000341413 -0.08764361 0.5527046
2420879000.0 0.5755678 -0.02067335 -0.01751134 -0.02385929 -0.01822712 -0.02401455 0.5096117 -0.2764917
2440878000.0 -0.2295038 -0.5307946 -0.01748454 0.02616887 -0.01649173 0.02628724 -0.50442 -0.07317486
2460877000.0 -0.4474392 0.3910911 0.03023115 -0.004721903 0.03111115 -0.004229018 0.3299546 0.476367
2480876000.0 0.4736198 0.3328825 -0.0125704 -0.02105368 -0.01398399 -0.02091082 0.2578402 -0.5184982
2500875000.0 0.1051971 -0.5375255 -0.01641423 0.02339119 -0.01562001 0.02264924 -0.5288206 0.1243376
2520874000.0 -0.5551149 0.1443705 0.02638615 9.377734e-05 0.02783237 0.000169025 0.4088914 0.4224857
2540873000.0 0.2831435 0.523577 -0.008606072 -0.02416763 -0.01010395 -0.02353592 0.1636065 -0.5271965
2560872000.0 0.3984816 -0.4087772 -0.01858879 0.02286196 -0.01881926 0.02190967 -0.4697934 0.2415009
2580871000.0 -0.5348114 -0.1714204 0.0287147 0.005614587 0.03066333 0.005011839 0.5091224 0.301664
2600870000.0 0.0179205 0.5755646 -0.01059835 -0.03217703 -0.01161413 -0.03040532 -0.03040987 -0.5290005
2620869000.0 0.5366747 -0.193671 -0.02020774 0.02695886 -0.02128998 0.02704525 -0.2638623 0.4323178
2640868000.0 -0.4057701 -0.4040458 0.03882365 0.004409545 0.03983901 0.001955632 0.5496235 -0.1221151
2660867000.0 -0.2430655 0.5251832 -0.0235045 -0.02820473 -0.02287763 -0.02759231 -0.4546833 -0.1850245
2680866000.0 0.5497775 0.068381 -0.01467648 0.0282124 -0.01459806 0.02931139 0.2422295 0.5109117
2700865000.0 -0.1904132 -0.5193545 0.03624464 -0.004765836 0.03545123 -0.005958468 0.3351347 -0.4756145
2720864000.0 -0.4436265 0.3902274 -0.01995937 -0.02230039 -0.02013191 -0.02229373 -0.4838449 0.1177873
2740863000.0 0.4661797 0.3622108 -0.0127856 0.02861834 -0.01223964 0.02892731 0.4776434 0.2881239
2760862000.0 0.1962236 -0.5266025 0.02813115 -0.0067276 0.02852147 -0.007315646 -0.05474669 -0.5333549
2780861000.0 -0.5665426 0.0314548 -0.01452894 -0.02147957 -0.01513121 -0.02093942 -0.3424092 0.399752
2800860000.0 0.1795956 0.5570052 -0.01321727 0.02592197 -0.01337778 0.02584506 0.5662921 0.1557255
2820859000.0 0.4744789 -0.317819 0.02662805 -0.0005962687 0.02733769 -0.001423084 -0.1147458 -0.5045021
2840858000.0 -0.4871949 -0.2675423 -0.01297047 -0.02850756 -0.01317716 -0.02755013 -0.2298264 0.4287621
2860857000.0 -0.06647242 0.5605927 -0.01381615 0.02913846 -0.01476646 0.02989503 0.5565949 -0.05461403
2880856000.0 0.5555685 -0.09556051 0.03025658 0.0004609731 0.03057694 -0.001032855 -0.3421158 -0.3483688
2900855000.0 -0.3224096 -0.4545284 -0.01864244 -0.03006256 -0.01762654 -0.02975435 0.05782 0.499798
2920854000.0 -0.2972875 0.4897113 -0.0131436 0.03104109 -0.01327597 0.03302189 0.4095756 -0.3764443
2940853000.0 0.5455008 0.1700472 0.03422322 -0.00464386 0.0330511 -0.005932547 -0.4940942 0.009486712
2960852000.0 -0.03141453 -0.552043 -0.01923139 -0.02397667 -0.01908687 -0.02482764 0.4030282 0.3725615
2980851000.0 -0.5006241 0.2637691 -0.0142475 0.03218665 -0.01292576 0.03400017 0.07384674 -0.5533367
3000850000.0 0.2655374 0.5257638 0.03152131 -0.004793022 0.03085419 -0.003544192 -0.4724841 0.2565209
3020849000.0 0.3114904 -0.4721324 -0.01475652 -0.02284635 -0.01531302 -0.02334115 0.5544412 0.1485075
3040848000.0 -0.5508496 -0.0812005 -0.01555999 0.03730742 -0.01386307 0.03788972 -0.1927425 -0.4719602
3060847000.0 0.0738485 0.5703564 0.02552106 -0.01098196 0.0255042 -0.01125395 -0.07448784 0.4905288
3080846000.0 0.5221535 -0.2030459 -0.01366741 -0.02439431 -0.01421105 -0.02411363 0.5166946 -0.2334222
3100845000.0 -0.4247214 -0.3391746 -0.009469328 0.03721185 -0.009073945 0.03735017 -0.4154636 -0.2892593
3120844000.0 -0.1552018 0.5563581 0.02408723 -0.006708811 0.02399841 -0.007220934 0.05402066 0.4939889
3140843000.0 0.57079 0.07569527 -0.01288237 -0.02830529 -0.01287073 -0.02789979 0.4128479 -0.3193014
3160842000.0 -0.1253933 -0.5182921 -0.01091929 0.03662274 -0.01063522 0.03799279 -0.4413369 -0.02576115
3180841000.0 -0.3742578 0.4039867 0.02958408 -0.006602437 0.02893209 -0.007256025 0.363347 0.3388919
3200840000.0 0.5116726 0.266574 -0.02279216 -0.02597339 -0.02239146 -0.02705335 0.07439869 -0.5145507
3220839000.0 0.1308843 -0.5418348 -0.007765019 0.03061614 -0.00639143 0.03168895 -0.3597981 0.3257694
3240838000.0 -0.5384012 0.1111252 0.03006394 -0.005937402 0.02900689 -0.005752589 0.5444908 0.1390441
3260837000.0 0.2726339 0.5035595 -0.02019384 -0.02325094 -0.02089647 -0.02466173 -0.1283338 -0.5280499
3280836000.0 0.4283212 -0.3685572 -0.01289243 0.03022012 -0.01110207 0.03072455 -0.2248515 0.4455793
3300835000.0 -0.4962596 -0.2120443 0.03422945 -0.007512304 0.03405474 -0.006354853 0.5673263 -0.07272527
3320834000.0 0.007696462 0.5604373 -0.02165139 -0.02457293 -0.02332819 -0.02524073 -0.3324475 -0.3906959
3340833000.0 0.5662463 -0.1030458 -0.01222442 0.03460669 -0.01108914 0.03410259 0.05662083 0.4581539
3360832000.0 -0.2463951 -0.4969739 0.03450494 -0.01037755 0.03542119 -0.01034659 0.3300802 -0.3953064
3380831000.0 -0.3101362 0.4454298 -0.02691413 -0.02420232 -0.02793022 -0.02371581 -0.4398978 0.05644058
3400830000.0 0.5377484 0.1521188 -0.004392648 0.03289071 -0.004247282 0.03316168 0.3821322 0.2886148
3420829000.0 -0.008724239 -0.5468633 0.03110893 -0.008927326 0.0313472 -0.009662235 0.05570129 -0.5052433
3440828000.0 -0.4604468 0.2699214 -0.027679 -0.02188145 -0.02815925 -0.02190121 -0.3520427 0.2715133
3460827000.0 0.4437169 0.354427 -0.004051486 0.02922456 -0.003267701 0.02977903 0.4776463 0.1018507
3480826000.0 0.2806462 -0.5026395 0.03133434 -0.007845121 0.03081637 -0.007957424 -0.2067833 -0.4355242
3500825000.0 -0.5345582 -0.09859569 -0.0259667 -0.01954657 -0.02738106 -0.02018121 -0.0817866 0.4586826
3520824000.0 0.1259183 0.5317065 -0.006141741 0.02712329 -0.004611733 0.02707843 0.5155501 -0.2050028
3540823000.0 0.5078084 -0.2530125 0.03055484 -0.005995306 0.03039167 -0.00506115 -0.4005339 -0.354824
3560822000.0 -0.3866132 -0.3896483 -0.02193872 -0.02329371 -0.02406471 -0.02354563 0.01197414 0.5000355
3580821000.0 -0.1698558 0.5149433 -0.01099762 0.03009928 -0.00955289 0.02924133 0.4783606 -0.3057038
3600820000.0 0.5611879 0.04451385 0.03386971 -0.005289596 0.0351123 -0.004180967 -0.4680825 -0.2345086
3620819000.0 -0.09122236 -0.5341821 -0.02386755 -0.03164582 -0.02645616 -0.0308019 0.1791243 0.4281819
3640818000.0 -0.3893395 0.3490865 -0.007658362 0.04355977 -0.008219115 0.04214935 0.1767686 -0.4535732
3660817000.0 0.4995184 0.2703855 0.03343485 -0.01443872 0.03472947 -0.01562791 -0.3241133 0.2539818
3680816000.0 0.2256537 -0.5256244 -0.03085331 -0.0262017 -0.03136621 -0.02487156 0.4602265 -0.01087652
3700815000.0 -0.515973 -0.02945115 0.001675903 0.0380246 0.001781038 0.03852408 -0.3016683 -0.3533221
3720814000.0 0.2643739 0.4506392 0.02870268 -0.01396967 0.02852358 -0.01473843 0.003372788 0.4535575
3740813000.0 0.3859561 -0.4078602 -0.0285359 -0.02068518 -0.02875468 -0.02058428 0.4625412 -0.2477034
3760812000.0 -0.4788034 -0.2706409 -0.0009331306 0.03174906 -0.0002907616 0.03189298 -0.4011488 -0.2693668
3780811000.0 -0.05350493 0.5295321 0.02855906 -0.01023033 0.02876589 -0.01011113 0.1536779 0.4290301
3800810000.0 0.5326192 -0.1087301 -0.02586015 -0.02174629 -0.02741905 -0.0216354 0.3328243 -0.4273286
3820809000.0 -0.2427287 -0.4804708 -0.004001489 0.03092526 -0.003579295 0.03019026 -0.499925 -0.07456253
3840808000.0 -0.3186233 0.4276412 0.02911623 -0.007306705 0.03037399 -0.006991155 0.2746349 0.4134101
3860807000.0 0.5259366 0.1783936 -0.0219569 -0.02619932 -0.0240466 -0.02505296 0.2941275 -0.4786398
