! Created with skrf 1.9.0 (http://scikit-rf.org).
# Hz S RI R 50.0 
!freq ReS11 ImS11 ReS21 ImS21 ReS12 ImS12 ReS22 ImS22
1000000.0 1.04596 -0.06830014 5.56361e-06 -5.269966e-06 4.374777e-06 1.979623e-06 0.7999147 -0.5595966
20999000.0 0.6350566 -0.6747977 0.0003034267 3.72405e-05 0.0002935478 3.437268e-05 -0.3763932 -0.8109554
40998000.0 -0.480005 -0.6254746 -0.0002302402 -0.000823186 -0.0002232631 -0.000856032 -0.2430923 0.8496381
60997000.0 0.7960824 0.3735667 -0.0001688616 0.001829306 -0.0001061479 0.001826309 0.8002814 -0.3870649
80996000.0 0.2918901 -0.8675181 0.001303709 -0.0008716126 0.001349894 -0.0008628024 -0.8459373 -0.187805
100995000.0 -0.752655 -0.3437203 -0.001499214 -0.001402052 -0.001635495 -0.001402837 0.3569969 0.7711183
120994000.0 0.405398 0.7429588 8.226136e-05 0.003439744 8.638253e-05 0.003361255 0.3492483 -0.7404046
140993000.0 0.4755988 -0.7668671 0.002177042 -0.001990522 0.002299431 -0.002107332 -0.7490324 0.3033547
160992000.0 -0.6984303 -0.4659803 -0.00291295 -0.001682979 -0.003002991 -0.001512934 0.7193875 0.376393
180991000.0 -0.1009791 0.8267909 0.0003523296 0.004557959 0.000240616 0.00455795 -0.2160138 -0.7606131
200990000.0 0.7857486 -0.458394 0.00346639 -0.003262583 0.003492758 -0.003570102 -0.3968493 0.7053555
220989000.0 -0.5269327 -0.6664768 -0.004792573 -0.001555728 -0.004699673 -0.001401038 0.8353484 -0.1381069
240988000.0 -0.3847153 0.6893979 0.00134475 0.005818632 0.001309642 0.00601679 -0.6957229 -0.4706937
260987000.0 0.8653935 -0.1600787 0.003834061 -0.005356144 0.003596906 -0.005557992 0.1887626 0.8310605
280986000.0 -0.2999848 -0.8185506 -0.005769648 -0.000333172 -0.005757573 -0.0003443892 0.5599234 -0.6895252
300985000.0 -0.6830752 0.3959422 0.002125899 0.006066997 0.002272211 0.006158347 -0.852882 0.06469634
320984000.0 0.6807266 0.1847331 0.003235823 -0.006303796 0.003130057 -0.0063552 0.5990858 0.5794439
340983000.0 0.07694019 -0.7130802 -0.005994412 -0.0004420668 -0.006086335 -0.0003490541 0.1077649 -0.8275651
360982000.0 -0.7952743 0.1318203 0.002733989 0.005917259 0.002863518 0.005877373 -0.6448125 0.4831782
380981000.0 0.3533704 0.7108924 0.004819143 -0.005874261 0.004871944 -0.006100304 0.7311049 0.3097377
400980000.0 0.4608586 -0.6854301 -0.007611019 -0.0005055031 -0.007581973 -0.0003765493 -0.1606145 -0.7475333
420979000.0 -0.7517543 -0.2665517 0.002702741 0.007222413 0.002667468 0.007387471 -0.4174642 0.6152655
440978000.0 -0.0321762 0.7887923 0.00595657 -0.007025074 0.005742634 -0.007499706 0.7433916 -0.1141562
460977000.0 0.7654365 -0.3337474 -0.009693966 -0.000405977 -0.009444056 -0.0004240481 -0.5727239 -0.4428145
480976000.0 -0.5296635 -0.611136 0.004305189 0.008598065 0.004476678 0.009061052 0.1238212 0.7281749
500975000.0 -0.3895839 0.6463767 0.005888302 -0.009288643 0.005249952 -0.009475594 0.4647436 -0.6291457
520974000.0 0.7135798 0.005020993 -0.01069426 0.001397957 -0.01080135 0.000996445 -0.766313 0.1282695
540973000.0 -0.1825857 -0.7354461 0.005955667 0.008428665 0.006592207 0.008475704 0.6480877 0.4692765
560972000.0 -0.6731498 0.3767995 0.004744454 -0.009794467 0.004479273 -0.009585902 -0.0739807 -0.8282613
580971000.0 0.6141178 0.4282155 -0.01146192 0.002439239 -0.01197212 0.002364322 -0.541106 0.6040965
600970000.0 0.1143931 -0.7752841 0.006851438 0.00672818 0.00719775 0.006395294 0.7966705 0.03136372
620969000.0 -0.7753868 0.06774331 0.004234899 -0.008487532 0.004253461 -0.008403081 -0.4032896 -0.68568
640968000.0 0.2647909 0.7216729 -0.01110722 0.001202022 -0.0114533 0.001393833 -0.3339769 0.6951119
660967000.0 0.56326 -0.5443951 0.005897458 0.00793205 0.006098926 0.007779933 0.7252491 -0.1790213
680966000.0 -0.6741154 -0.3575762 0.006053767 -0.009463488 0.005963943 -0.009560009 -0.5759982 -0.436915
700965000.0 -0.1435415 0.7208464 -0.01247761 0.001223466 -0.01250638 0.001377048 -0.000117691 0.7077711
720964000.0 0.7232787 -0.2101281 0.006088112 0.009877834 0.006352869 0.0100062 0.5406764 -0.4646985
740963000.0 -0.4721896 -0.5870379 0.006324713 -0.01337538 0.005680516 -0.01342201 -0.6692487 -0.006446208
760962000.0 -0.4814101 0.5501406 -0.01360886 0.002938325 -0.01402663 0.002674582 0.4748894 0.4711867
780961000.0 0.674648 0.1916577 0.008316505 0.01121209 0.009149436 0.0109708 -0.04339341 -0.7290767
800960000.0 -0.09718175 -0.747894 0.003712326 -0.01510205 0.003869606 -0.01454405 -0.488535 0.5270412
820959000.0 -0.6999813 0.2811492 -0.0128203 0.004048676 -0.01359775 0.004436834 0.7313609 -0.05507541
840958000.0 0.4711495 0.5429729 0.01021545 0.01018242 0.01056476 0.009238157 -0.5437813 -0.5647134
860957000.0 0.2804638 -0.6826613 0.002098508 -0.01381472 0.00282167 -0.01379655 -0.1162191 0.7565109
880956000.0 -0.7396409 -0.07637665 -0.01228889 0.004447196 -0.01253279 0.005440207 0.5917807 -0.4358858
900955000.0 0.09070669 0.7215765 0.009075426 0.008169231 0.008849681 0.007759515 -0.7143243 -0.2278333
920954000.0 0.6308451 -0.3626492 0.004121733 -0.01217228 0.004581714 -0.012531 0.1372586 0.7291382
940953000.0 -0.5848914 -0.4147672 -0.01338705 0.003300999 -0.01327722 0.004087561 0.4786953 -0.4804734
960952000.0 -0.2140171 0.6695612 0.008523961 0.009914969 0.008410787 0.009771027 -0.6562765 -0.0748179
980951000.0 0.7074262 -0.0006051919 0.005740775 -0.01373119 0.005707291 -0.01429975 0.3678 0.5306834
1000950000.0 -0.1990796 -0.7029583 -0.01491247 0.00321817 -0.01486385 0.003695772 0.1119375 -0.5953416
1020949000.0 -0.5948572 0.3942099 0.009810445 0.0125422 0.01015062 0.01242886 -0.5316895 0.3512129
1040948000.0 0.5824022 0.3594252 0.004771109 -0.01751843 0.004638214 -0.01764259 0.5983588 0.1411579
1060947000.0 0.0762 -0.7170262 -0.01592528 0.005140699 -0.0162279 0.005836612 -0.3684845 -0.5114713
1080946000.0 -0.7234811 0.1307603 0.01369321 0.01194803 0.01366389 0.01120076 -0.08489805 0.6756079
1100945000.0 0.2981832 0.6432545 0.001375293 -0.01650106 0.001804112 -0.01698048 0.5392906 -0.3918771
1120944000.0 0.4414854 -0.539696 -0.01552046 0.005478985 -0.01543551 0.00680297 -0.6981118 -0.1467228
1140943000.0 -0.677335 -0.1640621 0.01443056 0.00931345 0.01366265 0.009158036 0.274585 0.6948239
1160942000.0 0.03994107 0.6996529 0.001473413 -0.01426194 0.001453352 -0.01528677 0.3888941 -0.5944746
1180941000.0 0.6838936 -0.2199673 -0.01518712 0.004623836 -0.0143531 0.005722499 -0.6926637 0.1076688
1200940000.0 -0.377685 -0.6042059 0.01219278 0.01002722 0.01158784 0.01054204 0.5166364 0.4856416
1220939000.0 -0.4551769 0.5023766 0.004098918 -0.0155118 0.003516333 -0.01668145 0.07245395 -0.6881143
1240938000.0 0.6290336 0.2078432 -0.01654445 0.00494618 -0.01562588 0.005204323 -0.5776768 0.3320775
1260937000.0 -0.06473438 -0.6946288 0.01218137 0.0129371 0.01220776 0.01376596 0.5827978 0.2449742
1280936000.0 -0.6592439 0.255066 0.004460745 -0.02039914 0.003015367 -0.02090256 -0.2524751 -0.568746
1300935000.0 0.4381987 0.5057051 -0.01727526 0.007179348 -0.01705803 0.007176766 -0.1982524 0.5731322
1320934000.0 0.246372 -0.6259418 0.01678926 0.01401471 0.01744371 0.0140996 0.4873747 -0.3180487
1340933000.0 -0.6990051 -0.01843798 -0.002561665 -0.01925156 -0.002954645 -0.01932124 -0.6331317 -0.1066299
1360932000.0 0.1456565 0.6758267 -0.0145444 0.006062773 -0.01445852 0.006496175 0.2711436 0.6024572
1380931000.0 0.5813916 -0.3574166 0.01713976 0.01343767 0.01699275 0.01344291 0.2465575 -0.5775621
1400930000.0 -0.5494105 -0.3895038 -0.001728186 -0.01721729 -0.002442267 -0.01780068 -0.6330419 0.2244282
1420929000.0 -0.1956935 0.6292819 -0.0155179 0.005078482 -0.01487275 0.005688734 0.5460185 0.4394966
1440928000.0 0.6725606 -0.006507467 0.01631061 0.01233877 0.01626427 0.01313283 0.02166923 -0.6681272
1460927000.0 -0.2066459 -0.6576446 0.001612163 -0.01769857 0.0003251786 -0.01829279 -0.5339596 0.4039814
1480926000.0 -0.5528287 0.3653109 -0.01921961 0.006052793 -0.01817624 0.005753361 0.6387997 0.1763771
1500925000.0 0.5272638 0.3463074 0.01722854 0.01249653 0.01836274 0.01351657 -0.3076471 -0.5519037
1520924000.0 0.09101541 -0.654056 0.001780053 -0.02102246 0.0001552576 -0.02056841 -0.2217689 0.5979843
1540923000.0 -0.6800977 0.0992373 -0.01846556 0.009694341 -0.0186865 0.008729752 0.5689201 -0.1826088
1560922000.0 0.2575636 0.6139957 0.01614677 0.01304649 0.01784355 0.01296338 -0.5242165 -0.2502591
1580921000.0 0.4552615 -0.4555774 0.001081143 -0.02572038 0.0002166659 -0.02449437 0.1976803 0.5594144
1600920000.0 -0.609692 -0.2293355 -0.01664791 0.01299254 -0.01735918 0.01342927 0.1842317 -0.5104036
1620919000.0 -0.0193705 0.6560233 0.01712979 0.01078197 0.0178621 0.009854632 -0.5313355 0.2921146
1640918000.0 0.6317412 -0.1883551 -0.001344021 -0.02258755 -0.001333798 -0.02234419 0.5543145 0.3384351
1660917000.0 -0.3983288 -0.5176631 -0.01576117 0.01067334 -0.01585398 0.01132345 -0.03917883 -0.5981892
1680916000.0 -0.3329502 0.5375299 0.01615022 0.01134041 0.01642252 0.0109713 -0.4404665 0.4501172
1700915000.0 0.6178828 0.1238238 0.0008226519 -0.02174328 0.0004770258 -0.0219621 0.6504577 0.1558504
1720914000.0 -0.07882935 -0.6485446 -0.01805823 0.009336289 -0.01792731 0.009483361 -0.2416733 -0.5916971
1740913000.0 -0.6108241 0.2413143 0.01643067 0.01370588 0.01721906 0.01390564 -0.3035543 0.576897
1760912000.0 0.3836427 0.4972529 0.003943682 -0.02533009 0.002678989 -0.02492393 0.6310565 -0.1045021
1780911000.0 0.2959468 -0.5313704 -0.02277865 0.01221722 -0.02339727 0.01184023 -0.5190737 -0.3336009
1800910000.0 -0.6234812 -0.0693996 0.02159165 0.01459912 0.0234917 0.01348149 0.1035065 0.6259314
1820909000.0 0.1380159 0.6186736 -0.0006903418 -0.02965594 -0.0007149628 -0.02807985 0.3436056 -0.4523689
1840908000.0 0.4879256 -0.3678404 -0.02193731 0.01746772 -0.02348769 0.01886836 -0.5506812 0.1654903
1860907000.0 -0.5415047 -0.2778833 0.02601095 0.009092039 0.02577612 0.006860664 0.5035387 0.3143453
1880906000.0 -0.1102021 0.6154671 -0.006631098 -0.02396532 -0.005630156 -0.02427703 -0.1836249 -0.4979754
1900905000.0 0.6311928 -0.04908429 -0.01728604 0.01494154 -0.01718103 0.01687748 -0.2584234 0.5481535
1920904000.0 -0.2330533 -0.583859 0.02167677 0.008130657 0.02075655 0.00725619 0.6344675 0.004640674
1940903000.0 -0.4448306 0.4007407 -0.002447688 -0.02212343 -0.002064499 -0.02296558 -0.3294991 -0.469009
1960902000.0 0.5346414 0.2056814 -0.02031837 0.01339223 -0.01956544 0.01478337 -0.1633186 0.580178
1980901000.0 -0.04708085 -0.6100379 0.0220334 0.008980789 0.02141262 0.009090128 0.6003625 -0.1633582
2000900000.0 -0.618833 0.1771011 -5.404604e-05 -0.02214528 -0.0003704416 -0.02293101 -0.4791121 -0.3554358
2020899000.0 0.2693233 0.5478095 -0.02485303 0.01070859 -0.0244046 0.01134655 -0.02032476 0.6269596
2040898000.0 0.3464932 -0.443764 0.02775567 0.01453392 0.0281271 0.0143915 0.4667674 -0.3485629
2060897000.0 -0.5807628 -0.09341939 -0.003150014 -0.0294742 -0.003546833 -0.02942044 -0.5692245 0.03693978
2080896000.0 0.08135444 0.6048541 -0.02598844 0.01802886 -0.02641597 0.01898885 0.4163955 0.475149
2100895000.0 0.5339446 -0.2594155 0.03278783 0.01024735 0.0324458 0.008879035 0.07364166 -0.5296164
2120894000.0 -0.4538129 -0.3702258 -0.009444431 -0.02981195 -0.008973504 -0.03066608 -0.3248923 0.4356354
2140893000.0 -0.1825621 0.5558116 -0.02158372 0.02391052 -0.02032499 0.02603677 0.5848203 -0.04839728
2160892000.0 0.5780013 -0.01907231 0.03026427 0.001409186 0.02896522 0.001832068 -0.4132546 -0.3075576
2180891000.0 -0.2512687 -0.5357214 -0.0100926 -0.02318243 -0.01106235 -0.02467662 0.05890638 0.5866429
2200890000.0 -0.4202443 0.4252939 -0.01702593 0.01980732 -0.01511163 0.02031033 0.5152746 -0.3185538
2220889000.0 0.5122873 0.2630802 0.02459538 0.004046562 0.02417998 0.005185343 -0.5101653 -0.1987739
2240888000.0 0.05962244 -0.5708864 -0.005700113 -0.02329182 -0.007203804 -0.0244258 0.1382391 0.5797595
2260887000.0 -0.5790791 0.1373082 -0.0194862 0.0165845 -0.01805639 0.01631852 0.4351682 -0.3904943
2280886000.0 0.2878761 0.5149345 0.0254609 0.0105002 0.02589986 0.01175901 -0.5512913 -0.0641979
2300885000.0 0.341823 -0.443884 -0.004536114 -0.0301393 -0.00674842 -0.03032447 0.2633468 0.561098
2320884000.0 -0.5546857 -0.1151125 -0.02436097 0.01951822 -0.02371556 0.01879772 0.2942564 -0.4712839
2340883000.0 0.05030481 0.5828617 0.0363013 0.01304292 0.03791511 0.0131302 -0.4415895 0.273127
2360882000.0 0.521028 -0.2341597 -0.01671419 -0.03237235 -0.01735917 -0.03157966 0.5902755 0.1351262
2380881000.0 -0.4482749 -0.333027 -0.02099997 0.02513044 -0.02093422 0.02552239 -0.2703276 -0.4567926
2400880000.0 -0.1423172 0.5550861 0.03941667 0.00026523 0.03950736 -0.0002966645 -0.08767997 0.5506848
2420879000.0 0.5740085 -0.0204315 -0.01739919 -0.023775 -0.01811754 -0.02392931 0.5083933 -0.2750869
2440878000.0 -0.2286385 -0.5294818 -0.01742228 0.02602127 -0.01643958 0.02614668 -0.502683 -0.07358433
2460877000.0 -0.4465965 0.3898766 0.03009361 -0.004649821 0.03097119 -0.004159025 0.3286317 0.4755749
2480876000.0 0.4719159 0.3324947 -0.0124897 -0.02097107 -0.01389141 -0.02083391 0.2581331 -0.5169519
2500875000.0 0.1051905 -0.5358493 -0.01636668 0.02326774 -0.01557274 0.02253612 -0.5277237 0.1230277
2520874000.0 -0.5536401 0.1437735 0.02627423 0.0001178092 0.02770973 0.0001927941 0.4071665 0.4222294
2540873000.0 0.2821419 0.522312 -0.008552782 -0.024069 -0.01004252 -0.02344037 0.164317 -0.5254955
2560872000.0 0.3976206 -0.407406 -0.01852628 0.02273836 -0.01875286 0.02180237 -0.468787 0.239853
2580871000.0 -0.5331888 -0.1711742 0.02857964 0.005601091 0.03051356 0.005003707 0.5070561 0.3015732
2600870000.0 0.01746934 0.5740562 -0.01051912 -0.03201366 -0.01153619 -0.03026112 -0.02925477 -0.5270725
2620869000.0 0.5352892 -0.1927706 -0.02013479 0.02681076 -0.02120486 0.02689588 -0.2631221 0.4300236
2640868000.0 -0.4043098 -0.4032049 0.03859445 0.004410719 0.03961031 0.001984664 0.5474002 -0.120975
2660867000.0 -0.2428208 0.5236785 -0.02332489 -0.0281025 -0.02272348 -0.02749361 -0.4523217 -0.1848352
2680866000.0 0.5481769 0.06866349 -0.0146404 0.02805271 -0.01457159 0.02914429 0.2409568 0.5094405
2700865000.0 -0.189529 -0.5180203 0.0360565 -0.004672376 0.0352772 -0.005865973 0.3349881 -0.4737203
2720864000.0 -0.442866 0.3888978 -0.01982203 -0.02223158 -0.02000169 -0.02222138 -0.4825204 0.1164815
2740863000.0 0.4646873 0.3618643 -0.01276813 0.0284492 -0.01222753 0.02876277 0.4757241 0.2881253
2760862000.0 0.1964128 -0.5249579 0.02801246 -0.006648145 0.02840712 -0.00722498 -0.05336251 -0.532042
2780861000.0 -0.5651166 0.03068054 -0.01444079 -0.02141285 -0.01503301 -0.02087925 -0.3423153 0.3980154
2800860000.0 0.1785342 0.5558767 -0.01318738 0.02578297 -0.01334876 0.02570928 0.5646403 0.1565169
2820859000.0 0.4736496 -0.3162934 0.02651325 -0.0005560495 0.0272126 -0.001379795 -0.1130587 -0.5033702
2840858000.0 -0.4854412 -0.2673593 -0.01289545 -0.02838555 -0.0130942 -0.0274366 -0.2298846 0.426696
2860857000.0 -0.06687124 0.5590543 -0.01379799 0.02898057 -0.01473048 0.02973669 0.5548022 -0.05356289
2880856000.0 0.5541398 -0.09456287 0.03010953 0.0004881598 0.03042605 -0.001000845 -0.3400926 -0.3475528
2900855000.0 -0.3209219 -0.4536881 -0.01849605 -0.02992056 -0.0174975 -0.0296158 0.05712717 0.4977325
2920854000.0 -0.2971184 0.4880177 -0.0131179 0.03083777 -0.01325599 0.03281454 0.4085237 -0.3744228
2940853000.0 0.5440118 0.1703889 0.03403476 -0.004564916 0.03287743 -0.005842418 -0.4920233 0.00846772
2960852000.0 -0.03034392 -0.5506391 -0.01908018 -0.02389449 -0.01894167 -0.02473369 0.4009308 0.3719633
2980851000.0 -0.4998087 0.2622411 -0.01424181 0.03197435 -0.01293419 0.03377914 0.07516098 -0.5513563
3000850000.0 0.2639566 0.525057 0.0313971 -0.004672519 0.03073156 -0.003439463 -0.4716438 0.254402
3020849000.0 0.3115822 -0.470374 -0.01464821 -0.02276479 -0.01520571 -0.02326041 0.5525347 0.1495629
3040848000.0 -0.5493025 -0.08199199 -0.01557645 0.037063 -0.01388226 0.03765718 -0.1905008 -0.4711552
3060847000.0 0.07278617 0.5691946 0.02545927 -0.01088288 0.02543906 -0.01115185 -0.07550332 0.4885605
3080846000.0 0.5211952 -0.2014892 -0.01357288 -0.02430278 -0.01411527 -0.02402606 0.5157322 -0.2316428
3100845000.0 -0.4226763 -0.3391494 -0.009498367 0.03700497 -0.009113138 0.0371366 -0.4134432 -0.289361
3120844000.0 -0.1558028 0.5547803 0.02400244 -0.006653129 0.02391043 -0.007168195 0.05298535 0.4922925
3140843000.0 0.569368 0.07655869 -0.01278768 -0.02816524 -0.01278201 -0.0277584 0.4118667 -0.3174133
3160842000.0 -0.1239552 -0.5170826 -0.01094328 0.03641479 -0.01064175 0.037773 -0.4391872 -0.02637577
3180841000.0 -0.374022 0.4021243 0.02944617 -0.006530871 0.02879791 -0.00718343 0.3616271 0.3377999
3200840000.0 0.5099922 0.2669011 -0.02260206 -0.02586167 -0.02221493 -0.02692702 0.07499095 -0.5124363
3220839000.0 0.1317467 -0.540239 -0.007793457 0.03042872 -0.006438143 0.03150482 -0.359006 0.323803
3240838000.0 -0.537338 0.1096363 0.02991138 -0.005838606 0.02886404 -0.005663583 0.5425136 0.1397187
3260837000.0 0.2709615 0.5030093 -0.02003122 -0.02317498 -0.02071943 -0.02458682 -0.1262379 -0.5268
3280836000.0 0.4281973 -0.3665351 -0.0129089 0.03002627 -0.01113288 0.03053554 -0.2254755 0.4431776
3300835000.0 -0.4943546 -0.2127516 0.03409493 -0.007374067 0.03390771 -0.006234908 0.5658625 -0.07086617
3320834000.0 0.006390962 0.5590768 -0.02150037 -0.02451726 -0.02315965 -0.02519063 -0.3299037 -0.3907727
3340833000.0 0.5651987 -0.101583 -0.01225267 0.03442063 -0.01111403 0.03392777 0.05490858 0.4564762
3360832000.0 -0.244532 -0.4962755 0.03437742 -0.01024597 0.03528498 -0.01021098 0.3299783 -0.3929972
3380831000.0 -0.3103753 0.4434727 -0.02674712 -0.02414447 -0.027755 -0.02367046 -0.4382463 0.05490124
3400830000.0 0.5361112 0.1529433 -0.004436777 0.03272296 -0.004296666 0.03300133 0.3802346 0.2881575
3420829000.0 -0.007230253 -0.5454416 0.0309826 -0.008823751 0.03121207 -0.009560426 0.05639219 -0.5032129
3440828000.0 -0.4599113 0.2678699 -0.02748746 -0.02183845 -0.02797299 -0.02185689 -0.3510069 0.2697604
3460827000.0 0.4419284 0.3546948 -0.004086121 0.02907498 -0.003311283 0.02962135 0.4757552 0.102021
3480826000.0 0.2813261 -0.5007804 0.03116216 -0.007730267 0.03065025 -0.007849332 -0.2050155 -0.4342304
3500825000.0 -0.5329362 -0.09992866 -0.02576006 -0.01951923 -0.02716368 -0.02014395 -0.08240931 0.4567042
3520824000.0 0.1240544 0.5307136 -0.006187927 0.0269699 -0.004662996 0.02692949 0.5144215 -0.2031715
3540823000.0 0.5072253 -0.2509159 0.03037965 -0.005871683 0.03023817 -0.004946381 -0.3980448 -0.3551731
3560822000.0 -0.3844138 -0.38982 -0.02175369 -0.02324762 -0.02386113 -0.02350486 0.01008771 0.4982745
3580821000.0 -0.170919 0.5131254 -0.01103189 0.02991182 -0.00959038 0.02907611 0.4778544 -0.3030288
3600820000.0 0.5598168 0.04577532 0.03373889 -0.00514112 0.03495602 -0.004062995 -0.4655524 -0.235795
3620819000.0 -0.08918363 -0.533114 -0.02364833 -0.03154193 -0.02623421 -0.03072292 0.1767184 0.4271735
3640818000.0 -0.3894292 0.3466609 -0.007764115 0.04331952 -0.008306142 0.04192252 0.1775069 -0.4510809
3660817000.0 0.4975731 0.2711741 0.03333539 -0.0142911 0.03461712 -0.01547503 -0.3233076 0.2517408
3680816000.0 0.2266551 -0.5238037 -0.03062467 -0.026145 -0.03114913 -0.02482424 0.458331 -0.009890646
3700815000.0 -0.5143849 -0.03135726 0.001551145 0.03783007 0.001655501 0.03834304 -0.2994661 -0.3526881
3720814000.0 0.2620832 0.4501683 0.02861028 -0.01383526 0.02842089 -0.01460269 0.002391786 0.4517038
3740813000.0 0.3861898 -0.405724 -0.02832887 -0.02066148 -0.02855017 -0.02054884 0.4615037 -0.2460581
3760812000.0 -0.4766797 -0.2715944 -0.001011952 0.03159074 -0.0003832404 0.03174146 -0.3989004 -0.2694845
3780811000.0 -0.05527334 0.5279464 0.02844673 -0.01012496 0.02864238 -0.009991839 0.1520006 0.4276122
3800810000.0 0.5316429 -0.1066274 -0.02566465 -0.02170663 -0.02720178 -0.02160726 0.3327707 -0.4251696
3820809000.0 -0.2402577 -0.4800892 -0.004091462 0.03077137 -0.003646691 0.03003682 -0.4980572 -0.07613175
3840808000.0 -0.3193567 0.4251037 0.02900982 -0.007192997 0.03024253 -0.006858028 0.2722403 0.4129313
3860807000.0 0.5241097 0.1795868 -0.02178478 -0.0261384 -0.02384869 -0.02501071 0.2949198 -0.4761512
