! Created with skrf 1.9.0 (http://scikit-rf.org).
# Hz S RI R 50.0 
!freq ReS11 ImS11 ReS21 ImS21 ReS12 ImS12 ReS22 ImS22
1000000.0 1.12464 0.1058906 3.242335e-06 -4.666672e-06 3.039068e-07 4.680264e-06 0.7998897 -0.5596285
20999000.0 -0.5063844 0.8582217 0.000301757 4.011952e-05 0.00029217 3.794272e-05 -0.3763306 -0.810692
40998000.0 0.704259 0.2930768 -0.0002223391 -0.0008143005 -0.0002172898 -0.000845813 -0.2428615 0.849463
60997000.0 -0.9007478 0.2944046 -0.0001674069 0.001816187 -0.000109153 0.001806825 0.8000085 -0.387369
80996000.0 0.5629453 0.7348623 0.001291182 -0.0008608401 0.001334761 -0.0008556668 -0.8463274 -0.1874108
100995000.0 0.4734337 -0.6157549 -0.001481493 -0.001389954 -0.001617286 -0.001389687 0.3576985 0.7715545
120994000.0 -0.8273253 0.3715033 7.916093e-05 0.003406859 8.488059e-05 0.003326198 0.3491391 -0.7414318
140993000.0 0.8258167 0.337286 0.00215782 -0.001971253 0.002276458 -0.00208559 -0.7495925 0.304293
160992000.0 0.0491464 -0.7787576 -0.002884736 -0.001664857 -0.002972875 -0.00149705 0.7205206 0.3761248
180991000.0 -0.7563906 0.4545045 0.0003520374 0.004513958 0.0002408526 0.004512228 -0.2169566 -0.7612124
200990000.0 0.8907751 0.1168976 0.003429375 -0.003232867 0.003453782 -0.003534375 -0.3965559 0.7059672
220989000.0 -0.2763768 -0.739028 -0.004741256 -0.001537708 -0.004650364 -0.001383899 0.8352031 -0.1387028
240988000.0 -0.5305426 0.6415966 0.001334343 0.005755555 0.001300523 0.005949717 -0.6956207 -0.4696913
260987000.0 0.8239166 -0.2320728 0.003788372 -0.005298381 0.003551443 -0.005498367 0.1894663 0.8298794
280986000.0 -0.5664816 -0.5880362 -0.005703816 -0.0003297474 -0.00569083 -0.0003390633 0.558287 -0.6891708
300985000.0 -0.3880563 0.7196864 0.002103336 0.005997257 0.002244718 0.006084889 -0.851536 0.06542003
320984000.0 0.5699112 -0.3555807 0.003201061 -0.006232131 0.003097991 -0.006280551 0.5988188 0.5783513
340983000.0 -0.592101 -0.3430194 -0.00592848 -0.0004400621 -0.006018621 -0.0003483721 0.1071443 -0.8268312
360982000.0 -0.169103 0.8006373 0.002703471 0.005853384 0.002828597 0.005815092 -0.6439187 0.4833281
380981000.0 0.6914277 -0.3249727 0.004768767 -0.005809788 0.004821511 -0.006031403 0.7310258 0.308915
400980000.0 -0.7713585 -0.2310916 -0.007530235 -0.000502727 -0.007496621 -0.0003753638 -0.1612977 -0.7472568
420979000.0 0.07124507 0.788223 0.002673952 0.007146705 0.00263675 0.007309976 -0.4170228 0.6157565
440978000.0 0.5798599 -0.4603477 0.005893817 -0.006953658 0.005681154 -0.00741896 0.7436117 -0.1147401
460977000.0 -0.8305001 -0.1002737 -0.009591411 -0.0003982602 -0.009341932 -0.0004171561 -0.5732414 -0.4424824
480976000.0 0.2315988 0.7535641 0.004265088 0.008505208 0.004437105 0.008961887 0.1244295 0.7280595
500975000.0 0.424093 -0.536229 0.005817723 -0.00919316 0.005187013 -0.009373249 0.4639643 -0.6292568
520974000.0 -0.7250572 0.1503616 -0.01057577 0.001389922 -0.01068067 0.0009937342 -0.7653605 0.1287964
540973000.0 0.3758921 0.624894 0.005890925 0.00833068 0.006519524 0.008371898 0.6475055 0.4680282
560972000.0 0.3007545 -0.6074066 0.004687798 -0.009683096 0.00442407 -0.00947387 -0.07460041 -0.8266419
580971000.0 -0.741744 0.2736372 -0.01132775 0.002412708 -0.01182673 0.002334601 -0.5395254 0.6033207
600970000.0 0.5553375 0.4843414 0.006768173 0.00665179 0.007109567 0.006321628 0.7952876 0.03063502
620969000.0 -0.7747238 0.06774302 0.00418986 -0.008389692 0.00420774 -0.008301751 -0.4030994 -0.6843306
640968000.0 0.2645451 0.7210023 -0.01098238 0.00118084 -0.01131878 0.001369131 -0.3331018 0.6942806
660967000.0 0.5627344 -0.5438633 0.005826321 0.007847501 0.006022972 0.007694246 0.7243541 -0.1791348
680966000.0 -0.6734133 -0.3573909 0.005993885 -0.009355909 0.005905479 -0.009445625 -0.575715 -0.4363413
700965000.0 -0.1432312 0.7201167 -0.01234523 0.001204556 -0.01236694 0.001356742 0.0002365683 0.7074796
720964000.0 0.7225084 -0.2100634 0.006020229 0.009778045 0.006277984 0.009900664 0.540324 -0.4649431
740963000.0 -0.4719034 -0.5864615 0.006259091 -0.01323275 0.005621865 -0.01327582 -0.6692768 -0.00607298
760962000.0 -0.4809242 0.5496148 -0.01346609 0.002904944 -0.01387199 0.002645009 0.4751026 0.4709463
780961000.0 0.6739128 0.1914463 0.00822918 0.0110893 0.009050661 0.01084824 -0.04369114 -0.7287022
800960000.0 -0.09709717 -0.7471746 0.003668525 -0.01493493 0.003821245 -0.01438078 -0.4877367 0.5267308
820959000.0 -0.6993992 0.2808344 -0.0126742 0.00400565 -0.01343993 0.004385331 0.7301565 -0.05546331
840958000.0 0.4705911 0.5425164 0.01009688 0.01006005 0.01043748 0.009125869 -0.5430797 -0.5633447
860957000.0 0.2802215 -0.6820124 0.00207969 -0.0136513 0.002789389 -0.01363103 -0.1156564 0.7548039
880956000.0 -0.7390139 -0.07658831 -0.01214541 0.004386829 -0.01238373 0.005364358 0.590242 -0.4350735
900955000.0 0.09044165 0.7209725 0.008962647 0.008082839 0.008737289 0.007673347 -0.7130232 -0.2272086
920954000.0 0.630365 -0.362121 0.004085259 -0.01202895 0.00453884 -0.01237859 0.1370778 0.7278098
940953000.0 -0.5842531 -0.414549 -0.0132383 0.003254079 -0.0131264 0.004028696 0.4778895 -0.4797175
960952000.0 -0.2140362 0.6688851 0.008423099 0.009815797 0.008309439 0.0096702 -0.6553685 -0.07451625
980951000.0 0.7067093 -0.0005005344 0.005689461 -0.01357394 0.005654165 -0.01413114 0.36754 0.5300461
1000950000.0 -0.1987989 -0.7023724 -0.01475487 0.003169302 -0.01470197 0.003640506 0.1116554 -0.5949859
1020949000.0 -0.5944389 0.3937246 0.009695595 0.0124129 0.01003527 0.0123049 -0.5314288 0.3512604
1040948000.0 0.5817146 0.3592008 0.00473025 -0.01732632 0.004601542 -0.01745111 0.5982272 0.1409918
1060947000.0 0.07626386 -0.7163667 -0.01575079 0.005077632 -0.01605819 0.005766897 -0.3684064 -0.5111578
1080946000.0 -0.7229479 0.1304553 0.01353795 0.01181806 0.0135094 0.01108129 -0.08479274 0.6749699
1100945000.0 0.2976519 0.6428134 0.001364015 -0.01631438 0.001791987 -0.01679006 0.5385388 -0.3912805
1120944000.0 0.441292 -0.5389411 -0.01534291 0.005411691 -0.01526505 0.006721006 -0.6968268 -0.1464872
1140943000.0 -0.6766617 -0.1640804 0.01425553 0.00921614 0.0135 0.009062864 0.2739212 0.6934298
1160942000.0 0.03961792 0.6990687 0.001468254 -0.01409792 0.001446427 -0.01511381 0.3879945 -0.592947
1180941000.0 0.683452 -0.2195307 -0.01501044 0.004560777 -0.01419332 0.005642896 -0.6909188 0.107433
1200940000.0 -0.3771307 -0.6038623 0.01203819 0.00992508 0.01144686 0.01043486 0.5153709 0.4845023
1220939000.0 -0.4550728 0.5017142 0.004068322 -0.01532852 0.003493079 -0.01649294 0.07240694 -0.6866138
1240938000.0 0.6283324 0.2079816 -0.01636317 0.004868115 -0.01546153 0.005128694 -0.5766803 0.3314137
1260937000.0 -0.06437629 -0.694054 0.01203086 0.01281141 0.01205804 0.01362985 0.5819052 0.2446001
1280936000.0 -0.658831 0.2546185 0.004437361 -0.02017139 0.003008877 -0.02067681 -0.2523839 -0.5680697
1300935000.0 0.4375611 0.5055111 -0.01709504 0.007086327 -0.01688313 0.007086786 -0.1979236 0.5727829
1320934000.0 0.2464415 -0.6253113 0.01659183 0.01387404 0.01724229 0.01396002 0.4871812 -0.3179375
1340933000.0 -0.6984479 -0.01867219 -0.00251541 -0.01904044 -0.002905837 -0.01911254 -0.6328225 -0.1067469
1360932000.0 0.145273 0.6753797 -0.01439067 0.005987434 -0.01430841 0.006417893 0.2706378 0.6021117
1380931000.0 0.5811131 -0.35681 0.01693271 0.01329468 0.01679452 0.0133019 0.2466339 -0.5766267
1400930000.0 -0.548759 -0.3895349 -0.001692551 -0.01702829 -0.002398463 -0.01760603 -0.6321021 0.2237581
1420929000.0 -0.1959825 0.6287308 -0.01534271 0.005013133 -0.01470989 0.00561733 0.5446558 0.4389801
1440928000.0 0.6720855 -0.006032233 0.01610501 0.01221284 0.01606523 0.01299914 0.02207773 -0.6664266
1460927000.0 -0.2060572 -0.6572563 0.001616481 -0.01749452 0.0003460491 -0.01809049 -0.532773 0.4025877
1480926000.0 -0.5527036 0.3646508 -0.01899831 0.005962547 -0.0179767 0.005671341 0.636863 0.1762678
1500925000.0 0.5265364 0.3464875 0.01701266 0.01237843 0.01813446 0.0133937 -0.3065964 -0.5504512
1520924000.0 0.09135603 -0.6534948 0.001787149 -0.02078021 0.0001832844 -0.02034063 -0.2214208 0.5965716
1540923000.0 -0.6796798 0.09876022 -0.01826833 0.009555631 -0.01848732 0.008608343 0.5677947 -0.1821175
1560922000.0 0.2569534 0.6137984 0.01594895 0.01292168 0.01763171 0.01284517 -0.5233382 -0.2498419
1580921000.0 0.4552451 -0.4549018 0.001103989 -0.02543125 0.0002441497 -0.02422619 0.1974416 0.5587835
1600920000.0 -0.609149 -0.229591 -0.01648022 0.01282493 -0.01719098 0.01325703 0.1841949 -0.5099002
1620919000.0 -0.01981841 0.6555703 0.01692715 0.01067971 0.01765241 0.009763772 -0.531132 0.2916701
1640918000.0 0.6314504 -0.1877155 -0.001303311 -0.02233819 -0.001289709 -0.02209876 0.5536184 0.3386663
1660917000.0 -0.3975119 -0.5177711 -0.01559792 0.01053915 -0.01569488 0.01118474 -0.03842992 -0.5975813
1680916000.0 -0.3332014 0.5369637 0.01595714 0.01123128 0.01623476 0.01086889 -0.4403259 0.4489065
1700915000.0 0.6173948 0.1242482 0.0008363857 -0.02149673 0.0004993889 -0.02171712 0.6491418 0.1563307
1720914000.0 -0.07824972 -0.6482608 -0.01786261 0.009214099 -0.01773965 0.009363153 -0.2404192 -0.5906221
1740913000.0 -0.6109208 0.2406292 0.01622799 0.0135614 0.01701011 0.01376983 -0.3033256 0.5750505
1760912000.0 0.3829276 0.497383 0.00393686 -0.02502719 0.002685345 -0.02463054 0.6292021 -0.1035094
1780911000.0 0.2962714 -0.5307537 -0.02253209 0.0120433 -0.02314918 0.0116751 -0.5170771 -0.3329135
1800910000.0 -0.6231163 -0.06989492 0.02131894 0.0144724 0.02320841 0.01336629 0.1028032 0.6242033
1820909000.0 0.137399 0.6185113 -0.0006404923 -0.02931213 -0.0006622293 -0.02776789 0.3429267 -0.4509263
1840908000.0 0.4880085 -0.3672252 -0.02171814 0.0172321 -0.02325696 0.01862105 -0.5495161 0.1650298
1860907000.0 -0.5410827 -0.2779702 0.02570463 0.009028641 0.02547967 0.006820106 0.5026529 0.3140564
1880906000.0 -0.1106604 0.615101 -0.00652163 -0.02370958 -0.005532424 -0.02401758 -0.1830236 -0.4974534
1900905000.0 0.6309567 -0.04854184 -0.01711388 0.0147544 -0.01701901 0.01666603 -0.2586191 0.5473774
1920904000.0 -0.2324159 -0.583837 0.0214236 0.008073105 0.02052216 0.007209245 0.6339214 0.005379725
1940903000.0 -0.4451189 0.4000807 -0.002387869 -0.02188379 -0.002006776 -0.02272069 -0.3284027 -0.4689997
1960902000.0 0.5339623 0.2063249 -0.02010632 0.01321553 -0.01937071 0.01459528 -0.1640126 0.579091
1980901000.0 -0.04647068 -0.6098185 0.02177626 0.00891305 0.02117144 0.00902079 0.5996639 -0.1621072
2000900000.0 -0.6187968 0.1764831 -3.169001e-05 -0.02189962 -0.0003376386 -0.02267991 -0.4774955 -0.3554164
2020899000.0 0.2687926 0.5479096 -0.02457554 0.01056101 -0.02414414 0.01119892 -0.02120581 0.6253855
2040898000.0 0.3469202 -0.4432142 0.02741263 0.01439105 0.02777604 0.01427013 0.4658939 -0.3465978
2060897000.0 -0.5805153 -0.09390255 -0.003068639 -0.02913782 -0.00346313 -0.02909868 -0.5671302 0.03614668
2080896000.0 0.08079179 0.6047764 -0.02570792 0.0177728 -0.02613772 0.0187304 0.4146429 0.4742021
2100895000.0 0.5341313 -0.2587569 0.03238477 0.01018606 0.03206021 0.008845432 0.07408683 -0.527781
2120894000.0 -0.4534171 -0.3705484 -0.009284232 -0.02949009 -0.008822805 -0.03033791 -0.32431 0.4342232
2140893000.0 -0.182973 0.55553 -0.02137424 0.0235934 -0.02014554 0.02570338 0.5837365 -0.04777698
2160892000.0 0.5778031 -0.01852001 0.02991563 0.001454838 0.02864615 0.001872389 -0.4122139 -0.3074911
2180891000.0 -0.2510189 -0.5356227 -0.009942053 -0.02293449 -0.01090064 -0.02442464 0.05818322 0.5860095
2200890000.0 -0.4204989 0.4247608 -0.01686442 0.0195522 -0.01498199 0.02005989 0.5152355 -0.3175119
2220889000.0 0.511886 0.2634771 0.0243113 0.004039586 0.02391002 0.005162687 -0.5091922 -0.1994926
2240888000.0 0.06018196 -0.5706887 -0.005603709 -0.02303661 -0.007087221 -0.02416566 0.1370391 0.5792251
2260887000.0 -0.5790498 0.1366347 -0.01929344 0.01636997 -0.01788342 0.01611135 0.4353117 -0.389008
2280886000.0 0.2872438 0.515121 0.0251644 0.01041157 0.02559635 0.0116608 -0.5500485 -0.06521554
2300885000.0 0.3422341 -0.4433476 -0.004451721 -0.02979528 -0.006634809 -0.02999494 0.2617807 0.5603735
2320884000.0 -0.5544114 -0.1156019 -0.02410111 0.01926501 -0.02346548 0.01856407 0.2945179 -0.4691828
2340883000.0 0.04975121 0.5828278 0.0358403 0.01292306 0.03744553 0.01301703 -0.4402218 0.2711724
2360882000.0 0.5211475 -0.2336123 -0.01645542 -0.03201677 -0.01710623 -0.0312425 0.588025 0.1355997
2380881000.0 -0.4477484 -0.3334045 -0.02078323 0.02479804 -0.02072419 0.02519127 -0.2685978 -0.4556905
2400880000.0 -0.142776 0.5548417 0.0389309 0.0003426863 0.0390387 -0.0002100367 -0.08811003 0.5489597
2420879000.0 0.57382 -0.01978183 -0.01714706 -0.02353243 -0.01786172 -0.02369085 0.5076138 -0.2736294
2440878000.0 -0.2279073 -0.5295932 -0.01727021 0.02567589 -0.01630096 0.02580873 -0.5014423 -0.07440773
2460877000.0 -0.446843 0.3891266 0.02975317 -0.004534207 0.03063202 -0.00405041 0.3272955 0.4753336
2480876000.0 0.47142 0.3329237 -0.01230877 -0.0207513 -0.01369944 -0.02062361 0.2588877 -0.5158039
2500875000.0 0.1059962 -0.5354455 -0.01622156 0.0229596 -0.01544755 0.02225073 -0.5272142 0.1216829
2520874000.0 -0.5535355 0.1429542 0.02598221 0.000158945 0.02740509 0.0002405818 0.4057687 0.4224994
2540873000.0 0.2814579 0.5225278 -0.00841755 -0.02380162 -0.009900798 -0.02319079 0.1654302 -0.5242759
2560872000.0 0.3980276 -0.4066944 -0.01835345 0.02244727 -0.01857156 0.02152671 -0.4683813 0.2382735
2580871000.0 -0.5326445 -0.1719142 0.02824414 0.005566218 0.03016443 0.00498793 0.5055192 0.3019364
2600870000.0 0.01665684 0.57382 -0.01035276 -0.03163289 -0.01136509 -0.02990955 -0.02784085 -0.5257355
2620869000.0 0.535216 -0.1920142 -0.01992649 0.0264533 -0.02098463 0.02654311 -0.2630075 0.4279403
2640868000.0 -0.4034302 -0.403625 0.03809439 0.004406121 0.0391087 0.002033522 0.5456896 -0.1193916
2660867000.0 -0.2434569 0.5229962 -0.02295398 -0.0277888 -0.02237397 -0.0271976 -0.4501064 -0.1851165
2680866000.0 0.5477191 0.06959068 -0.01451625 0.02767654 -0.01445298 0.02876524 0.2394081 0.5082791
2700865000.0 -0.1884573 -0.5179678 0.03561232 -0.004516057 0.03486199 -0.005709402 0.3350922 -0.4718134
2720864000.0 -0.4432118 0.3879338 -0.01953169 -0.022014 -0.01971106 -0.02201079 -0.4815328 0.1149326
2740863000.0 0.4638166 0.3624562 -0.01268292 0.02807291 -0.01215689 0.02838934 0.4741518 0.2886418
2760862000.0 0.1973169 -0.524195 0.02770521 -0.006495757 0.0281051 -0.007067535 -0.05183094 -0.5313182
2780861000.0 -0.5647074 0.0295334 -0.01421327 -0.02120343 -0.01481156 -0.02067822 -0.3427247 0.396414
2800860000.0 0.17736 0.5557799 -0.01309008 0.0254478 -0.01324776 0.02538316 0.5634039 0.1575081
2820859000.0 0.4739143 -0.3151149 0.02620725 -0.0004978191 0.02690543 -0.001308768 -0.1114218 -0.502901
2840858000.0 -0.4845719 -0.2681668 -0.0126935 -0.0280716 -0.01290051 -0.02713939 -0.230522 0.4251032
2860857000.0 -0.06780424 0.558517 -0.01368856 0.02861893 -0.01461698 0.0293602 0.5537914 -0.05234871
2880856000.0 0.554027 -0.09358354 0.02974097 0.000523366 0.03006902 -0.0009436802 -0.3383379 -0.3474484
2900855000.0 -0.3196513 -0.4540016 -0.01820033 -0.02958173 -0.01722262 -0.02927915 0.05615269 0.4962755
2920854000.0 -0.2979545 0.487017 -0.01302132 0.03041534 -0.01316074 0.03238307 0.4080327 -0.3725078
2940853000.0 0.5432534 0.1715528 0.03359661 -0.004433759 0.03247551 -0.005698123 -0.490285 0.00708624
2960852000.0 -0.02870566 -0.5501237 -0.01877915 -0.02363582 -0.01862875 -0.02447551 0.3986903 0.3717714
2980851000.0 -0.4999595 0.2607083 -0.01415147 0.03151379 -0.01287508 0.0333126 0.07672495 -0.5495054
3000850000.0 0.2624823 0.5252675 0.03104059 -0.004508035 0.03038033 -0.003286358 -0.4710842 0.2522184
3020849000.0 0.3125255 -0.4691235 -0.01440575 -0.022515 -0.01496776 -0.02302219 0.550841 0.1508592
3040848000.0 -0.5485356 -0.08328321 -0.01551432 0.03654176 -0.01385313 0.03714334 -0.1882711 -0.4708374
3060847000.0 0.07140031 0.5688207 0.02521333 -0.01067766 0.0251946 -0.01095074 -0.07690953 0.487033
3080846000.0 0.521235 -0.1999301 -0.01334752 -0.02403503 -0.01389643 -0.02377413 0.515382 -0.2299263
3100845000.0 -0.4212701 -0.3399304 -0.00951188 0.03653596 -0.009121679 0.03668401 -0.4119233 -0.2899742
3120844000.0 -0.1569379 0.5538377 0.02374375 -0.006536904 0.02365868 -0.007050562 0.05173695 0.4913472
3140843000.0 0.5687045 0.07786836 -0.01257055 -0.02783467 -0.01257351 -0.02743594 0.4117074 -0.3158749
3160842000.0 -0.1221954 -0.5168775 -0.01090013 0.03594311 -0.01061831 0.03729225 -0.4379931 -0.02738493
3180841000.0 -0.3747168 0.4005159 0.02908507 -0.006395716 0.0284663 -0.007039391 0.3600134 0.3375844
3200840000.0 0.5088345 0.267913 -0.02224396 -0.02557174 -0.02185547 -0.02663015 0.07603683 -0.5108698
3220839000.0 0.1331161 -0.5393243 -0.007778509 0.03001688 -0.006450719 0.03109481 -0.3587491 0.3217305
3240838000.0 -0.5369899 0.1079232 0.02953474 -0.005683199 0.02851215 -0.005517306 0.5406711 0.1406979
3260837000.0 0.2692831 0.5031773 -0.01969483 -0.02293725 -0.02037126 -0.02433833 -0.1239464 -0.525804
3280836000.0 0.4289208 -0.3648374 -0.0128476 0.02958973 -0.01110039 0.03011463 -0.2263973 0.4408435
3300835000.0 -0.4928868 -0.2142864 0.03369182 -0.007144914 0.03350342 -0.006028059 0.5645582 -0.06877299
3320834000.0 0.004734888 0.5584354 -0.02113023 -0.02429919 -0.02279386 -0.0249775 -0.3274428 -0.3912496
3340833000.0 0.5648935 -0.09992797 -0.01222658 0.03395728 -0.01108871 0.03348833 0.05289713 0.4552779
3360832000.0 -0.2426131 -0.4964812 0.03400084 -0.009998159 0.03490572 -0.009966897 0.3305564 -0.3909612
3380831000.0 -0.3113621 0.4418178 -0.02634473 -0.02394587 -0.02735442 -0.02348702 -0.4373825 0.05318581
3400830000.0 0.5350154 0.1542952 -0.004490323 0.03232765 -0.004338704 0.03260246 0.3786439 0.2883964
3420829000.0 -0.005471497 -0.5448471 0.0306275 -0.008636527 0.03085793 -0.009364977 0.05754627 -0.5020497
3440828000.0 -0.4601969 0.265809 -0.02708595 -0.02166087 -0.02757646 -0.02168387 -0.3508465 0.2682157
3460827000.0 0.4401407 0.3556615 -0.004104001 0.02870177 -0.003344647 0.02924872 0.4744207 0.1027624
3480826000.0 0.2826429 -0.4993504 0.03077114 -0.007543501 0.03027401 -0.007657736 -0.2032762 -0.4337653
3500825000.0 -0.531868 -0.10185 -0.02536815 -0.01935113 -0.02674425 -0.01999268 -0.08352583 0.4550741
3520824000.0 0.1220939 0.5303423 -0.006184764 0.02659731 -0.004686211 0.02657741 0.5137165 -0.2012074
3540823000.0 0.5074846 -0.2490412 0.03001337 -0.005686657 0.0298635 -0.00478394 -0.3956001 -0.3558972
3560822000.0 -0.3824052 -0.3907115 -0.02137734 -0.02302467 -0.02346422 -0.02330684 0.007880404 0.49672
3580821000.0 -0.1724833 0.51184 -0.01101044 0.0294935 -0.009577387 0.02868814 0.4776992 -0.3003615
3600820000.0 0.5590022 0.04754078 0.03334526 -0.004931282 0.03453687 -0.003864662 -0.463124 -0.2374095
3620819000.0 -0.08695917 -0.5328161 -0.02321337 -0.03122428 -0.02578799 -0.03045516 0.1742697 0.4265437
3640818000.0 -0.3901434 0.3446164 -0.007864871 0.04275222 -0.008373198 0.04138004 0.1787988 -0.4490148
3660817000.0 0.4960402 0.2723705 0.03299022 -0.01399747 0.03427133 -0.01516694 -0.3233643 0.2496147
3680816000.0 0.2281873 -0.5225171 -0.03013619 -0.0259414 -0.03067662 -0.02463015 0.457153 -0.008457854
3700815000.0 -0.5134729 -0.03362209 0.001373873 0.03739027 0.001484452 0.0378948 -0.2975375 -0.3529257
3720814000.0 0.2597134 0.450376 0.02831472 -0.01357655 0.02813437 -0.01433215 0.000958118 0.4505452
3740813000.0 0.3870656 -0.4037926 -0.02790017 -0.020498 -0.02813274 -0.02039442 0.4611807 -0.2443805
3760812000.0 -0.4749451 -0.2732199 -0.001101434 0.03119212 -0.0004923267 0.0313586 -0.3971173 -0.2702562
3780811000.0 -0.05746794 0.5269175 0.02811687 -0.009883321 0.02832138 -0.009773533 0.1501005 0.4267924
3800810000.0 0.5313086 -0.1044039 -0.02523347 -0.02152253 -0.026766 -0.0214338 0.3331927 -0.4231188
3820809000.0 -0.237778 -0.4804479 -0.004139973 0.03036965 -0.003712796 0.02965632 -0.4964636 -0.07792129
3840808000.0 -0.3207396 0.4228592 0.02866291 -0.006977831 0.02988743 -0.006647441 0.2697464 0.412698
3860807000.0 0.5227514 0.1812158 -0.02137939 -0.02588584 -0.02344214 -0.02479803 0.2959502 -0.4737217
