! Created with skrf 1.9.0 (http://scikit-rf.org).
# Hz S RI R 50.0 
!freq ReS11 ImS11 ReS21 ImS21 ReS12 ImS12 ReS22 ImS22
1000000.0 1.046382 -0.0688675 0.0002526094 -0.0009439227 0.000303224 -0.0009368212 0.8010603 -0.5574455
20999000.0 0.4017579 -0.5389084 0.2560623 -0.5300524 0.2690753 -0.5183009 -0.2758402 0.4901012
40998000.0 0.2352423 -0.329991 -0.625118 0.4424403 -0.6273232 0.4376311 -0.2884558 0.04063524
60997000.0 0.1237033 -0.2691023 0.7658113 0.1911399 0.7708555 0.1870085 0.1380012 -0.197977
80996000.0 -0.01370041 -0.265218 -0.2853275 -0.7197398 -0.297467 -0.7281677 0.07633732 0.1720366
100995000.0 0.02949135 -0.1983045 -0.4231362 0.6618848 -0.4232222 0.6720002 -0.1498782 0.07412297
120994000.0 0.0214503 -0.1454847 0.7912549 -0.006656913 0.7934365 -0.01651545 0.07972509 -0.1000386
140993000.0 0.002429683 -0.1534334 -0.4258443 -0.6522629 -0.4399027 -0.648735 0.1133938 0.09471779
160992000.0 -0.05432462 -0.1482072 -0.3182446 0.6974477 -0.3110603 0.7060715 -0.1304441 0.01397627
180991000.0 -0.008826517 -0.06528138 0.76899 -0.0990168 0.7690207 -0.1083227 0.05011607 -0.04432092
200990000.0 0.03644302 -0.0690783 -0.4895806 -0.5976996 -0.4996351 -0.5899267 0.1023287 0.08493737
220989000.0 -0.02801588 -0.1384185 -0.2410051 0.7148088 -0.2311591 0.7199036 -0.0644705 -0.01629177
240988000.0 0.01850295 -0.02289092 0.7383047 -0.1681587 0.7380412 -0.1762915 -0.008988282 0.004586235
260987000.0 0.0645116 -0.1659774 -0.5300979 -0.5261019 -0.5344837 -0.5161657 0.1947012 0.04530725
280986000.0 -0.1173364 -0.1444259 -0.1804308 0.7014327 -0.1710238 0.7029751 -0.1042655 -0.07359076
300985000.0 -0.006394081 -0.01076249 0.6974897 -0.2166014 0.695502 -0.2249897 -0.02643807 0.01033685
320984000.0 -0.01295962 -0.1653709 -0.5313399 -0.4446189 -0.5330661 -0.4389369 0.1861437 0.006901601
340983000.0 -0.1635748 -0.05212749 -0.1675197 0.6522968 -0.160545 0.6555048 -0.06471431 -0.05719338
360982000.0 -0.008294742 0.02814161 0.6609899 -0.2507229 0.6549231 -0.2686166 -0.006079687 0.02880411
380981000.0 -0.01138585 -0.03942186 -0.5307538 -0.4719023 -0.5334629 -0.4694832 0.08401562 0.08100189
400980000.0 -0.03694482 -0.0209533 -0.1202544 0.6973631 -0.1171664 0.6987805 -0.01297466 -0.01942354
420979000.0 -0.05620772 -0.08831505 0.6504402 -0.2532463 0.648454 -0.2634515 0.03803384 -0.1165423
440978000.0 -0.00988665 0.08192977 -0.5499874 -0.4335578 -0.5550641 -0.4277383 -0.02871848 0.08364289
460977000.0 0.05602274 -0.02939261 -0.07562271 0.6961002 -0.07019661 0.6982093 0.03583416 0.07221871
480976000.0 -0.07025027 -0.1581019 0.6130008 -0.2919439 0.6124879 -0.298969 0.04435862 -0.1598483
500975000.0 -0.01543027 0.06040652 -0.5593986 -0.3845798 -0.5640407 -0.3785461 -0.04414239 0.007350933
520974000.0 0.04732544 -0.05008118 -0.03190745 0.6584123 -0.02596923 0.6644338 0.04545728 0.1671383
540973000.0 -0.1424068 -0.1302708 0.5796816 -0.2797585 0.5756567 -0.2893187 0.0530325 -0.164529
560972000.0 -0.01121295 0.08102058 -0.5508001 -0.367415 -0.5525145 -0.3662369 -0.09227312 -0.04366603
580971000.0 0.101327 -0.04659512 -0.02013319 0.6578075 -0.01123426 0.6644356 0.0537861 0.1826647
600970000.0 -0.2077384 -0.1062618 0.5668052 -0.2939955 0.5592621 -0.3015219 0.06445188 -0.1639497
620969000.0 -0.01139458 0.05094491 -0.5553557 -0.3480512 -0.5603591 -0.3458583 -0.07024835 -0.05520361
640968000.0 0.04745631 0.0480463 -0.005792364 0.65885 0.001319271 0.6619581 -0.006429048 0.06288919
660967000.0 -0.04069066 -0.02138797 0.5662821 -0.3284792 0.5613542 -0.3382142 -0.01483477 0.02717444
680966000.0 -0.0181339 -0.09513049 -0.5674094 -0.3087469 -0.5713488 -0.3022617 0.0381988 -0.0684995
700965000.0 -0.03225932 0.02326918 0.02726712 0.6470718 0.03662821 0.6489819 -0.04218775 -0.01566339
720964000.0 0.04572317 0.04979458 0.5245727 -0.3616809 0.5207471 -0.3676153 -0.007530802 0.1192112
740963000.0 -0.09095733 -0.1565212 -0.5739669 -0.2373895 -0.5777812 -0.2251877 0.1116297 -0.07294799
760962000.0 -0.06873572 0.0607691 0.03817097 0.6208298 0.04369152 0.6269368 -0.0250471 -0.156006
780961000.0 0.1046629 0.0340287 0.5039566 -0.3578686 0.4957333 -0.3643419 -0.1055401 0.1220159
800960000.0 -0.1320233 -0.1509222 -0.5597526 -0.2521939 -0.5623322 -0.2547539 0.115808 0.02766573
820959000.0 -0.09822749 0.08307239 0.06107337 0.61226 0.0764447 0.615552 -0.04450638 -0.207692
840958000.0 0.119097 0.0377966 0.487746 -0.3670647 0.4806207 -0.371331 -0.1019199 0.09214411
860957000.0 -0.08706141 -0.1094652 -0.5635979 -0.2249641 -0.5701299 -0.2262516 0.07943445 0.06276404
880956000.0 -0.1282029 0.06797087 0.08758067 0.5956373 0.1031692 0.5933361 -0.08006963 -0.1300095
900955000.0 0.0668965 0.01599602 0.4659984 -0.3773109 0.4632405 -0.380523 -0.06210656 0.02465162
920954000.0 -0.0228502 0.03792822 -0.5519654 -0.2037475 -0.5580503 -0.1989209 -0.0184416 0.1415676
940953000.0 -0.01488913 -0.02226153 0.1097189 0.5792585 0.1162162 0.5805396 0.04622371 0.01703344
960952000.0 -0.05836799 0.02601549 0.4383408 -0.3815624 0.429184 -0.3895493 0.04491453 -0.08469594
980951000.0 0.1195717 0.05341973 -0.5386695 -0.1847192 -0.5426229 -0.1823994 -0.1163157 0.006018729
1000950000.0 0.007149501 -0.1283671 0.1043003 0.5610408 0.1189741 0.5636935 0.04056277 0.1329155
1020949000.0 -0.1436158 -0.01226027 0.4304667 -0.3785847 0.4222268 -0.3826627 0.04940455 -0.0882665
1040948000.0 0.06405856 0.05201515 -0.5437139 -0.1806962 -0.5507048 -0.1764758 -0.1044719 -0.0222438
1060947000.0 -0.0115169 -0.1193895 0.1211664 0.5624472 0.1371604 0.5593433 0.001910351 0.1636282
1080946000.0 -0.1802885 0.06592719 0.4129992 -0.3931974 0.4094835 -0.3902841 0.118549 -0.05415904
1100945000.0 0.06872293 0.05932048 -0.541705 -0.1674369 -0.551107 -0.159144 -0.1097596 -0.07701502
1120944000.0 -0.00235234 -0.05600647 0.1388302 0.5609391 0.1497626 0.5557421 -0.05873704 0.1216397
1140943000.0 -0.08462201 0.07861853 0.3983671 -0.4084214 0.3963598 -0.4107568 0.1135497 0.05559682
1160942000.0 0.03509424 0.06693895 -0.547722 -0.1403882 -0.5532848 -0.130486 -0.05178758 -0.01905969
1180941000.0 0.1275688 -0.05126873 0.15316 0.5377672 0.1652027 0.5333825 0.04517214 -0.01617638
1200940000.0 -0.01166731 -0.08136473 0.3852616 -0.4141247 0.3791948 -0.4161623 -0.01386839 0.06291474
1220939000.0 -0.1244064 -0.03238712 -0.5452523 -0.1154022 -0.5499155 -0.1140554 0.06580744 -0.006165089
1240938000.0 0.0008646034 0.05029825 0.168614 0.5316592 0.1828704 0.5270613 -0.07571785 -0.1234606
1260937000.0 0.0855947 -0.05942123 0.3603889 -0.4173264 0.3562652 -0.4170979 -0.05007835 0.1270544
1280936000.0 -0.1854523 -0.02159769 -0.5347143 -0.09824137 -0.5446392 -0.09072691 0.09144753 0.07144463
1300935000.0 0.01908569 0.07185683 0.1766457 0.5241377 0.1894445 0.5152184 -0.01952041 -0.1588974
1320934000.0 0.04141096 -0.07446212 0.349955 -0.4309226 0.3470885 -0.4325053 -0.1026103 0.01329169
1340933000.0 -0.1329659 0.06788589 -0.5246968 -0.07644165 -0.5306844 -0.06777642 0.0005339904 0.1769308
1360932000.0 -0.006368982 0.05608435 0.1974944 0.5089542 0.2026674 0.5036913 0.001068864 -0.06668133
1380931000.0 0.09261193 -0.01614912 0.3361137 -0.4300149 0.3329149 -0.4340058 -0.01302643 0.0005135338
1400930000.0 -0.02658956 0.01495111 -0.5284144 -0.06499767 -0.5323676 -0.05493419 -0.008735883 0.1328639
1420929000.0 -0.0788492 0.002174401 0.2143728 0.4883207 0.2262626 0.4814402 -0.002607731 0.02380443
1440928000.0 0.09011152 0.03801404 0.3204952 -0.4326475 0.3124758 -0.4365198 0.09675835 -0.04284584
1460927000.0 0.07690162 -0.06658071 -0.5279598 -0.04194446 -0.5327629 -0.03325017 -0.05754255 -0.001985637
1480926000.0 -0.1697252 -0.06737227 0.2187864 0.4633109 0.2278844 0.4546915 -0.0522615 0.1202017
1500925000.0 -0.004921491 0.05022642 0.3001683 -0.4341134 0.2971682 -0.4342504 0.0981858 -0.07121838
1520924000.0 0.06743345 -0.002131226 -0.5209659 -0.03502131 -0.5239772 -0.02595804 -0.05010067 0.01555157
1540923000.0 -0.1485017 -0.04993263 0.2275991 0.4569968 0.2330852 0.4485388 -0.04892645 0.1373954
1560922000.0 -0.05611174 0.09066829 0.2810026 -0.4297085 0.2800714 -0.4352731 0.1057722 -0.07533118
1580921000.0 0.1126109 0.0295502 -0.517793 -0.02819819 -0.5202695 -0.01370666 -0.03234828 -0.006458212
1600920000.0 -0.07353254 0.01150299 0.2348057 0.455236 0.2433026 0.4486487 -0.1003614 0.09593596
1620919000.0 -0.00784736 -0.02339905 0.2723649 -0.4399441 0.2642975 -0.4441851 0.02122652 0.05601518
1640918000.0 0.01852398 0.05240155 -0.5166113 -0.007583117 -0.5194933 0.0008423007 0.1202951 0.05679595
1660917000.0 0.06181167 0.02015901 0.2579857 0.4457027 0.2674031 0.4383232 -0.00862399 -0.0210609
1680916000.0 -0.07318212 -0.1152029 0.2445865 -0.4416093 0.239919 -0.4438858 -0.07353992 0.02853457
1700915000.0 -0.029 0.09300137 -0.5042232 0.01145697 -0.5083879 0.01823658 0.1317309 0.09171266
1720914000.0 0.1250053 -0.01404205 0.2703931 0.4241178 0.2754923 0.4174399 0.06771146 -0.08209807
1740913000.0 -0.1508618 -0.1489238 0.2231856 -0.4305552 0.2210321 -0.433998 -0.1774906 -0.01139847
1760912000.0 -0.1017696 0.1510048 -0.4903478 0.008728504 -0.4922487 0.0220145 0.115092 0.1512432
1780911000.0 0.1404444 0.06324158 0.2666621 0.4229635 0.2708882 0.4144527 0.0540178 -0.09336999
1800910000.0 -0.03818252 -0.1081752 0.2225262 -0.4383184 0.2174088 -0.4464613 -0.1402607 0.05052158
1820909000.0 -0.08802944 0.04511042 -0.4974025 0.02528589 -0.495154 0.04001668 0.08917842 0.08597945
1840908000.0 0.03398758 0.05063042 0.282645 0.4137137 0.2889837 0.4086838 0.02589108 0.008565896
1860907000.0 -0.0124082 0.01274968 0.2057163 -0.4526143 0.1982983 -0.4560975 -0.01636056 -0.008106413
1880906000.0 0.02441332 0.01824281 -0.4904349 0.05370979 -0.4912055 0.06380732 -0.03297195 0.06977946
1900905000.0 -0.04413553 0.01279663 0.2957696 0.3905285 0.3030026 0.3819151 0.02391509 0.1199143
1920904000.0 0.1238865 0.05173556 0.1801925 -0.4507961 0.1742057 -0.4523171 0.1582483 0.0314836
1940903000.0 0.007325857 -0.1826029 -0.4661311 0.07464094 -0.4646544 0.08207048 -0.01483508 -0.1265924
1960902000.0 -0.2007024 0.02982888 0.2861933 0.3693815 0.287844 0.3620084 -0.07440433 0.1571904
1980901000.0 0.08275224 0.08346989 0.1735408 -0.4434181 0.1701388 -0.446056 0.1599101 0.01218088
2000900000.0 -0.03729557 -0.1511389 -0.4551992 0.08435389 -0.4541852 0.08983709 -0.001483834 -0.1464189
2020899000.0 -0.2283237 0.1352482 0.2771993 0.3534564 0.2797873 0.3498696 -0.1691544 0.1659728
2040898000.0 0.1091627 0.1306296 0.1807685 -0.4337144 0.1759785 -0.4378477 0.1532803 0.06356956
2060897000.0 0.06170126 -0.05951123 -0.4687114 0.07714538 -0.465666 0.08460989 0.005949069 -0.04624896
2080896000.0 -0.1082912 0.0355709 0.301088 0.3599452 0.3039204 0.3581897 -0.02827879 0.1550959
2100895000.0 0.0185854 0.06387792 0.1606712 -0.4478709 0.1526792 -0.4521683 0.09393849 0.01434202
2120894000.0 0.05443872 -0.001742724 -0.4661545 0.09757296 -0.4641971 0.1046607 0.07100032 0.001126075
2140893000.0 0.02469056 -0.0001388912 0.3234776 0.3449149 0.3288449 0.3397996 0.04615525 0.01471237
2160892000.0 -0.1154057 -0.06372258 0.1235846 -0.4417315 0.1190917 -0.4439039 -0.08797589 0.01198015
2180891000.0 0.009741379 0.1343863 -0.449012 0.1055153 -0.4470034 0.1154276 0.1174115 0.1335221
2200890000.0 0.1266298 -0.05483305 0.3282602 0.320477 0.3318764 0.3146734 0.1675265 -0.07366601
2220889000.0 -0.1969587 -0.05660948 0.1143844 -0.4211887 0.1100061 -0.4218955 -0.1574652 -0.05733711
2240888000.0 0.04717544 0.1602233 -0.4417299 0.1094986 -0.4409696 0.1141932 0.03603045 0.1617384
2260887000.0 0.1245485 -0.1027255 0.3257123 0.3054752 0.3304661 0.2996639 0.2120323 -0.02998294
2280886000.0 -0.225583 -0.01626696 0.11718 -0.4083441 0.1134452 -0.4082786 -0.1662503 -0.08068752
2300885000.0 0.0516594 0.1677482 -0.4422263 0.1061769 -0.4429363 0.1120936 0.002062602 0.1877759
2320884000.0 0.1072404 -0.07374583 0.3254908 0.3131198 0.3288838 0.3058209 0.2091924 0.03677405
2340883000.0 -0.09929016 0.03080312 0.1179821 -0.4371599 0.113515 -0.4374864 -0.01448879 -0.0233558
2360882000.0 -0.03183518 0.0212557 -0.4391521 0.1343696 -0.4367594 0.1386122 0.05430441 0.007515215
2380881000.0 0.0640911 0.06835478 0.339661 0.3030131 0.3450419 0.3000666 0.03815181 -0.01807157
2400880000.0 0.05952593 0.02695096 0.08252608 -0.4476933 0.07624248 -0.4469815 0.05478772 0.08755305
2420879000.0 -0.04454498 -0.08392459 -0.4198343 0.1451309 -0.4180047 0.1484106 0.004478511 -0.065617
2440878000.0 -0.057362 0.04273714 0.3510295 0.2869118 0.3540673 0.2843322 0.01120402 0.06248266
2460877000.0 0.1122514 0.08204975 0.05183241 -0.4304712 0.04728307 -0.4314422 0.1561348 0.08862437
2480876000.0 -0.1123342 -0.09262963 -0.4047758 0.1445307 -0.4060006 0.1505437 0.02677877 -0.1457284
2500875000.0 -0.05525283 0.1408625 0.3510311 0.2718904 0.3569153 0.2644263 -0.1174608 0.02354016
2520874000.0 0.1864284 0.03801809 0.04759947 -0.4096358 0.04423057 -0.40943 0.1484476 0.168307
2540873000.0 -0.1232147 -0.0611306 -0.4015028 0.1466271 -0.4029661 0.1552481 0.08286501 -0.1063736
2560872000.0 -0.02147273 0.1287675 0.3473673 0.2624962 0.3500184 0.2542605 -0.1143644 -0.0132936
2580871000.0 0.1664164 -0.01751915 0.05681999 -0.4074365 0.05393805 -0.4098305 0.1302941 0.1549309
2600870000.0 -0.0966616 -0.01609934 -0.4037312 0.1571081 -0.4009675 0.1672567 0.1068238 -0.04713442
2620869000.0 -0.01073383 0.05261895 0.3500894 0.2615728 0.3517719 0.2544525 -0.03313033 -0.04848172
2640868000.0 0.02434775 -0.02034129 0.0476927 -0.4318962 0.04083416 -0.4324744 0.0429846 0.02393651
2660867000.0 0.02784743 0.07186616 -0.3886999 0.1797623 -0.3851269 0.1853106 0.0296128 0.07903179
2680866000.0 -0.04804189 -0.05136374 0.3534738 0.248272 0.357767 0.2397256 0.1024628 0.02399161
2700865000.0 -0.07044452 0.04216892 0.02679616 -0.4316886 0.02119169 -0.4276879 0.04046491 -0.0853025
2720864000.0 0.0557169 0.1210564 -0.3804432 0.1870906 -0.3776564 0.1910201 0.03361452 0.06602272
2740863000.0 0.05394147 -0.02350099 0.3614161 0.233587 0.3637609 0.2274895 0.0933892 -0.03216817
2760862000.0 -0.08681807 0.008147175 0.01277289 -0.4204857 0.007831252 -0.420134 -0.04151749 -0.06160507
2780861000.0 0.08991849 0.07224316 -0.3721534 0.196875 -0.3700161 0.2042226 -0.01898073 0.09591539
2800860000.0 -0.01510312 -0.06309045 0.3616458 0.2177249 0.3606877 0.2101673 0.1689022 0.07604969
2820859000.0 -0.05103805 0.1233872 0.004645592 -0.4140602 0.003199606 -0.4161772 0.06654941 -0.1099045
2840858000.0 0.10517 0.003904295 -0.362392 0.2012901 -0.359262 0.2075698 -0.06214001 0.02448305
2860857000.0 0.0007619491 -0.07141607 0.3602683 0.2065351 0.3591718 0.2047402 0.139845 0.0291655
2880856000.0 -0.03371371 0.08659952 -0.0009528244 -0.4176095 -0.004082851 -0.4200676 0.05251186 -0.03774008
2900855000.0 0.01028874 0.0222284 -0.3603615 0.2146748 -0.3584034 0.2180818 -0.01748519 0.01178785
2920854000.0 0.02560785 -0.01557109 0.3628046 0.1982213 0.3663126 0.1955034 0.06719543 -0.04936529
2940853000.0 0.05614348 0.04627283 -0.02046406 -0.4132285 -0.02500203 -0.4135672 0.07035398 0.0412226
2960852000.0 -0.04807666 0.02084837 -0.3511902 0.2252552 -0.349552 0.2308914 0.0133179 0.005397609
2980851000.0 -0.002361986 0.003492026 0.3695055 0.1894007 0.3735088 0.1829216 0.01198809 -0.07606771
3000850000.0 0.07186335 0.07897948 0.04478156 -0.4027873 0.0556004 -0.4001774 0.04808825 0.05973713
3020849000.0 -0.001812374 0.04643006 -0.3318826 0.2353833 -0.3285617 0.2405962 0.02470341 0.08166628
3040848000.0 -0.04786826 -0.03471163 0.3726135 0.1785444 0.3758301 0.171414 0.04239922 -0.05192712
3060847000.0 0.08141742 0.02808557 -0.03517234 -0.400574 -0.04153765 -0.3983164 0.1084659 -0.02237239
3080846000.0 -0.03322217 0.09084814 -0.322006 0.2402313 -0.3160711 0.2447239 0.09888316 0.02968024
3100845000.0 0.01768689 0.05095502 0.3780581 0.1584482 0.3748475 0.1539185 -0.07461965 -0.1115725
3120844000.0 0.04239614 -0.05271247 -0.0502967 -0.4009601 -0.05474334 -0.3997168 0.02478483 0.009474188
3140843000.0 0.03879662 0.1445888 -0.3063799 0.2323879 -0.3018264 0.2347873 0.116643 0.1017596
3160842000.0 0.0266387 0.02679961 0.3739475 0.1541194 0.3732509 0.1514279 -0.005055435 -0.05917072
3180841000.0 0.05080124 -0.0419942 -0.05643291 -0.4034567 -0.05995587 -0.4015656 0.06521134 -0.05240459
3200840000.0 0.07781837 0.05077827 -0.3114645 0.2511809 -0.3094546 0.2532462 0.04478484 0.01766555
3220839000.0 -0.006489644 0.02699322 0.3732382 0.135433 0.3740534 0.1314627 -0.006962069 0.0418946
3240838000.0 0.01036478 -0.05619645 -0.07269214 -0.3956711 -0.07633168 -0.3926682 0.08744957 -0.01103558
3260837000.0 0.008400749 0.06871679 -0.2984741 0.2634366 -0.2971869 0.2635819 0.1115011 -0.06727661
3280836000.0 0.08300897 0.07504135 0.370643 0.1235305 0.3737331 0.1189874 -0.05815156 0.0007412619
3300835000.0 0.01080717 -0.08625641 -0.08377676 -0.3866007 -0.0861653 -0.3825946 0.08635713 0.05061173
3320834000.0 -0.02597565 0.06781135 -0.283156 0.2680789 -0.2846805 0.2698902 0.1340471 -0.1007983
3340833000.0 0.1410549 0.06129972 0.3672519 0.1132324 0.3706162 0.1066611 -0.06974442 -0.0776059
3360832000.0 0.01275488 -0.09082556 -0.0879783 -0.3807057 -0.0893249 -0.3783753 0.03722849 0.06322812
3380831000.0 -0.006530717 0.007623164 -0.280417 0.2719161 -0.2791766 0.2759285 0.05204842 -0.04228114
3400830000.0 0.0334703 0.01839653 0.3759912 0.1011815 0.378095 0.09655942 0.02043405 -0.02947341
3420829000.0 0.04656143 0.009271789 -0.1050262 -0.3717993 -0.1098847 -0.3717459 0.0627572 -0.02181853
3440828000.0 0.02048275 -0.008047748 -0.2672569 0.2795917 -0.2639478 0.2828672 -0.003479654 -0.01331362
3460827000.0 0.0333426 0.02029281 0.3754837 0.08536599 0.3761536 0.07989921 0.00228806 -0.02432395
3480826000.0 0.1079692 -0.04063305 -0.11291 -0.3594121 -0.1176028 -0.3583381 0.08104146 0.005116046
3500825000.0 -0.009502822 -0.04329125 -0.2540589 0.2840545 -0.2508526 0.2879851 0.02763514 0.01287841
3520824000.0 -0.06197971 0.0003704404 0.3706592 0.07089631 0.3721014 0.06324742 0.08257977 -0.03531896
3540823000.0 0.112583 0.07758522 -0.1220948 -0.3502217 -0.1248178 -0.3439318 0.03505402 -0.1628261
3560822000.0 0.1011192 -0.1006106 -0.235247 0.2802626 -0.2359549 0.2845293 -0.08439653 0.09147209
3580821000.0 -0.1562184 -0.01216425 0.3590733 0.06218891 0.3591862 0.0518481 0.150758 0.03714762
3600820000.0 0.1275905 0.1442542 -0.1213751 -0.3392736 -0.1183527 -0.334692 0.05410565 -0.2559533
3620819000.0 0.1599663 -0.1220118 -0.2344237 0.2702181 -0.2361485 0.278064 -0.158037 0.06944362
3640818000.0 -0.1443546 0.01378407 0.3575564 0.06534816 0.3555113 0.05702391 0.09147038 0.1110252
3660817000.0 0.1472464 0.07321122 -0.1214809 -0.3496858 -0.1207502 -0.3496776 0.1173776 -0.1693103
3680816000.0 0.1450778 -0.09563003 -0.2389376 0.2875471 -0.2352439 0.294695 -0.06813914 -0.001154982
3700815000.0 -0.04132595 -0.04146788 0.3735561 0.05422835 0.3716508 0.04801822 0.02260882 0.03510303
3720814000.0 0.0006786571 -0.05435887 -0.1489612 -0.3471057 -0.1523995 -0.3434542 0.04496745 -0.01903056
3740813000.0 0.07264586 0.01932324 -0.2198133 0.3038144 -0.2176877 0.3046921 0.1114354 -0.03489171
3760812000.0 0.03500305 -0.07578144 0.3732346 0.02727243 0.3727914 0.02233619 0.009843079 -0.07816026
3780811000.0 -0.11825 -0.03362732 -0.1664947 -0.3222332 -0.1670909 -0.3195926 -0.03438422 0.001695806
3800810000.0 0.06183217 0.1067741 -0.1941389 0.3018082 -0.1954421 0.3064164 0.1544418 -0.07121156
3820809000.0 0.1636133 -0.06360948 0.3555405 0.008564292 0.3536723 0.000516056 -0.09350265 -0.124747
3840808000.0 -0.161555 -0.111487 -0.1672906 -0.2958083 -0.1639251 -0.2957786 -0.04697839 0.1453205
3860807000.0 0.03866722 0.205296 -0.1779865 0.2814482 -0.1759005 0.2920949 0.262228 -0.08641775
3880806000.0 0.2899794 -0.1050147 0.3301865 0.01217319 0.3229055 0.003751627 -0.1214164 -0.2514974
3900805000.0 -0.1566238 -0.2135094 -0.1352278 -0.2892031 -0.1337219 -0.2936611 -0.1389029 0.1922601
3920804000.0 -0.01869883 0.1368001 -0.2095547 0.2739109 -0.2021737 0.2854642 0.2157059 -0.007834342
3940803000.0 0.1758548 -0.09082469 0.3551371 0.02261845 0.3523018 0.01669388 0.02180922 -0.1680315
3960802000.0 -0.07054394 -0.1155442 -0.1580389 -0.311464 -0.1630952 -0.3142128 -0.06613831 0.06402682
