! Created with skrf 1.9.0 (http://scikit-rf.org).
# Hz S RI R 50.0 
!freq ReS11 ImS11 ReS21 ImS21 ReS12 ImS12 ReS22 ImS22
1000000.0 1.046186 -0.06888287 0.0002712483 -0.0009469147 0.0003326636 -0.000942482 0.8011498 -0.5572578
20999000.0 0.3996825 -0.5383129 0.2593119 -0.5335243 0.2725967 -0.5215631 -0.2797231 0.5006552
40998000.0 0.2405257 -0.3306244 -0.6283501 0.446586 -0.630536 0.4416459 -0.2890237 0.03565342
60997000.0 0.1202613 -0.2718432 0.7700781 0.1932974 0.7750121 0.1890261 0.1340889 -0.2000512
80996000.0 -0.01552554 -0.2614179 -0.2864695 -0.7255676 -0.2987449 -0.7341303 0.08078369 0.1780618
100995000.0 0.03332656 -0.198984 -0.4259314 0.6667758 -0.4261064 0.6767884 -0.15157 0.07036941
120994000.0 0.02035081 -0.1480236 0.7960796 -0.006263638 0.7983773 -0.01619715 0.07779743 -0.09960211
140993000.0 -1.88351e-05 -0.1519632 -0.427938 -0.6572933 -0.4420411 -0.6535718 0.1171389 0.09621909
160992000.0 -0.05264314 -0.145888 -0.3208214 0.7020705 -0.3137605 0.7107652 -0.1341981 0.0125203
180991000.0 -0.006220776 -0.06833899 0.7739102 -0.09941062 0.7739815 -0.1088405 0.05172928 -0.04275583
200990000.0 0.0320521 -0.07020524 -0.4918388 -0.6016868 -0.5018601 -0.5938007 0.1040895 0.08263608
220989000.0 -0.02766827 -0.1335139 -0.2434026 0.7188786 -0.2335703 0.724197 -0.06930286 -0.0149285
240988000.0 0.02351429 -0.02531846 0.7428015 -0.1684931 0.7425365 -0.1767949 -0.004777674 0.006768599
260987000.0 0.05986403 -0.1694961 -0.5317491 -0.529678 -0.5360853 -0.5197456 0.1955773 0.04038705
280986000.0 -0.1187813 -0.138761 -0.1835948 0.7051616 -0.1741324 0.7068439 -0.1105478 -0.07047491
300985000.0 -0.0005180812 -0.01209531 0.7022436 -0.2166943 0.7002587 -0.2251344 -0.02032412 0.0122213
320984000.0 -0.01634492 -0.1692607 -0.5327849 -0.448462 -0.5345525 -0.4428538 0.1859886 0.001321024
340983000.0 -0.166464 -0.04837224 -0.1707769 0.656015 -0.1638257 0.659191 -0.06973159 -0.05283083
360982000.0 -0.003146529 0.02888465 0.6663585 -0.250547 0.6602688 -0.2686754 0.0003891262 0.02938846
380981000.0 -0.01211054 -0.04384661 -0.5329112 -0.4762622 -0.5357795 -0.473736 0.0820834 0.07660599
400980000.0 -0.04077166 -0.01903067 -0.12315 0.7015273 -0.1201219 0.7029502 -0.01632192 -0.01546325
420979000.0 -0.0538527 -0.0860075 0.6554448 -0.2532771 0.6535584 -0.2636432 0.04290516 -0.1179959
440978000.0 -0.007209168 0.07997935 -0.5523503 -0.4375596 -0.5573615 -0.4317052 -0.03174384 0.08260298
460977000.0 0.05225374 -0.03164247 -0.07792395 0.6997938 -0.0726302 0.7019312 0.03643768 0.07521264
480976000.0 -0.07142606 -0.154118 0.6174959 -0.2916788 0.6168592 -0.2987724 0.04558919 -0.1637553
500975000.0 -0.009862944 0.06047517 -0.5614358 -0.3883354 -0.565957 -0.3824891 -0.04689811 0.009867721
520974000.0 0.04445113 -0.0549324 -0.03462729 0.6613297 -0.02860119 0.6676679 0.04911059 0.1688239
540973000.0 -0.1465967 -0.1265262 0.5840693 -0.2785287 0.5798538 -0.2881828 0.05101129 -0.1701588
560972000.0 -0.004759259 0.0835233 -0.5523329 -0.3717416 -0.5540961 -0.3708033 -0.09477193 -0.03841019
580971000.0 0.100766 -0.05261698 -0.02335345 0.6607131 -0.01425353 0.6674019 0.05956036 0.1828492
600970000.0 -0.2141412 -0.1042172 0.5717684 -0.2917832 0.5642277 -0.2992398 0.06053818 -0.1704387
620969000.0 -0.00515445 0.05522997 -0.5573846 -0.3537835 -0.5626602 -0.3516643 -0.0722467 -0.04805969
640968000.0 0.04882661 0.0427265 -0.009211115 0.6629511 -0.002013366 0.6659874 0.0004804122 0.06113703
660967000.0 -0.0469566 -0.02106647 0.5722266 -0.3272515 0.5674175 -0.3370583 -0.0210522 0.0228862
680966000.0 -0.01540548 -0.09114792 -0.5701582 -0.31365 -0.5742605 -0.3069367 0.03891717 -0.06247218
700965000.0 -0.02845874 0.0207449 0.02422217 0.6511492 0.0335856 0.6531988 -0.03770119 -0.01912896
720964000.0 0.04171172 0.04767298 0.5300485 -0.3614696 0.5262389 -0.3674986 -0.01286736 0.1187506
740963000.0 -0.09271589 -0.153275 -0.5763564 -0.2411915 -0.5803382 -0.2290461 0.1144424 -0.07006862
760962000.0 -0.06355408 0.06246372 0.03506739 0.624151 0.04068916 0.6303851 -0.02412561 -0.1598261
780961000.0 0.1042841 0.02886836 0.5087386 -0.3571014 0.5003908 -0.363518 -0.1089269 0.1251773
800960000.0 -0.1382115 -0.1490674 -0.5609117 -0.2566374 -0.5635659 -0.2594801 0.1201543 0.0274236
820959000.0 -0.09289798 0.08806564 0.05701416 0.6157643 0.07267892 0.6190398 -0.04765724 -0.2120148
840958000.0 0.1218628 0.03141424 0.4929509 -0.3656161 0.4858413 -0.3696967 -0.1026307 0.09883718
860957000.0 -0.09492654 -0.1093379 -0.5647568 -0.230418 -0.571667 -0.2317001 0.08482362 0.05932374
880956000.0 -0.1251417 0.0745312 0.08308951 0.5997814 0.09882232 0.5973359 -0.08692753 -0.133587
900955000.0 0.07295701 0.0102434 0.4724476 -0.3756132 0.4700722 -0.3788422 -0.05905645 0.03277031
920954000.0 -0.03087922 0.03624678 -0.5544599 -0.2095053 -0.5607631 -0.204508 -0.01436744 0.1358662
940953000.0 -0.0137336 -0.01571905 0.1060489 0.5841469 0.1123535 0.5852606 0.03843069 0.01609464
960952000.0 -0.05303986 0.02285837 0.4446577 -0.3809497 0.4356729 -0.3892388 0.04955405 -0.07846376
980951000.0 0.11633 0.05008603 -0.5412852 -0.1896816 -0.5451955 -0.1872978 -0.1142549 -0.000573231
1000950000.0 0.003733577 -0.1245003 0.1008286 0.5653282 0.1155488 0.5681726 0.03457862 0.1354944
1020949000.0 -0.1388771 -0.01015883 0.4360873 -0.3780938 0.4278493 -0.3822399 0.05439695 -0.08609243
1040948000.0 0.06554133 0.04638842 -0.5455245 -0.1854515 -0.5526252 -0.1813319 -0.1055705 -0.0270314
1060947000.0 -0.01804404 -0.1184625 0.1172651 0.5665073 0.1334803 0.5634068 -0.0007782399 0.1680543
1080946000.0 -0.1777227 0.07209505 0.4183187 -0.3920571 0.4149728 -0.3889022 0.1235016 -0.05579138
1100945000.0 0.07492527 0.05351372 -0.5428273 -0.1733455 -0.5525914 -0.1649422 -0.1147417 -0.07953875
1120944000.0 -0.01056642 -0.05853219 0.1345222 0.5655982 0.1453896 0.560238 -0.05673739 0.1275609
1140943000.0 -0.08419916 0.08747073 0.4044123 -0.4065061 0.402654 -0.4090575 0.1174072 0.05029694
1160942000.0 0.04290783 0.06181056 -0.5496837 -0.1476064 -0.5553988 -0.1373117 -0.06054688 -0.01918087
1180941000.0 0.1213948 -0.0559417 0.1490413 0.543211 0.1607424 0.5388823 0.05266371 -0.009448682
1200940000.0 -0.01431083 -0.07308023 0.3923424 -0.4130445 0.3864302 -0.4155297 -0.0137285 0.05408144
1220939000.0 -0.1170493 -0.03385544 -0.548542 -0.12169 -0.5529172 -0.1202144 0.05808267 -0.001333755
1240938000.0 -0.001729461 0.04377354 0.1647781 0.5370619 0.1789071 0.5329255 -0.06709047 -0.1213524
1260937000.0 0.08106874 -0.05393024 0.367043 -0.4173454 0.3627284 -0.4173627 -0.05231221 0.1203229
1280936000.0 -0.1814724 -0.01894928 -0.5374168 -0.1032412 -0.5471782 -0.09591454 0.08634246 0.07741084
1300935000.0 0.02233053 0.06618566 0.1724071 0.5291041 0.185347 0.5204453 -0.01213269 -0.1599948
1320934000.0 0.03493606 -0.07521286 0.3559398 -0.430592 0.3530119 -0.4322825 -0.1064354 0.009261475
1340933000.0 -0.1330556 0.07577054 -0.5258546 -0.08219533 -0.5319503 -0.07367151 -0.001044821 0.1833575
1360932000.0 0.002093863 0.05076224 0.1924053 0.5153571 0.1977223 0.510089 0.005989412 -0.0725368
1380931000.0 0.08561638 -0.02115009 0.3425255 -0.4294615 0.3392883 -0.4337912 -0.01848052 0.001674424
1400930000.0 -0.02996318 0.02514984 -0.53006 -0.0721708 -0.5340599 -0.06191229 -0.004930954 0.1380466
1420929000.0 -0.06873775 -0.001279492 0.2103625 0.4955053 0.222112 0.4889512 -0.00285594 0.01468573
1440928000.0 0.08504944 0.03060158 0.327425 -0.4323171 0.3192452 -0.4366117 0.09194326 -0.03665007
1460927000.0 0.07168195 -0.05754066 -0.5315678 -0.04877246 -0.5360615 -0.04020806 -0.04963421 -0.0002770662
1480926000.0 -0.1619211 -0.06703081 0.2158796 0.469299 0.2251777 0.4611202 -0.05763962 0.111938
1500925000.0 -0.004978856 0.04242359 0.306992 -0.4338431 0.3035133 -0.4341142 0.09609216 -0.06325012
1520924000.0 0.06005223 0.002302964 -0.5242401 -0.04117575 -0.5271887 -0.03240931 -0.04201307 0.01465141
1540923000.0 -0.1441507 -0.04537883 0.2238006 0.4626442 0.2297729 0.4544239 -0.0568308 0.1311533
1560922000.0 -0.05148146 0.0844148 0.2881988 -0.4299546 0.2869836 -0.4353732 0.107135 -0.06749999
1580921000.0 0.1060763 0.0278887 -0.5207106 -0.03356201 -0.5234032 -0.01932401 -0.02674191 -0.01005233
1600920000.0 -0.07577021 0.01906325 0.2299824 0.4604314 0.2389196 0.453959 -0.1081922 0.09363412
1620919000.0 0.002942855 -0.02603713 0.2802338 -0.4396631 0.2720574 -0.4438235 0.02569304 0.06125829
1640918000.0 0.0121412 0.04436706 -0.5196534 -0.01390375 -0.5228173 -0.005697801 0.121935 0.05186525
1660917000.0 0.05529294 0.03052974 0.2530282 0.4525536 0.2628596 0.4452126 -0.01508003 -0.01819778
1680916000.0 -0.06076525 -0.1156484 0.252751 -0.4423898 0.2480611 -0.4446114 -0.06660832 0.02909008
1700915000.0 -0.03316013 0.08279659 -0.5082188 0.005128343 -0.5126075 0.01175822 0.1285965 0.08643572
1720914000.0 0.1169856 -0.005232633 0.2668742 0.4315254 0.27227 0.4249531 0.06471236 -0.07434031
1740913000.0 -0.1413995 -0.1462415 0.2304559 -0.4321684 0.2281841 -0.4355275 -0.1702677 -0.0160479
1760912000.0 -0.1014682 0.1421377 -0.4943223 0.003530151 -0.4964826 0.01667036 0.1082262 0.1484351
1780911000.0 0.1322997 0.06604045 0.2635388 0.4290648 0.2682357 0.4205731 0.05534966 -0.08514293
1800910000.0 -0.03409471 -0.1019436 0.2291575 -0.4391425 0.2240615 -0.4470234 -0.1350592 0.04375534
1820909000.0 -0.08266752 0.03955708 -0.5006495 0.01999804 -0.4989345 0.03455985 0.0816757 0.08552219
1840908000.0 0.02745967 0.04701107 0.2790446 0.4193763 0.2857892 0.4142247 0.02939577 0.01562439
1860907000.0 -0.0150047 0.0203597 0.2125871 -0.452368 0.2053048 -0.4555344 -0.01292523 -0.01572468
1880906000.0 0.03384168 0.01891456 -0.4934335 0.04694454 -0.4948663 0.05705956 -0.04064002 0.07243448
1900905000.0 -0.04766827 0.001555923 0.2915747 0.3975192 0.2990756 0.3885188 0.03036868 0.123094
1920904000.0 0.1150901 0.0610191 0.1884187 -0.4512439 0.1827901 -0.4526614 0.1564191 0.02532485
1940903000.0 0.01935476 -0.1783993 -0.4709738 0.06809757 -0.469825 0.07594054 -0.01744113 -0.1214366
1960902000.0 -0.2020069 0.01649412 0.2831185 0.3762977 0.2848303 0.368625 -0.06952679 0.1562248
1980901000.0 0.07209692 0.09015057 0.1815231 -0.4438064 0.1784661 -0.4467638 0.155478 0.007824478
2000900000.0 -0.02713805 -0.1440266 -0.4611596 0.07807676 -0.4600132 0.08396017 0.0001540135 -0.1388067
2020899000.0 -0.2268955 0.1246729 0.2757031 0.3599859 0.2782046 0.3564322 -0.166171 0.1603731
2040898000.0 0.1002343 0.1313341 0.1871202 -0.4343993 0.1825121 -0.4386347 0.1470971 0.06310311
2060897000.0 0.06507703 -0.05028931 -0.4728827 0.07148717 -0.4700019 0.07895163 0.01059887 -0.03954215
2080896000.0 -0.1021298 0.02974275 0.2988249 0.3660575 0.301601 0.3642383 -0.02712945 0.1475253
2100895000.0 0.01234537 0.05873808 0.1670287 -0.4481547 0.1591953 -0.4524734 0.08701727 0.01665573
2120894000.0 0.05141852 0.006383638 -0.4696808 0.09147996 -0.4680668 0.09887133 0.07835044 0.005927751
2140893000.0 0.03268083 0.001889783 0.3203976 0.3510538 0.3256171 0.3457668 0.04432823 0.007113425
2160892000.0 -0.1153943 -0.07506781 0.1303383 -0.4412822 0.1262795 -0.4436312 -0.0929933 0.016391
2180891000.0 -0.0006922175 0.1401664 -0.4525487 0.09809031 -0.4507764 0.1083701 0.1251972 0.1349768
2200890000.0 0.1362335 -0.04567698 0.3247268 0.3279947 0.3279021 0.3222593 0.1630087 -0.07867826
2220889000.0 -0.1937033 -0.07174993 0.1221656 -0.4213502 0.1180834 -0.4225653 -0.159411 -0.0520599
2240888000.0 0.03406136 0.1636831 -0.4471298 0.101854 -0.4459126 0.1069473 0.04280435 0.1586989
2260887000.0 0.1327964 -0.09089927 0.3234356 0.3137532 0.3280546 0.3084219 0.2056347 -0.03044263
2280886000.0 -0.2203267 -0.02877899 0.1242944 -0.4097988 0.1204152 -0.4100936 -0.1641911 -0.07627128
2300885000.0 0.04057493 0.1667297 -0.4471305 0.1001409 -0.447623 0.1059484 0.005665571 0.1818465
2320884000.0 0.1102678 -0.06292467 0.3234867 0.3205414 0.3271975 0.313557 0.2024419 0.03943809
2340883000.0 -0.09228382 0.02585908 0.1241233 -0.4384051 0.1194702 -0.4388668 -0.009026294 -0.01971907
2360882000.0 -0.03727399 0.01382767 -0.4424238 0.1282644 -0.4401245 0.132484 0.05419174 -0.0006723013
2380881000.0 0.05952057 0.07746723 0.3367502 0.3101647 0.3422809 0.3073362 0.0326341 -0.01177225
2400880000.0 0.06764216 0.02912753 0.08898877 -0.4479729 0.08271824 -0.4473742 0.0621706 0.08904256
2420879000.0 -0.04422896 -0.09447751 -0.4230628 0.1376641 -0.4212042 0.1410622 0.0004300523 -0.07475837
2440878000.0 -0.06639811 0.04614333 0.3477032 0.2945682 0.3505244 0.2921053 0.008894003 0.07218917
2460877000.0 0.1174131 0.09290141 0.05953626 -0.4303827 0.05497708 -0.4317148 0.1633088 0.08574126
2480876000.0 -0.1050632 -0.1058235 -0.4092862 0.1360364 -0.4104075 0.1419659 0.01939419 -0.1509748
2500875000.0 -0.06847978 0.1391468 0.3477992 0.2805395 0.3537645 0.2736026 -0.1144812 0.03142687
2520874000.0 0.1902355 0.05389306 0.05610928 -0.4106864 0.05243123 -0.4106907 0.1525131 0.1633534
2540873000.0 -0.1134771 -0.07280724 -0.40765 0.1390656 -0.4090356 0.1473338 0.07441085 -0.1069353
2560872000.0 -0.03345343 0.1229395 0.3449729 0.2712624 0.3479801 0.2634528 -0.1076044 -0.008634653
2580871000.0 0.1669424 -0.002919978 0.06470425 -0.409621 0.06154903 -0.4118831 0.130722 0.1484919
2600870000.0 -0.08689951 -0.02114468 -0.4093278 0.1512668 -0.4068951 0.161041 0.09951229 -0.04251088
2620869000.0 -0.01729347 0.04369878 0.347655 0.2696122 0.349865 0.2624832 -0.02420822 -0.04782168
2640868000.0 0.01955011 -0.0116842 0.05476213 -0.4336992 0.04781356 -0.4340959 0.03899078 0.01710127
2660867000.0 0.03588883 0.07609162 -0.3924846 0.1733405 -0.3892726 0.1787844 0.02584319 0.087666
2680866000.0 -0.04696108 -0.0632816 0.3499582 0.2564856 0.3546136 0.247856 0.1113003 0.02004074
2700865000.0 -0.08007246 0.04519791 0.03470739 -0.4324781 0.02904391 -0.4284373 0.0325749 -0.09031826
2720864000.0 0.06073928 0.1308798 -0.3850794 0.1789382 -0.3825244 0.1831418 0.03468175 0.07705683
2740863000.0 0.06160026 -0.03228217 0.3579278 0.2421871 0.3602943 0.2362456 0.1001901 -0.0408357
2760862000.0 -0.09802905 0.002088666 0.02237411 -0.4208733 0.01734584 -0.420672 -0.05227465 -0.06147748
2780861000.0 0.08950723 0.08781826 -0.379167 0.188349 -0.377263 0.1955878 -0.01122118 0.1036442
2800860000.0 -0.001129549 -0.06958406 0.3587917 0.2275357 0.3581094 0.2199845 0.1693968 0.06661174
2820859000.0 -0.06364089 0.113693 0.01509204 -0.4168302 0.01350288 -0.4187844 0.05834299 -0.1044555
2840858000.0 0.1017385 0.01705294 -0.3699353 0.1952475 -0.3671523 0.2014844 -0.05297526 0.02587629
2860857000.0 0.01548781 -0.07153656 0.3578655 0.2154018 0.3570648 0.213513 0.1369077 0.02145815
2880856000.0 -0.04096927 0.07477575 0.008583429 -0.4209655 0.005716489 -0.4231147 0.04735215 -0.02846791
2900855000.0 0.001170326 0.03011867 -0.367087 0.2086858 -0.3656175 0.2121829 -0.00857152 0.007453908
2920854000.0 0.03829358 -0.009725741 0.3603178 0.2069977 0.3640244 0.203929 0.06048358 -0.05455654
2940853000.0 0.05672638 0.03589111 -0.01161655 -0.4157099 -0.01587947 -0.4160335 0.07075202 0.05355274
2960852000.0 -0.06133405 0.02147817 -0.358565 0.2177866 -0.3573905 0.2237397 0.01889476 -0.005257174
2980851000.0 0.005913022 0.01317699 0.3675597 0.1985066 0.3715004 0.1918027 0.002593444 -0.07599498
3000850000.0 0.08071233 0.07417352 0.05441857 -0.4023438 0.06543183 -0.3995787 0.05389979 0.07252925
3020849000.0 -0.01573067 0.04124687 -0.3414693 0.2285165 -0.3382349 0.234079 0.02254973 0.06819805
3040848000.0 -0.04651162 -0.02501579 0.3712249 0.1868399 0.374459 0.1797628 0.03432936 -0.0460544
3060847000.0 0.09431259 0.02879399 -0.02413191 -0.4013852 -0.03059129 -0.3994333 0.122079 -0.01751417
3080846000.0 -0.04324936 0.07884574 -0.3320937 0.2343213 -0.3262599 0.2389942 0.08926845 0.02038287
3100845000.0 0.0095455 0.06087023 0.3762522 0.1671293 0.3731591 0.1625604 -0.07780953 -0.103987
3120844000.0 0.06028116 -0.04852332 -0.03760198 -0.404313 -0.04204879 -0.4031105 0.03879425 0.007867528
3140843000.0 0.03345698 0.1331623 -0.3156104 0.2281684 -0.3112875 0.2307233 0.1038211 0.09823702
3160842000.0 0.01425659 0.03106507 0.37254 0.1630888 0.3719145 0.1601058 -0.003063659 -0.05106886
3180841000.0 0.06391998 -0.03261946 -0.04561097 -0.4073369 -0.04885185 -0.4055127 0.07477847 -0.05993646
3200840000.0 0.08178838 0.03987049 -0.3197978 0.2451175 -0.3179388 0.2476381 0.03193393 0.01989775
3220839000.0 -0.02312793 0.02504159 0.3717315 0.1460084 0.3723126 0.1418969 0.0004710562 0.04861033
3240838000.0 0.01876777 -0.04296005 -0.06231048 -0.4007478 -0.0656018 -0.3981743 0.08949753 -0.02397849
3260837000.0 0.01793304 0.05948367 -0.3082964 0.2573597 -0.3067791 0.258017 0.1023801 -0.05697751
3280836000.0 0.06863231 0.07030851 0.3711109 0.1341213 0.3739587 0.1297983 -0.04670438 0.001094972
3300835000.0 0.01188405 -0.07453751 -0.07480507 -0.3915812 -0.07732113 -0.3880453 0.07973762 0.03950302
3320834000.0 -0.0147104 0.06429058 -0.292708 0.2629493 -0.2938897 0.2647447 0.1305232 -0.08728641
3340833000.0 0.1345551 0.05340533 0.3675268 0.1227956 0.3710599 0.116599 -0.05749259 -0.0837214
3360832000.0 0.005055239 -0.08435703 -0.07893612 -0.3851031 -0.08059619 -0.3828563 0.02481512 0.05820465
3380831000.0 0.004206992 0.01418176 -0.2890073 0.266418 -0.2877437 0.2702683 0.05550959 -0.03029135
3400830000.0 0.03601331 0.005250562 0.374879 0.1121317 0.3772118 0.1075963 0.02838308 -0.03998105
3420829000.0 0.03217852 0.0123368 -0.09531029 -0.37782 -0.1001458 -0.3778178 0.05008373 -0.01962833
3440828000.0 0.02856652 0.004126793 -0.2761845 0.2739579 -0.2729257 0.2773657 0.004386395 -0.005000594
3460827000.0 0.04200269 0.007067888 0.3749523 0.09783207 0.3757477 0.09228289 0.004564252 -0.03842853
3480826000.0 0.09382304 -0.04266272 -0.1038337 -0.3661305 -0.1083781 -0.3654311 0.07112447 0.01538205
3500825000.0 -0.008936867 -0.02774347 -0.2638869 0.2783926 -0.2605775 0.2826352 0.03932978 0.0136915
3520824000.0 -0.04659721 -0.01017496 0.3720274 0.0839932 0.3734026 0.07666095 0.07484431 -0.04702543
3540823000.0 0.09906399 0.07007347 -0.1134462 -0.3581021 -0.1167184 -0.3522053 0.03539578 -0.1488225
3560822000.0 0.0982696 -0.08404916 -0.2458523 0.2768015 -0.2462818 0.2808757 -0.07579557 0.08473615
3580821000.0 -0.1426729 -0.01858531 0.3619589 0.07302849 0.362572 0.06301815 0.1378237 0.03233899
3600820000.0 0.1206985 0.1355776 -0.1139514 -0.3466156 -0.1115134 -0.3419216 0.06182956 -0.2436081
3620819000.0 0.1538054 -0.1123251 -0.2433718 0.2680584 -0.2451333 0.2754039 -0.153602 0.0586604
3640818000.0 -0.1369127 0.0160319 0.3584656 0.07374784 0.3569987 0.06549513 0.07789371 0.1120798
3660817000.0 0.1517539 0.06488118 -0.1124016 -0.3550073 -0.1120206 -0.3547367 0.1299514 -0.1592781
3680816000.0 0.134042 -0.09550376 -0.2481463 0.2836266 -0.2448135 0.2907154 -0.07011499 -0.01466184
3700815000.0 -0.04082663 -0.02997915 0.3731214 0.06490209 0.3715631 0.05845708 0.01260782 0.0437598
3720814000.0 0.01621225 -0.06306163 -0.1384344 -0.3545043 -0.142018 -0.350841 0.05922481 -0.01864877
3740813000.0 0.05759581 0.01189799 -0.2308757 0.2997078 -0.228771 0.300632 0.1037499 -0.04376375
3760812000.0 0.03161937 -0.05833875 0.3750445 0.04005168 0.3747675 0.03517378 0.006212944 -0.06531277
3780811000.0 -0.1006771 -0.04080143 -0.1577637 -0.3321057 -0.1587932 -0.3294509 -0.02316383 -0.007730027
3800810000.0 0.05070474 0.09439033 -0.2055497 0.2996825 -0.2068852 0.3041194 0.1431925 -0.07184367
3820809000.0 0.1556199 -0.0453269 0.3596266 0.0204288 0.358247 0.01231726 -0.08819962 -0.1142105
3840808000.0 -0.144077 -0.1148506 -0.1611125 -0.3059703 -0.1579097 -0.3056598 -0.04442188 0.132154
3860807000.0 0.03073892 0.1922347 -0.1883328 0.281215 -0.1866619 0.2917427 0.2526672 -0.08056565
3880806000.0 0.2829943 -0.09367137 0.3350335 0.02079109 0.3282518 0.01189701 -0.1106853 -0.2462281
3900805000.0 -0.1474798 -0.2107655 -0.130854 -0.2961451 -0.1293407 -0.3002795 -0.1427042 0.1805706
3920804000.0 -0.01648546 0.127937 -0.2172012 0.2718592 -0.210362 0.2834203 0.2088258 0.0003547391
3940803000.0 0.1673463 -0.09093262 0.356739 0.03146213 0.3544568 0.02512418 0.03448996 -0.1654838
3960802000.0 -0.07110932 -0.1058691 -0.1507348 -0.3178211 -0.155608 -0.3202286 -0.07588705 0.05280989
