! Created with skrf 1.9.0 (http://scikit-rf.org).
# Hz S RI R 50.0 
!freq ReS11 ImS11 ReS21 ImS21 ReS12 ImS12 ReS22 ImS22
1000000.0 1.046398 -0.06876595 0.0002825656 -0.0009412246 0.0003342439 -0.0009357031 0.8010517 -0.5572708
20999000.0 0.3990187 -0.5378519 0.2604761 -0.5348619 0.2737624 -0.5228884 -0.2812537 0.5048849
40998000.0 0.2425107 -0.3316388 -0.629369 0.4479408 -0.631454 0.4430167 -0.2887176 0.03397355
60997000.0 0.1184381 -0.272143 0.7718151 0.1940724 0.7767383 0.1896826 0.1324732 -0.201762
80996000.0 -0.01503355 -0.260044 -0.2873082 -0.727594 -0.2997121 -0.7361814 0.08177672 0.1806376
100995000.0 0.03375774 -0.2002231 -0.4266261 0.6684608 -0.4267919 0.6785625 -0.1512425 0.06981593
120994000.0 0.01983926 -0.1475433 0.7980291 -0.006475869 0.8003224 -0.01645448 0.0772965 -0.1008489
140993000.0 0.0003228638 -0.1521817 -0.4292488 -0.658582 -0.4434419 -0.6548737 0.1172767 0.0969265
160992000.0 -0.05323091 -0.1456073 -0.3213086 0.7037202 -0.3141744 0.7124677 -0.1345062 0.01337309
180991000.0 -0.005058086 -0.06831963 0.7756194 -0.1001661 0.7757109 -0.1096203 0.05283639 -0.04377765
200990000.0 0.03116365 -0.07136293 -0.4931261 -0.6024431 -0.5032117 -0.594516 0.1032603 0.08177751
220989000.0 -0.02827134 -0.1318344 -0.2437291 0.7203226 -0.2338346 0.7256421 -0.07029463 -0.01298685
240988000.0 0.02562567 -0.02591478 0.7441158 -0.16937 0.7438488 -0.1776757 -0.002578241 0.006439752
260987000.0 0.05806015 -0.170912 -0.5327154 -0.5302761 -0.5370614 -0.5203021 0.194826 0.03825134
280986000.0 -0.1189693 -0.1364959 -0.183959 0.706579 -0.1744939 0.7083191 -0.1124463 -0.06831368
300985000.0 0.001426604 -0.01339654 0.7035238 -0.2175709 0.7014439 -0.2260088 -0.01784985 0.01239626
320984000.0 -0.01824752 -0.1698575 -0.533726 -0.4491905 -0.5355937 -0.443544 0.1855757 -0.0008765619
340983000.0 -0.1662514 -0.046652 -0.1709222 0.65746 -0.1639317 0.6606114 -0.07130704 -0.05120025
360982000.0 -0.002032923 0.02754214 0.6676078 -0.2514714 0.6614844 -0.2696463 0.002215171 0.02970256
380981000.0 -0.01338879 -0.04397877 -0.5341533 -0.476835 -0.5369521 -0.4743799 0.08217735 0.07530939
400980000.0 -0.04026609 -0.01825503 -0.1229447 0.7030281 -0.1199091 0.7043945 -0.01752599 -0.01499014
420979000.0 -0.05400577 -0.08671634 0.6563779 -0.2541655 0.6544574 -0.2645811 0.04315688 -0.1177383
440978000.0 -0.006896885 0.08057345 -0.5535192 -0.4379447 -0.5585328 -0.4321392 -0.03104936 0.08289383
460977000.0 0.05235288 -0.03255609 -0.07759681 0.7008609 -0.07220439 0.7031111 0.03655762 0.07441495
480976000.0 -0.07254358 -0.1534452 0.618202 -0.2923065 0.617567 -0.299183 0.04417348 -0.1638749
500975000.0 -0.008090994 0.06099178 -0.5624991 -0.3886368 -0.5671186 -0.3826748 -0.04592799 0.01137987
520974000.0 0.04381822 -0.05666711 -0.03433645 0.6620668 -0.02828848 0.6684487 0.05034192 0.1674075
540973000.0 -0.1480305 -0.1250398 0.5848347 -0.2790059 0.5805913 -0.2886944 0.04868582 -0.1707879
560972000.0 -0.002535205 0.08369039 -0.5532836 -0.3721359 -0.5550842 -0.3712027 -0.09412706 -0.03614102
580971000.0 0.09976403 -0.05440469 -0.02337165 0.6615087 -0.01413989 0.6681613 0.06138955 0.1815539
600970000.0 -0.2152616 -0.1024172 0.5728307 -0.2921269 0.5653117 -0.2995626 0.05840475 -0.1715969
620969000.0 -0.0030346 0.05468628 -0.5585559 -0.3543095 -0.5640038 -0.3521608 -0.0720818 -0.04594446
640968000.0 0.04759571 0.04169971 -0.00888959 0.6640481 -0.001683316 0.667085 0.002108403 0.06032054
660967000.0 -0.04713864 -0.01958492 0.5730385 -0.3280429 0.5682876 -0.3379025 -0.02226882 0.02220689
680966000.0 -0.01469732 -0.09199396 -0.5711703 -0.313818 -0.5753557 -0.3070747 0.03868365 -0.06168449
700965000.0 -0.02897981 0.02082252 0.02459726 0.6520465 0.03407358 0.6540956 -0.03713368 -0.01899063
720964000.0 0.04223055 0.04774379 0.5305239 -0.3621748 0.5266946 -0.3682043 -0.01253949 0.118455
740963000.0 -0.09360808 -0.1534964 -0.5771595 -0.2413228 -0.5810527 -0.2291386 0.1137838 -0.07062202
760962000.0 -0.06291289 0.06342872 0.03535295 0.6248473 0.04110513 0.6310639 -0.02469527 -0.1589158
780961000.0 0.1048636 0.02754141 0.5091798 -0.3575147 0.5007817 -0.3638839 -0.1074663 0.1255502
800960000.0 -0.1400287 -0.1486644 -0.5615541 -0.2569546 -0.5644065 -0.2597089 0.1197373 0.02565578
820959000.0 -0.09142384 0.08928251 0.05710175 0.616452 0.07282617 0.6196585 -0.04928881 -0.2109067
840958000.0 0.1221179 0.02938797 0.4936471 -0.3659489 0.4865712 -0.3700114 -0.1006803 0.09988462
860957000.0 -0.0967539 -0.1082637 -0.5655122 -0.2308623 -0.5724826 -0.2320254 0.0848199 0.05723558
880956000.0 -0.1233732 0.07538394 0.08314522 0.6006722 0.09894592 0.5982093 -0.08887283 -0.1327472
900955000.0 0.07268462 0.008164848 0.4732247 -0.3762743 0.470929 -0.3795568 -0.05737365 0.0338235
920954000.0 -0.03198874 0.03766812 -0.5553556 -0.2096983 -0.561698 -0.2046003 -0.01408308 0.134422
940953000.0 -0.01239488 -0.0157617 0.106399 0.5849632 0.1126527 0.5861293 0.03709567 0.01633718
960952000.0 -0.05374638 0.02209624 0.4451064 -0.3816635 0.4361212 -0.3900087 0.05007765 -0.07773238
980951000.0 0.1164529 0.05065864 -0.5420222 -0.1896723 -0.5459403 -0.1872464 -0.113811 -0.0009094279
1000950000.0 0.003712015 -0.1248845 0.101144 0.5658702 0.1158864 0.5687107 0.03445802 0.1350509
1020949000.0 -0.139141 -0.009595981 0.4364488 -0.3785485 0.4282373 -0.3827369 0.05364306 -0.08601197
1040948000.0 0.0664627 0.04587932 -0.5460922 -0.1856011 -0.5532496 -0.1814212 -0.1051661 -0.02612014
1060947000.0 -0.01927795 -0.1189462 0.1174343 0.5670381 0.1336706 0.563911 0.0001820404 0.1672561
1080946000.0 -0.1773763 0.07363594 0.4188349 -0.3923658 0.4155107 -0.3892825 0.1221258 -0.05652904
1100945000.0 0.07609241 0.05207902 -0.5435383 -0.1736004 -0.5533416 -0.1650408 -0.114877 -0.07776312
1120944000.0 -0.01242607 -0.05862471 0.1346982 0.5662906 0.1455485 0.5608581 -0.05492236 0.1268235
1140943000.0 -0.08321732 0.08909009 0.4048752 -0.406899 0.4032234 -0.4095688 0.1160342 0.04889616
1160942000.0 0.0435403 0.06005794 -0.5504994 -0.1479358 -0.5561429 -0.1374722 -0.06132687 -0.01728826
1180941000.0 0.1198066 -0.05563494 0.1493624 0.5438777 0.1610301 0.5396456 0.05458863 -0.009830809
1200940000.0 -0.01319768 -0.07199545 0.392841 -0.4135578 0.3868203 -0.4162521 -0.0146813 0.05293365
1220939000.0 -0.1170087 -0.03507984 -0.5491771 -0.1216826 -0.5536062 -0.1201937 0.05748232 -0.0002036744
1240938000.0 -0.002480294 0.04423804 0.1650872 0.537526 0.1792825 0.5334333 -0.06627201 -0.1212872
1260937000.0 0.08171917 -0.05387432 0.3674045 -0.4177855 0.3630189 -0.4178527 -0.05219562 0.1197479
1280936000.0 -0.1819326 -0.01894784 -0.5380354 -0.1032294 -0.547861 -0.09591725 0.08577846 0.07730068
1300935000.0 0.02290616 0.06629835 0.1726118 0.5296019 0.1855923 0.5208881 -0.01241758 -0.1593674
1320934000.0 0.03450911 -0.07595156 0.3563325 -0.4310013 0.3533745 -0.4327864 -0.1054038 0.009428541
1340933000.0 -0.1334942 0.07695759 -0.5263799 -0.08231809 -0.5324399 -0.07368955 -0.001158875 0.1822237
1360932000.0 0.003343491 0.05022131 0.1926486 0.515894 0.1978509 0.5106524 0.0045371 -0.07200279
1380931000.0 0.08446137 -0.02210793 0.3429287 -0.4298646 0.3396475 -0.4343358 -0.01708499 0.002708477
1400930000.0 -0.03004683 0.02687107 -0.5307322 -0.07226611 -0.5346019 -0.06200274 -0.004447619 0.1363986
1420929000.0 -0.06749046 -0.002189064 0.2106891 0.4960344 0.222478 0.4895537 -0.004841025 0.01496025
1440928000.0 0.08365513 0.0299625 0.3277515 -0.4327632 0.3194264 -0.4371191 0.09312622 -0.03532497
1460927000.0 0.07201106 -0.05605981 -0.5321468 -0.04874622 -0.5366588 -0.04024189 -0.04889441 -0.001643175
1480926000.0 -0.1611121 -0.0678381 0.2162033 0.4696455 0.2256135 0.4614561 -0.05909288 0.1118303
1500925000.0 -0.005956126 0.04209176 0.3072461 -0.4341328 0.3037493 -0.4343987 0.09637628 -0.06235077
1520924000.0 0.06038051 0.003033943 -0.5247216 -0.0412273 -0.5276649 -0.03250514 -0.041286 0.01430708
1540923000.0 -0.1440789 -0.04573235 0.2239968 0.4630146 0.2300104 0.4547998 -0.05727359 0.1306843
1560922000.0 -0.05151379 0.08457488 0.2884887 -0.4302191 0.2872227 -0.4356875 0.1066757 -0.06733132
1580921000.0 0.1062267 0.02752369 -0.521181 -0.03372288 -0.5239236 -0.01941673 -0.02633577 -0.009367468
1600920000.0 -0.07642755 0.01956016 0.2301659 0.4608548 0.2391766 0.4543999 -0.1075304 0.09302161
1620919000.0 0.003822886 -0.0258042 0.2805251 -0.4400533 0.2722633 -0.4442697 0.02466273 0.06051338
1640918000.0 0.01180384 0.04336455 -0.5201257 -0.0139107 -0.5232423 -0.005683873 0.1217526 0.05329851
1660917000.0 0.05455982 0.03155257 0.2532691 0.4529189 0.2631051 0.4455775 -0.01358092 -0.01851462
1680916000.0 -0.05955771 -0.1156099 0.2529847 -0.4427677 0.2481899 -0.4449749 -0.06760879 0.02771747
1700915000.0 -0.03375708 0.08168804 -0.508588 0.005203583 -0.5129858 0.0118388 0.1278748 0.08785841
1720914000.0 0.1163898 -0.004146036 0.2670299 0.4318539 0.272532 0.4252184 0.06626394 -0.07423224
1740913000.0 -0.1402899 -0.1463322 0.2306176 -0.4324274 0.2282629 -0.4358323 -0.1708255 -0.0173203
1760912000.0 -0.1020881 0.141301 -0.4945158 0.003655921 -0.4968199 0.01674224 0.1075053 0.1492064
1780911000.0 0.1319935 0.06684253 0.2636223 0.4292935 0.2684247 0.4208587 0.05607626 -0.08477286
1800910000.0 -0.03350754 -0.1020729 0.2293483 -0.4393032 0.2242339 -0.4472161 -0.134865 0.04311986
1820909000.0 -0.08292014 0.03932407 -0.5008699 0.01986934 -0.4991813 0.03446986 0.08115901 0.08533908
1840908000.0 0.02751694 0.04707697 0.2790624 0.4196824 0.2858575 0.4145393 0.02914879 0.01626182
1860907000.0 -0.0152569 0.02037731 0.2128391 -0.4525892 0.2055154 -0.4557623 -0.01212504 -0.01559792
1880906000.0 0.03418839 0.01928244 -0.4937589 0.04691539 -0.4952044 0.05704094 -0.04070371 0.07149116
1900905000.0 -0.047549 0.0008587147 0.2916509 0.3978006 0.2992381 0.388773 0.02931647 0.1235061
1920904000.0 0.1143722 0.06127164 0.1886095 -0.4514802 0.1828719 -0.4528688 0.157269 0.02626513
1940903000.0 0.01998048 -0.1778378 -0.4712931 0.06807266 -0.4700817 0.07591119 -0.01687958 -0.1226948
1960902000.0 -0.2018397 0.01563472 0.2831846 0.3764911 0.2849854 0.3687377 -0.07088619 0.1562596
1980901000.0 0.07117321 0.09045583 0.1817192 -0.4440068 0.1786126 -0.4468412 0.1559856 0.00897297
2000900000.0 -0.02641428 -0.1433881 -0.4613792 0.07802202 -0.4603076 0.08397839 0.0009726607 -0.1396588
2020899000.0 -0.2267302 0.1237997 0.2756858 0.3601311 0.2782718 0.3565245 -0.16712 0.1600223
2040898000.0 0.09937507 0.1315882 0.1872564 -0.434405 0.1826493 -0.4386465 0.1470791 0.06395943
2060897000.0 0.06566639 -0.04976071 -0.4730363 0.07123638 -0.4701863 0.07882874 0.01126155 -0.03970308
2080896000.0 -0.1020631 0.02915205 0.2987104 0.3663102 0.3015476 0.3644401 -0.02737624 0.1469584
2100895000.0 0.01199559 0.058878 0.1672652 -0.4481593 0.159419 -0.4525292 0.08651727 0.01685332
2120894000.0 0.05151804 0.006425124 -0.4698813 0.09125572 -0.4683048 0.09874886 0.07864453 0.006487862
2140893000.0 0.0326418 0.002005911 0.3202946 0.3513585 0.3256871 0.3459085 0.04486756 0.006670014
2160892000.0 -0.1151509 -0.07527103 0.1305524 -0.4413483 0.1264686 -0.4437315 -0.09366219 0.01590315
2180891000.0 -0.001106073 0.1399695 -0.4526691 0.09788375 -0.4509394 0.1082592 0.1249906 0.1358633
2200890000.0 0.1362255 -0.0450795 0.3246765 0.3282361 0.3278793 0.3224998 0.1639556 -0.07875663
2220889000.0 -0.1931611 -0.07208154 0.1223999 -0.4213691 0.1181718 -0.4226107 -0.1598644 -0.05295191
2240888000.0 0.03343374 0.16336 -0.447211 0.101571 -0.4460628 0.1067146 0.0421932 0.1594146
2260887000.0 0.132796 -0.09002636 0.3233622 0.3140016 0.3280579 0.3086035 0.2064837 -0.03010607
2280886000.0 -0.2197398 -0.02918285 0.1244887 -0.4097866 0.1204722 -0.4101313 -0.1642133 -0.0771773
2300885000.0 0.03987292 0.1663756 -0.4472031 0.09979894 -0.4476756 0.1056686 0.005056641 0.1821619
2320884000.0 0.1103048 -0.06207705 0.32343 0.3208011 0.3270914 0.3138273 0.202768 0.03989357
2340883000.0 -0.09173512 0.02545916 0.1244006 -0.4383298 0.1196772 -0.438841 -0.008725175 -0.02017968
2360882000.0 -0.03770226 0.01359054 -0.4425385 0.1278899 -0.4401687 0.132044 0.05381189 -0.0008831358
2380881000.0 0.05952271 0.07787881 0.3365123 0.3104503 0.3420679 0.3076478 0.03254898 -0.01125521
2400880000.0 0.06771924 0.02900752 0.08934285 -0.4479616 0.08307374 -0.4473273 0.06269214 0.08902842
2420879000.0 -0.04422164 -0.09441686 -0.4231891 0.1372554 -0.4213603 0.1406948 0.0003192409 -0.07534739
2440878000.0 -0.06625267 0.04595188 0.3474528 0.2950222 0.3503505 0.2924314 0.008398703 0.07249698
2460877000.0 0.1169963 0.09303898 0.05990359 -0.4304155 0.05534494 -0.4317356 0.1636194 0.08622178
2480876000.0 -0.104708 -0.1056358 -0.4094097 0.1356366 -0.4105269 0.1416335 0.01976264 -0.151518
2500875000.0 -0.06837503 0.138713 0.3475782 0.2809801 0.3536318 0.273983 -0.1150412 0.03129652
2520874000.0 0.1897177 0.05424495 0.05642807 -0.4107063 0.05269345 -0.4107569 0.1525531 0.1640102
2540873000.0 -0.1128956 -0.0725868 -0.4078219 0.1385908 -0.4091362 0.1469608 0.07495487 -0.1072206
2560872000.0 -0.0334148 0.1222531 0.3447417 0.2716925 0.3479592 0.263799 -0.1079727 -0.009077489
2580871000.0 0.1663427 -0.002394951 0.06503334 -0.4096041 0.06184406 -0.4119226 0.130432 0.148957
2600870000.0 -0.08624762 -0.02097298 -0.4094185 0.1508382 -0.4069781 0.1607249 0.09993021 -0.04247618
2620869000.0 -0.01746627 0.0430663 0.3474293 0.2699053 0.3496555 0.2628529 -0.0242585 -0.04828039
2640868000.0 0.01926346 -0.01115052 0.05516544 -0.433565 0.04822042 -0.4339129 0.03863348 0.01736478
2660867000.0 0.03621528 0.07605271 -0.3926452 0.1728801 -0.3894204 0.1784012 0.02614465 0.0878973
2680866000.0 -0.04719232 -0.06346373 0.3496706 0.2569023 0.354436 0.2481688 0.111439 0.01960852
2700865000.0 -0.07984547 0.04535234 0.0352391 -0.4324292 0.02957761 -0.4284301 0.03223803 -0.09027134
2720864000.0 0.06060797 0.130591 -0.3853425 0.1785488 -0.382755 0.1827243 0.03479837 0.07742588
2740863000.0 0.06135264 -0.03182161 0.3576578 0.2426366 0.3600667 0.2365649 0.1004832 -0.04107888
2760862000.0 -0.09744127 0.001921277 0.02293913 -0.4208648 0.01787169 -0.4206462 -0.05244033 -0.06169466
2780861000.0 0.08907008 0.08754598 -0.3793864 0.1878507 -0.3774405 0.1951181 -0.01140308 0.1038821
2800860000.0 -0.001142529 -0.06901181 0.3585151 0.2279897 0.3579135 0.220372 0.1696069 0.06679127
2820859000.0 -0.0632508 0.1132949 0.01562671 -0.4168138 0.01399588 -0.4187635 0.05839519 -0.1047943
2840858000.0 0.1012024 0.01688358 -0.370208 0.1948337 -0.3674551 0.2010601 -0.05326959 0.0259135
2860857000.0 0.01584548 -0.07083171 0.3577115 0.2157978 0.3569722 0.2138067 0.1371419 0.02178649
2880856000.0 -0.04069189 0.07414947 0.009138218 -0.4209382 0.006152332 -0.4230781 0.04749532 -0.0287278
2900855000.0 0.0005683915 0.03014874 -0.3673453 0.208228 -0.3658865 0.2117428 -0.008945275 0.007285907
2920854000.0 0.03879881 -0.009348541 0.3600665 0.207381 0.3638393 0.204254 0.06072938 -0.05412653
2940853000.0 0.05654033 0.03554536 -0.01099887 -0.4157107 -0.01532405 -0.4160515 0.07101154 0.05331767
2960852000.0 -0.06139454 0.02175282 -0.358839 0.2173335 -0.3576717 0.2233261 0.01834961 -0.005541544
2980851000.0 0.006405519 0.01276727 0.3672313 0.1989251 0.3711938 0.1922146 0.002823655 -0.07545625
3000850000.0 0.08005425 0.07413682 0.05500276 -0.4022773 0.06599867 -0.3995169 0.05427724 0.07253411
3020849000.0 -0.01541195 0.04165457 -0.3417515 0.2280419 -0.338505 0.2336157 0.02206224 0.06784073
3040848000.0 -0.04615652 -0.02574666 0.370945 0.1873548 0.3742331 0.1802543 0.03437692 -0.04578191
3060847000.0 0.09371288 0.0292256 -0.02359282 -0.401365 -0.03013588 -0.3994427 0.1223777 -0.01736466
3080846000.0 -0.0427752 0.07902697 -0.3324572 0.2337846 -0.3265662 0.2385274 0.08901621 0.02024265
3100845000.0 0.009420801 0.0601721 0.37604 0.1677451 0.3729791 0.1631253 -0.07781778 -0.1041378
3120844000.0 0.06013852 -0.04791819 -0.03707501 -0.4042971 -0.04150778 -0.4031405 0.03894801 0.008143772
3140843000.0 0.03384731 0.1331092 -0.3159683 0.227657 -0.311629 0.2302204 0.1037579 0.09814401
3160842000.0 0.01381625 0.030596 0.3724125 0.1635332 0.3718036 0.1605804 -0.003285196 -0.05140953
3180841000.0 0.06414289 -0.03206746 -0.04503614 -0.4072863 -0.04834505 -0.4054835 0.07473147 -0.05945876
3200840000.0 0.08194335 0.03955112 -0.3201782 0.2446104 -0.3182765 0.2471984 0.03237788 0.01996542
3220839000.0 -0.02356405 0.02513359 0.3715383 0.1464877 0.3721444 0.1422907 0.0002103088 0.04787338
3240838000.0 0.01937967 -0.04287845 -0.06173293 -0.4007572 -0.06508623 -0.3982127 0.08897419 -0.02344929
3260837000.0 0.01748258 0.05907742 -0.3085802 0.2570008 -0.3071119 0.2575951 0.1031272 -0.05651063
3280836000.0 0.06848244 0.07100732 0.3708539 0.134515 0.3737341 0.1302582 -0.04670502 0.000175064
3300835000.0 0.01267561 -0.07490301 -0.07420176 -0.3915672 -0.0767885 -0.3880159 0.07905108 0.03976703
3320834000.0 -0.01538433 0.06390339 -0.2929803 0.2625015 -0.2941911 0.2642634 0.1309242 -0.08671552
3340833000.0 0.1345409 0.05418209 0.3672348 0.1233397 0.3708157 0.1170912 -0.05717837 -0.0841978
3360832000.0 0.005611496 -0.08489759 -0.07830553 -0.3850924 -0.07999773 -0.382857 0.02435347 0.05809927
3380831000.0 0.003562638 0.01416736 -0.2893583 0.2658443 -0.288101 0.2697331 0.05553044 -0.03000569
3400830000.0 0.03640158 0.005679442 0.3746119 0.1126756 0.3769605 0.1081605 0.02858932 -0.03998305
3420829000.0 0.03222264 0.01180452 -0.09464958 -0.3778555 -0.09947407 -0.3778998 0.05005452 -0.01972763
3440828000.0 0.0282132 0.004346396 -0.2766027 0.2734649 -0.2733467 0.2769322 0.004060957 -0.005072129
3460827000.0 0.04236589 0.00702484 0.3746957 0.09840029 0.3755079 0.09280729 0.004807385 -0.03805886
3480826000.0 0.0935629 -0.04269393 -0.1031856 -0.3662617 -0.1077857 -0.3655662 0.0714902 0.01502949
3500825000.0 -0.008660602 -0.02750095 -0.2642925 0.277999 -0.2609694 0.2822405 0.03849725 0.01340513
3520824000.0 -0.04650556 -0.01086569 0.3718267 0.08448251 0.3732688 0.07718541 0.07501104 -0.0461285
3540823000.0 0.09837016 0.07061168 -0.1128608 -0.3581708 -0.1161937 -0.3522648 0.03635896 -0.1492628
3560822000.0 0.09898376 -0.08375658 -0.2461282 0.2763334 -0.2465567 0.2804216 -0.07678583 0.08402181
3580821000.0 -0.142821 -0.01952004 0.3616746 0.07350838 0.362345 0.06347727 0.1374926 0.03327724
3600820000.0 0.1201498 0.136288 -0.1133239 -0.3465757 -0.1109726 -0.3418284 0.06292786 -0.2434509
3620819000.0 0.1545309 -0.1121174 -0.2436716 0.267504 -0.2454759 0.2747881 -0.1540378 0.05780217
3640818000.0 -0.1371984 0.01517106 0.3581864 0.07441344 0.3567506 0.06598192 0.07732729 0.1123513
3660817000.0 0.1515013 0.06553941 -0.111712 -0.3549521 -0.1113477 -0.354664 0.130395 -0.1587389
3680816000.0 0.1344726 -0.09545632 -0.2485201 0.2830061 -0.2452316 0.2901046 -0.06994271 -0.01498823
3700815000.0 -0.04113077 -0.03035998 0.3729106 0.06556717 0.3713258 0.05909748 0.01235939 0.04338936
3720814000.0 0.01644585 -0.06281747 -0.1377509 -0.354591 -0.141328 -0.35096 0.05890974 -0.01838117
3740813000.0 0.05749008 0.01178618 -0.2313125 0.299197 -0.229248 0.300103 0.1041821 -0.0433205
3760812000.0 0.03154501 -0.05807802 0.374842 0.04069115 0.3746094 0.03583276 0.006294123 -0.06604805
3780811000.0 -0.1003083 -0.04116388 -0.1572107 -0.3322631 -0.1581693 -0.3296332 -0.02393562 -0.007543236
3800810000.0 0.05005769 0.09441928 -0.2059556 0.2992436 -0.2073258 0.30364 0.1438801 -0.07102726
3820809000.0 0.155951 -0.04459203 0.3594131 0.02097105 0.3581077 0.01288161 -0.08792405 -0.115337
3840808000.0 -0.1434572 -0.115799 -0.1605305 -0.3060475 -0.1573727 -0.3056734 -0.04550795 0.1322046
3860807000.0 0.02973682 0.1922243 -0.1886009 0.280693 -0.1870268 0.2912181 0.2530887 -0.07956553
3880806000.0 0.2833076 -0.09281206 0.3347386 0.02138566 0.3279594 0.01242115 -0.1099139 -0.2468741
3900805000.0 -0.146844 -0.2115304 -0.1302159 -0.296062 -0.1286853 -0.3001698 -0.1435356 0.1800335
3920804000.0 -0.01726424 0.127969 -0.2175272 0.2711024 -0.2107343 0.2826599 0.2088037 0.001156167
3940803000.0 0.1677246 -0.09036507 0.3564035 0.03221621 0.3541358 0.02587538 0.03499325 -0.1654128
3960802000.0 -0.07101581 -0.1064197 -0.1499208 -0.3179512 -0.1547675 -0.3202753 -0.07605086 0.05227146
