! Created with skrf 1.9.0 (http://scikit-rf.org).
# Hz S RI R 50.0 
!freq ReS11 ImS11 ReS21 ImS21 ReS12 ImS12 ReS22 ImS22
1000000.0 1.124323 0.1051604 0.0002938834 -0.0009423604 0.0003482861 -0.0009271681 0.8011931 -0.5575005
20999000.0 -0.3054532 0.6565807 0.2611345 -0.5359671 0.2751372 -0.5234936 -0.2821118 0.5078804
40998000.0 -0.09443625 0.4169032 -0.6298498 0.448995 -0.6322958 0.4430801 -0.288382 0.03294759
60997000.0 0.05337749 0.2919052 0.773163 0.1945233 0.7776295 0.1911904 0.13116 -0.2029275
80996000.0 0.1762938 0.1363184 -0.288125 -0.7288057 -0.2995262 -0.7376795 0.0825069 0.1824478
100995000.0 0.128287 0.1106324 -0.4268655 0.6696342 -0.4273456 0.6793 -0.1508301 0.06950019
120994000.0 0.09182248 0.05124953 0.7992995 -0.006803026 0.801348 -0.01625314 0.07686114 -0.1017384
140993000.0 0.0973041 -0.0003948163 -0.4302409 -0.6592572 -0.4439641 -0.6556358 0.117277 0.09738488
160992000.0 0.05824661 -0.07734511 -0.3213849 0.7048399 -0.3145828 0.7132089 -0.1345562 0.01407242
180991000.0 0.004517772 -0.009111288 0.7766963 -0.1008686 0.7765864 -0.1098161 0.05352339 -0.04453756
200990000.0 0.02626494 5.355701e-05 -0.4940975 -0.6027324 -0.5037429 -0.5949238 0.1025916 0.08114451
220989000.0 -0.01393969 -0.08883381 -0.243605 0.7213268 -0.2341088 0.726351 -0.0709026 -0.0115074
240988000.0 -0.001613176 0.02040682 0.7448542 -0.1701156 0.7444092 -0.1780785 -0.001013497 0.006269305
260987000.0 0.0100004 -0.1324425 -0.5333938 -0.5304191 -0.5375323 -0.5207537 0.1942382 0.03664182
280986000.0 -0.178712 -0.04418766 -0.1839707 0.7074319 -0.1746751 0.7089676 -0.1137727 -0.06670358
300985000.0 -0.02745398 0.02617134 0.7040964 -0.2182634 0.70217 -0.2264834 -0.01615585 0.01254375
320984000.0 -0.1560829 -0.05979221 -0.5344079 -0.4493726 -0.5358011 -0.4439895 0.1852116 -0.002490413
340983000.0 -0.1355762 0.1564791 -0.1708125 0.6583359 -0.1640358 0.6613247 -0.07239159 -0.05009855
360982000.0 0.004985701 0.0436467 0.6681756 -0.2522582 0.6619778 -0.2699834 0.00346702 0.02997616
380981000.0 -0.06339303 0.04574128 -0.5350357 -0.4768806 -0.5376484 -0.4747948 0.08230677 0.07433835
400980000.0 -0.03050391 0.07244603 -0.1226574 0.7037634 -0.119848 0.7051741 -0.01837748 -0.01470052
420979000.0 -0.07540209 0.116494 0.6566988 -0.2549475 0.6549014 -0.2649197 0.04321322 -0.1174438
440978000.0 0.03532204 -0.01618678 -0.5542827 -0.4378656 -0.5592155 -0.4321724 -0.03047406 0.08304434
460977000.0 -0.09148935 0.03123775 -0.07702976 0.70135 -0.07191356 0.7036439 0.03669655 0.0738096
480976000.0 -0.01890063 0.1995123 0.6183526 -0.2928269 0.6176941 -0.2996239 0.04311037 -0.1638552
500975000.0 -0.02371386 -0.01725112 -0.5631499 -0.3884939 -0.5674427 -0.3827494 -0.04525219 0.01240705
520974000.0 -0.07290283 0.1071749 -0.0340048 0.6623195 -0.02818744 0.668523 0.05128779 0.1663275
540973000.0 0.1364911 0.1105942 0.5851147 -0.2792931 0.5808082 -0.2887233 0.04701289 -0.1711444
560972000.0 -0.08592849 -0.00614736 -0.5538351 -0.3720311 -0.5553907 -0.3714513 -0.09365792 -0.03452725
580971000.0 -0.05924172 0.1741019 -0.02307931 0.6617563 -0.01412833 0.6682262 0.06278172 0.1805379
600970000.0 0.1444821 -0.0639099 0.5732052 -0.292451 0.5656968 -0.2995132 0.05683449 -0.1723805
620969000.0 -0.08034716 0.07097147 -0.5592855 -0.354288 -0.5643887 -0.352314 -0.07202376 -0.04453665
640968000.0 -0.0611583 0.1362701 -0.00852631 0.6645234 -0.001540391 0.6672941 0.003227678 0.05975044
660967000.0 -0.0114602 0.04878702 0.5732227 -0.3286701 0.5684443 -0.3381774 -0.02301286 0.02172331
680966000.0 0.06236862 0.04719192 -0.5716531 -0.3135981 -0.5757577 -0.3069068 0.03841003 -0.06116367
700965000.0 -0.03049744 0.09907526 0.02507031 0.6523311 0.03429603 0.6542537 -0.0367153 -0.01882651
720964000.0 0.02478194 0.1663202 0.5304419 -0.3626649 0.5266549 -0.3683694 -0.01220274 0.1181518
740963000.0 -0.003394555 -0.06098929 -0.5775234 -0.241087 -0.5812961 -0.229066 0.1132537 -0.0710123
760962000.0 -0.02476841 0.1626493 0.03580144 0.6249844 0.0412272 0.6311116 -0.02507805 -0.1581722
780961000.0 0.1467873 0.1099367 0.5090958 -0.3577518 0.5007799 -0.3638644 -0.1063104 0.1257729
800960000.0 -0.121258 0.01930614 -0.5618595 -0.2568104 -0.564463 -0.2597949 0.1194378 0.02439159
820959000.0 0.05184984 0.2068882 0.05734721 0.6165984 0.07279623 0.6198289 -0.0504765 -0.2100238
840958000.0 0.1636334 0.008438949 0.4937298 -0.3661971 0.4867223 -0.3700179 -0.09926149 0.1005881
860957000.0 -0.04995297 0.1120903 -0.5658182 -0.2308064 -0.5727603 -0.2322014 0.08482075 0.05574722
880956000.0 0.1318995 0.1819232 0.08335211 0.6009507 0.09877589 0.5982888 -0.09018912 -0.1320705
900955000.0 0.08705841 -0.01767773 0.4733214 -0.3767172 0.4711363 -0.379715 -0.05624286 0.03452866
920954000.0 0.126332 0.055758 -0.5557486 -0.2095165 -0.5618189 -0.2045505 -0.01381397 0.1334155
940953000.0 0.07356496 0.04458192 0.106818 0.5851715 0.1127698 0.5862889 0.03620226 0.01647716
960952000.0 0.1251526 0.04053647 0.4450578 -0.382038 0.4360416 -0.3901807 0.05033299 -0.07717498
980951000.0 0.003061434 -0.08594389 -0.5422546 -0.1894053 -0.5459993 -0.1871495 -0.1133886 -0.001067285
1000950000.0 0.02567263 0.1127629 0.1014618 0.5659442 0.1159851 0.5687117 0.03436244 0.134626
1020949000.0 -0.1391982 -0.009114451 0.4363217 -0.3787641 0.4281358 -0.382961 0.05307726 -0.08584568
1040948000.0 0.06707098 0.0454622 -0.5462629 -0.185387 -0.5534224 -0.1812677 -0.1048295 -0.02544811
1060947000.0 -0.02012511 -0.1192142 0.1176094 0.5670502 0.1337935 0.5638862 0.0008799706 0.1665976
1080946000.0 -0.1769931 0.07467032 0.4187678 -0.3924814 0.4155712 -0.3893639 0.1210818 -0.0569771
1100945000.0 0.07679487 0.05108061 -0.5436919 -0.1735848 -0.55349 -0.1650349 -0.1148775 -0.07647408
1120944000.0 -0.01367157 -0.0585779 0.1349479 0.5663114 0.1457028 0.560938 -0.05360555 0.1262789
1140943000.0 -0.08244444 0.09010274 0.4047899 -0.4071089 0.4032909 -0.4097422 0.1149831 0.0479083
1160942000.0 0.04390539 0.05884876 -0.5507732 -0.1478447 -0.5563699 -0.1374314 -0.06175016 -0.01593844
1180941000.0 0.1186517 -0.05531185 0.1496463 0.5439964 0.1612692 0.5397922 0.05581887 -0.01006451
1200940000.0 -0.01230077 -0.07132125 0.3927461 -0.4138259 0.3867725 -0.4165314 -0.01521266 0.05210399
1220939000.0 -0.1169993 -0.03595073 -0.5494725 -0.1214405 -0.5537741 -0.1200116 0.05705394 0.0004327057
1240938000.0 -0.002992648 0.04462677 0.1653195 0.5374554 0.1795122 0.5334173 -0.06572422 -0.121078
1260937000.0 0.0820853 -0.05390634 0.3673201 -0.4178714 0.3629275 -0.4179378 -0.05201612 0.1192223
1280936000.0 -0.1821214 -0.0189614 -0.5381169 -0.1030566 -0.5478756 -0.09571757 0.08532029 0.07713629
1300935000.0 0.02324706 0.06631951 0.1727716 0.5295221 0.1857253 0.5208347 -0.01258162 -0.1587703
1320934000.0 0.03412104 -0.07642431 0.3562284 -0.4311121 0.3533129 -0.4329031 -0.1046187 0.009492899
1340933000.0 -0.1336312 0.07772699 -0.5264314 -0.08220491 -0.5324829 -0.07354969 -0.001293436 0.1813562
1360932000.0 0.004178941 0.04984095 0.1927417 0.5158617 0.1979387 0.5106576 0.003587958 -0.0714331
1380931000.0 0.08359464 -0.02271363 0.3427447 -0.4299826 0.3395883 -0.4344173 -0.01607205 0.003446936
1400930000.0 -0.02999978 0.02794393 -0.5307679 -0.07221904 -0.5346194 -0.06195879 -0.004074208 0.1351946
1420929000.0 -0.06655116 -0.002867023 0.2108806 0.4959747 0.2226517 0.4895526 -0.006079858 0.01526952
1440928000.0 0.08263875 0.02955213 0.3276279 -0.4328407 0.3193017 -0.4372172 0.09389959 -0.03437842
1460927000.0 0.07229435 -0.05511003 -0.5322164 -0.04859065 -0.5366943 -0.04012709 -0.04837787 -0.002577446
1480926000.0 -0.1604423 -0.06843256 0.2163738 0.4694829 0.2257673 0.461377 -0.05990477 0.1117428
1500925000.0 -0.006611948 0.0419413 0.3070346 -0.4340924 0.3035058 -0.4343861 0.0964433 -0.0616084
1520924000.0 0.06059185 0.003477891 -0.5246794 -0.04112918 -0.5276288 -0.03249487 -0.04073856 0.01411252
1540923000.0 -0.1439259 -0.04596623 0.2240818 0.4628517 0.2301194 0.4547053 -0.05742358 0.1302399
1560922000.0 -0.05153047 0.0846371 0.2883782 -0.430141 0.287183 -0.4356324 0.1061874 -0.06705608
1580921000.0 0.1062238 0.02724546 -0.521166 -0.03361897 -0.5238479 -0.01941379 -0.02599365 -0.008830653
1600920000.0 -0.07669667 0.01988901 0.2302496 0.4607198 0.23921 0.454391 -0.1070157 0.09250665
1620919000.0 0.004466442 -0.02574228 0.2803983 -0.4400544 0.2721055 -0.4442618 0.02381929 0.06012208
1640918000.0 0.01154285 0.04267611 -0.5200641 -0.01373628 -0.5231924 -0.005656907 0.1216224 0.05430491
1660917000.0 0.054115 0.03222872 0.2533005 0.452731 0.2632227 0.4455282 -0.01250486 -0.01877669
1680916000.0 -0.05869394 -0.115479 0.2528147 -0.4427486 0.2480032 -0.4449402 -0.06832499 0.026859
1700915000.0 -0.03412268 0.08093245 -0.5084205 0.005341082 -0.5128269 0.01191495 0.1273143 0.08884123
1720914000.0 0.1159897 -0.003367394 0.2670779 0.4316572 0.2725618 0.4250694 0.0672684 -0.07418396
1740913000.0 -0.1394262 -0.1462843 0.2303853 -0.4324052 0.228108 -0.4357155 -0.1710852 -0.01814592
1760912000.0 -0.1024967 0.1406664 -0.4942832 0.003663089 -0.4965551 0.01681641 0.1068893 0.149608
1780911000.0 0.1316553 0.06739494 0.2635307 0.4290333 0.2683087 0.4205871 0.05656553 -0.08440134
1800910000.0 -0.03299729 -0.1020979 0.2292013 -0.4391375 0.2241424 -0.4470155 -0.1345794 0.04269433
1820909000.0 -0.08303944 0.03911702 -0.500634 0.01990397 -0.4989457 0.03439916 0.08067293 0.08511297
1840908000.0 0.02744808 0.04711298 0.2789045 0.4195233 0.2857336 0.4143878 0.02898913 0.01680772
1860907000.0 -0.01536364 0.02043277 0.2127915 -0.4524427 0.2054592 -0.4555971 -0.01146713 -0.01550551
1880906000.0 0.03441444 0.01946625 -0.4936179 0.04689584 -0.4950487 0.05698598 -0.04079298 0.07075185
1900905000.0 -0.0474561 0.0004366306 0.2914847 0.3975733 0.2991139 0.3886443 0.02858607 0.1238658
1920904000.0 0.1138347 0.06142215 0.1885528 -0.4513063 0.1828312 -0.4526285 0.1578885 0.02688442
1940903000.0 0.02044803 -0.1773991 -0.4710273 0.06810902 -0.4699028 0.07580318 -0.01649898 -0.1235307
1960902000.0 -0.2015857 0.01497397 0.2831286 0.3762283 0.2848344 0.3685623 -0.07181476 0.1561814
1980901000.0 0.07045883 0.09059022 0.1815827 -0.4436094 0.1786235 -0.446534 0.1563122 0.009802187
2000900000.0 -0.02588423 -0.1428619 -0.4610758 0.07798795 -0.4600981 0.08386398 0.001515244 -0.1401493
2020899000.0 -0.2264887 0.1230401 0.2755259 0.359901 0.2781137 0.3563282 -0.1676325 0.1596511
2040898000.0 0.09874173 0.1318513 0.187099 -0.4340796 0.1825501 -0.4384357 0.1469288 0.06458069
2060897000.0 0.0660716 -0.04932523 -0.4727279 0.07111514 -0.469919 0.07866152 0.01179746 -0.03969189
2080896000.0 -0.1018779 0.02869255 0.2984734 0.3660923 0.3012976 0.3642538 -0.0274253 0.1464248
2100895000.0 0.01169358 0.05892312 0.1672603 -0.4478438 0.159466 -0.452144 0.08605227 0.01700521
2120894000.0 0.0516035 0.006629769 -0.4696001 0.09109718 -0.4680119 0.0984375 0.07886949 0.007016154
2140893000.0 0.03267643 0.002015921 0.3200303 0.351167 0.3253921 0.3458121 0.04528177 0.006258131
2160892000.0 -0.1148477 -0.07536428 0.1304859 -0.4410343 0.1265072 -0.4434016 -0.09413965 0.01561209
2180891000.0 -0.001384808 0.1398157 -0.4523658 0.09769089 -0.4506682 0.1080064 0.1247971 0.1364937
2200890000.0 0.1361561 -0.04464234 0.3243662 0.3281384 0.3275743 0.3223918 0.164532 -0.07879002
2220889000.0 -0.1925871 -0.07227871 0.122339 -0.4210335 0.1182258 -0.4222736 -0.1600562 -0.05354529
2240888000.0 0.03295769 0.1630572 -0.4468889 0.1013242 -0.4457267 0.1064443 0.04170999 0.1598825
2260887000.0 0.1326828 -0.08946763 0.3230837 0.3139225 0.3276686 0.3085772 0.2069678 -0.02982139
2280886000.0 -0.2190498 -0.02948492 0.1244267 -0.4094495 0.1205326 -0.4097721 -0.1640934 -0.07773925
2300885000.0 0.03925774 0.166025 -0.446828 0.09952127 -0.4473536 0.1053383 0.004576365 0.1822591
2320884000.0 0.110285 -0.06137385 0.3230224 0.320727 0.3267009 0.3137716 0.2028231 0.04031454
2340883000.0 -0.0912036 0.02505998 0.1244247 -0.437867 0.1197307 -0.438401 -0.008371534 -0.02042956
2360882000.0 -0.03805178 0.01336551 -0.4421706 0.1275905 -0.4398781 0.131756 0.05349829 -0.00111951
2380881000.0 0.05939873 0.07818388 0.3361077 0.31038 0.3416403 0.3076055 0.03239742 -0.01080157
2400880000.0 0.06777318 0.02890655 0.0894837 -0.447529 0.08327606 -0.4469037 0.06304711 0.08894441
2420879000.0 -0.04411108 -0.09434425 -0.4228789 0.1368971 -0.4211203 0.1403244 0.0002875326 -0.0757517
2440878000.0 -0.06621116 0.04580214 0.3470415 0.29493 0.3498612 0.2924392 0.008026203 0.0727101
2460877000.0 0.116597 0.09307971 0.06007706 -0.4300104 0.05558986 -0.4313642 0.1638188 0.08651505
2480876000.0 -0.1043104 -0.105403 -0.4091157 0.1352657 -0.4102443 0.1412778 0.02012507 -0.1518152
2500875000.0 -0.06839102 0.1382651 0.3470751 0.2810884 0.3530926 0.2740622 -0.1153477 0.03115168
2520874000.0 0.1890926 0.05451147 0.05658778 -0.4103568 0.05293161 -0.4104147 0.1523793 0.1643718
2540873000.0 -0.1122992 -0.07238863 -0.4074792 0.1382488 -0.4089156 0.1465195 0.07537448 -0.1073418
2560872000.0 -0.03350079 0.1215704 0.3442985 0.2716843 0.3473147 0.2639062 -0.1080621 -0.00937032
2580871000.0 0.1657144 -0.001947191 0.06521347 -0.4092338 0.06207033 -0.4115693 0.1300645 0.1491818
2600870000.0 -0.08561274 -0.02087174 -0.4090905 0.1504372 -0.406691 0.1602492 0.1002606 -0.04233905
2620869000.0 -0.0176202 0.04251992 0.3469241 0.2699391 0.3491863 0.262878 -0.0241161 -0.04859769
2640868000.0 0.01900884 -0.01069304 0.05534615 -0.4331029 0.04840522 -0.4335052 0.03827062 0.01750955
2660867000.0 0.03641294 0.07593599 -0.3923512 0.1723613 -0.3892001 0.1778655 0.02630696 0.0880435
2680866000.0 -0.04722791 -0.06352717 0.3491499 0.2569389 0.3538841 0.2482449 0.1115044 0.01933333
2700865000.0 -0.0796928 0.04544524 0.03553971 -0.4319654 0.02993781 -0.428011 0.03200075 -0.09014285
2720864000.0 0.06035826 0.1303611 -0.3851218 0.1780554 -0.3826114 0.1822121 0.03485277 0.07758699
2740863000.0 0.06120676 -0.03147656 0.3571486 0.2426602 0.3595018 0.2367676 0.1005967 -0.04115101
2760862000.0 -0.09694749 0.001758206 0.02321319 -0.4204389 0.01813344 -0.420325 -0.05250162 -0.06187093
2780861000.0 0.08865125 0.08723804 -0.3792048 0.1873546 -0.3773431 0.1946003 -0.01155835 0.1039456
2800860000.0 -0.001084907 -0.06848055 0.3580121 0.2280171 0.3573867 0.220551 0.1696132 0.06690887
2820859000.0 -0.06293023 0.1128356 0.01594431 -0.416378 0.01434122 -0.4183798 0.0585022 -0.1049704
2840858000.0 0.1007181 0.01685988 -0.3700552 0.1943334 -0.3673629 0.200538 -0.05339709 0.02583439
2860857000.0 0.01609985 -0.07021105 0.3572441 0.2158442 0.3564322 0.2139782 0.1371269 0.0220414
2880856000.0 -0.04049123 0.07353155 0.00938051 -0.4204741 0.006576752 -0.4226061 0.04761876 -0.0289186
2900855000.0 0.0001045893 0.03018305 -0.3671819 0.2077226 -0.3657193 0.2111705 -0.009088172 0.007062727
2920854000.0 0.03907194 -0.008968831 0.3595382 0.2073999 0.3632659 0.2043888 0.06078345 -0.05369998
2940853000.0 0.05630042 0.03537081 -0.01056031 -0.4152514 -0.01490096 -0.4156134 0.07108144 0.0530497
2960852000.0 -0.06131477 0.02187147 -0.3586653 0.2168708 -0.3575403 0.2227568 0.0180507 -0.005721746
2980851000.0 0.006642871 0.01255617 0.3666184 0.1989418 0.3706019 0.1923722 0.003131981 -0.07503892
3000850000.0 0.07941134 0.07415578 0.05530164 -0.4018572 0.06635905 -0.3991092 0.05444672 0.07237627
3020849000.0 -0.01513368 0.04177224 -0.3416181 0.2275036 -0.3383944 0.2330247 0.02182381 0.06752042
3040848000.0 -0.04595847 -0.02625397 0.3703521 0.1875187 0.3735784 0.1805173 0.03460862 -0.04558455
3060847000.0 0.09305754 0.02964637 -0.02321391 -0.4009584 -0.02968071 -0.3990578 0.1224141 -0.01727057
3080846000.0 -0.0423341 0.0790071 -0.3322692 0.2331865 -0.3264795 0.2378421 0.088806 0.0200695
3100845000.0 0.009230377 0.05964874 0.3755131 0.1679808 0.3724958 0.1633907 -0.077553 -0.1041627
3120844000.0 0.05996279 -0.04725079 -0.03676112 -0.4038351 -0.04097586 -0.4027415 0.03896508 0.008365093
3140843000.0 0.03411285 0.1328465 -0.3158856 0.2270804 -0.311602 0.2296172 0.1036006 0.09794965
3160842000.0 0.01349402 0.03026778 0.3719384 0.1637632 0.3712973 0.1608767 -0.003226082 -0.05161364
3180841000.0 0.06427103 -0.0315277 -0.04458573 -0.406824 -0.04778004 -0.4050704 0.07465517 -0.05903537
3200840000.0 0.08193758 0.03926824 -0.3201373 0.2440174 -0.3182674 0.2465546 0.03267768 0.01992713
3220839000.0 -0.02375288 0.02513548 0.3710147 0.146673 0.3716332 0.1425585 5.776688e-05 0.04732196
3240838000.0 0.0197563 -0.04278952 -0.06128176 -0.4003485 -0.06455697 -0.3978308 0.08865866 -0.02296724
3260837000.0 0.01711116 0.05886775 -0.308515 0.2563686 -0.3070413 0.2569555 0.1036275 -0.05624722
3280836000.0 0.06844548 0.07137039 0.370258 0.1347199 0.373144 0.1304985 -0.04673027 -0.0005572622
3300835000.0 0.01321964 -0.07512542 -0.07366099 -0.3911691 -0.07622333 -0.3876407 0.07860797 0.04002867
3320834000.0 -0.01587548 0.06369549 -0.2929551 0.2618302 -0.2941625 0.2635297 0.1311872 -0.08632918
3340833000.0 0.1345192 0.0546935 0.3666217 0.123551 0.3702459 0.1173811 -0.05691674 -0.08453937
3360832000.0 0.006080285 -0.08524201 -0.07772934 -0.3846906 -0.07939684 -0.3824259 0.02402094 0.05798663
3380831000.0 0.003058883 0.01420619 -0.2893425 0.2651425 -0.2881246 0.2689992 0.05555458 -0.02986675
3400830000.0 0.03671122 0.005969105 0.3739926 0.1129808 0.3763844 0.1085006 0.02871244 -0.03995242
3420829000.0 0.03220351 0.01135937 -0.09406981 -0.3774911 -0.09888739 -0.3775633 0.05000729 -0.0197692
3440828000.0 0.02786987 0.004547004 -0.2765826 0.2727623 -0.273368 0.2762412 0.00388911 -0.005194534
3460827000.0 0.04264042 0.00705536 0.3740848 0.09872142 0.374917 0.0932085 0.005051148 -0.03775351
3480826000.0 0.09335057 -0.0426337 -0.1025936 -0.3659704 -0.1071579 -0.3653148 0.07169157 0.01471236
3500825000.0 -0.008457539 -0.02744511 -0.2643449 0.2773704 -0.2610619 0.2815994 0.03789026 0.01323616
3520824000.0 -0.04651265 -0.01125575 0.3712509 0.08479048 0.3726663 0.07755092 0.07527085 -0.04548823
3540823000.0 0.09791101 0.07098886 -0.1123322 -0.3578022 -0.1155979 -0.3519445 0.03698133 -0.1495875
3560822000.0 0.09939697 -0.08357819 -0.2460823 0.2756273 -0.2465827 0.2796686 -0.07747716 0.08344778
3580821000.0 -0.1428279 -0.02014409 0.3610333 0.07382136 0.3617821 0.06387169 0.1373474 0.03394548
3600820000.0 0.1196337 0.1367538 -0.112691 -0.3461846 -0.1103174 -0.3414606 0.06368503 -0.2432222
3620819000.0 0.1549918 -0.1119345 -0.2436739 0.266785 -0.2455248 0.2741043 -0.1542929 0.05705718
3640818000.0 -0.1372871 0.01434875 0.3575581 0.07483904 0.356052 0.06654798 0.07696315 0.1124681
3660817000.0 0.1511674 0.06604949 -0.1110143 -0.3545797 -0.110566 -0.3543054 0.1306791 -0.1581452
3680816000.0 0.1347229 -0.09535693 -0.2486575 0.2822191 -0.245381 0.2892965 -0.06972087 -0.01527091
3700815000.0 -0.04124168 -0.03077942 0.3722877 0.06602798 0.3707319 0.05961738 0.01223781 0.04308186
3720814000.0 0.01658337 -0.0625318 -0.1370305 -0.3542795 -0.1405471 -0.3507271 0.05871264 -0.01813551
3740813000.0 0.05735533 0.01165874 -0.2314304 0.2984343 -0.2294103 0.2993309 0.1045037 -0.04299808
3760812000.0 0.03149201 -0.05792739 0.3742751 0.0411954 0.3740702 0.03636353 0.006351383 -0.06663233
3780811000.0 -0.09997087 -0.04144232 -0.1564778 -0.3320207 -0.1574324 -0.32944 -0.02437626 -0.007336678
3800810000.0 0.04962187 0.09446048 -0.2060694 0.2985443 -0.2075114 0.302852 0.1443034 -0.07043821
3820809000.0 0.1560971 -0.04412024 0.3588318 0.02148494 0.3575729 0.01336329 -0.08769616 -0.1161295
3840808000.0 -0.142882 -0.1163595 -0.1599112 -0.3057841 -0.1566616 -0.305404 -0.04619559 0.1322136
3860807000.0 0.02905011 0.1921857 -0.1886884 0.2799508 -0.1871751 0.2904356 0.2532464 -0.07878765
3880806000.0 0.2833256 -0.09205814 0.3341147 0.02189665 0.3274022 0.01293353 -0.1092386 -0.24723
3900805000.0 -0.1461247 -0.2120222 -0.1295036 -0.2957693 -0.1279593 -0.2998297 -0.1441256 0.1794089
3920804000.0 -0.0178763 0.1278743 -0.2175863 0.2702376 -0.2109001 0.2817552 0.2086485 0.0018374
3940803000.0 0.1678663 -0.08977424 0.3557657 0.03283765 0.353512 0.02655082 0.03537336 -0.1652565
3960802000.0 -0.07083151 -0.1068128 -0.1491362 -0.3175888 -0.1538611 -0.3200598 -0.07611947 0.05169996
3980801000.0 -0.03655622 0.004698359 -0.2007465 0.2992363 -0.1953117 0.3037062 0.06664062 -0.03471103
