! Created with skrf 1.9.0 (http://scikit-rf.org).
# Hz S RI R 50.0 
!freq ReS11 ImS11 ReS21 ImS21 ReS12 ImS12 ReS22 ImS22
1000000.0 1.045849 -0.06754707 0.0002878854 -0.0009428175 0.0003459613 -0.0009336683 0.8012223 -0.5575199
20999000.0 0.3987477 -0.5359606 0.2615648 -0.5367604 0.2756138 -0.5242935 -0.2826639 0.5099964
40998000.0 0.2450847 -0.3322766 -0.6301287 0.4497338 -0.6326122 0.4438663 -0.2880877 0.03220292
60997000.0 0.1164023 -0.271899 0.7739757 0.1946909 0.7784946 0.1914672 0.1300836 -0.2037733
80996000.0 -0.01390479 -0.2580338 -0.2887717 -0.7295655 -0.3001988 -0.7384291 0.08296076 0.1838005
100995000.0 0.03421532 -0.2016204 -0.426972 0.6704533 -0.4274196 0.6801107 -0.150422 0.06933859
120994000.0 0.01933824 -0.1465562 0.80013 -0.007189618 0.8021581 -0.01659325 0.07651135 -0.1024154
140993000.0 0.001025009 -0.1525037 -0.4310391 -0.6596242 -0.4447694 -0.6559757 0.1172272 0.09771155
160992000.0 -0.05404035 -0.1451991 -0.3213247 0.7055802 -0.3145138 0.713964 -0.1344723 0.01461441
180991000.0 -0.003572115 -0.06809261 0.7773138 -0.1015285 0.777209 -0.110412 0.05399759 -0.04515764
200990000.0 0.03018094 -0.07289218 -0.4948299 -0.6027589 -0.5045019 -0.5948933 0.1020355 0.08066044
220989000.0 -0.02908749 -0.1296155 -0.2434044 0.7219027 -0.2339095 0.7269054 -0.07128146 -0.01038748
240988000.0 0.02831329 -0.02651516 0.7451841 -0.1707904 0.7447543 -0.1787084 0.0001364946 0.006128557
260987000.0 0.05595883 -0.1726706 -0.5338977 -0.5302868 -0.5379593 -0.5206273 0.1937627 0.03537488
280986000.0 -0.1190144 -0.1336735 -0.1838036 0.7080035 -0.1745179 0.7094855 -0.1146794 -0.06548379
300985000.0 0.003787019 -0.01513088 0.7043664 -0.2189266 0.7022033 -0.227017 -0.01491335 0.01268987
320984000.0 -0.02049747 -0.1702949 -0.5347812 -0.4493279 -0.5362657 -0.4439575 0.1848857 -0.003722271
340983000.0 -0.1655251 -0.04460114 -0.1705523 0.6588738 -0.1637614 0.6618771 -0.07316379 -0.04923471
360982000.0 -0.0008796307 0.02566011 0.668334 -0.2529408 0.6621717 -0.2706024 0.00434165 0.03017138
380981000.0 -0.01498543 -0.04387851 -0.5354674 -0.476782 -0.5383739 -0.4745317 0.08242732 0.07355858
400980000.0 -0.03932497 -0.01748594 -0.1220878 0.7042862 -0.1193384 0.7055558 -0.01900438 -0.01445262
420979000.0 -0.05436261 -0.08748755 0.6566817 -0.2555895 0.654819 -0.2655455 0.0432083 -0.1171264
440978000.0 -0.006521424 0.08143557 -0.5547621 -0.4375354 -0.5595111 -0.4318998 -0.029963 0.08308773
460977000.0 0.05275482 -0.03368882 -0.07645044 0.7015249 -0.0713494 0.7038124 0.03676086 0.07331534
480976000.0 -0.07412712 -0.1525073 0.618205 -0.2932287 0.6175406 -0.3000486 0.04227139 -0.1637362
500975000.0 -0.005903793 0.0617221 -0.5635189 -0.3881162 -0.5678058 -0.3824017 -0.04474688 0.01312647
520974000.0 0.04312863 -0.05868504 -0.03357271 0.6622615 -0.02771315 0.668457 0.05198557 0.1654313
540973000.0 -0.1494684 -0.1230563 0.5850683 -0.27952 0.5807764 -0.2888497 0.04574366 -0.1712926
560972000.0 0.0001473885 0.08386288 -0.5541651 -0.3717288 -0.5557675 -0.3710474 -0.09329867 -0.03331659
580971000.0 0.09844954 -0.05644082 -0.02279108 0.6617438 -0.0137818 0.6681371 0.06382097 0.1796987
600970000.0 -0.2161257 -0.1000237 0.5732908 -0.2926469 0.5657394 -0.2996961 0.0557119 -0.1728996
620969000.0 -0.0007877905 0.05385555 -0.5596483 -0.3540637 -0.5647238 -0.352178 -0.07196517 -0.04347353
640968000.0 0.04582322 0.04069325 -0.008051382 0.6645977 -0.001087415 0.6674706 0.004028704 0.0593169
660967000.0 -0.04692814 -0.01756522 0.5730212 -0.3291039 0.568323 -0.3385205 -0.02353121 0.02139091
680966000.0 -0.0140013 -0.09311493 -0.5719121 -0.3131905 -0.5759065 -0.3065943 0.03815331 -0.06076582
700965000.0 -0.02989772 0.02111949 0.02555029 0.652271 0.03469126 0.6541472 -0.0363849 -0.01865829
720964000.0 0.04299482 0.04777984 0.5301158 -0.3629173 0.526342 -0.3686817 -0.01193084 0.1178564
740963000.0 -0.09472694 -0.1535548 -0.5776026 -0.2407232 -0.5812933 -0.2287161 0.1127653 -0.07120184
760962000.0 -0.06228365 0.06454876 0.03619578 0.6248403 0.04173282 0.6308722 -0.0253301 -0.1575866
780961000.0 0.1055105 0.02586289 0.5087519 -0.3578949 0.5004659 -0.364017 -0.1054254 0.1257809
800960000.0 -0.1420185 -0.1480943 -0.5618403 -0.2565121 -0.5644315 -0.2595097 0.1191449 0.02342459
820959000.0 -0.08976059 0.09061949 0.05760818 0.6164345 0.07307343 0.6196186 -0.05136758 -0.2092419
840958000.0 0.1220292 0.02689166 0.4934159 -0.3663227 0.4865631 -0.370058 -0.09818496 0.1010052
860957000.0 -0.09877179 -0.1067883 -0.5658115 -0.2306651 -0.5726873 -0.2319262 0.08472669 0.05463029
880956000.0 -0.1210688 0.07600687 0.08355603 0.6008664 0.09894749 0.59815 -0.09105535 -0.1314764
900955000.0 0.07175826 0.005861619 0.4731662 -0.3769255 0.4709814 -0.3799243 -0.05549312 0.0349987
920954000.0 -0.03302691 0.03941842 -0.5557626 -0.2092455 -0.5618366 -0.2042048 -0.01360296 0.1326105
940953000.0 -0.01069781 -0.01603492 0.1070926 0.5850164 0.1130232 0.5861058 0.03555423 0.01659957
960952000.0 -0.05474359 0.02122584 0.4446938 -0.3821693 0.4357066 -0.3903675 0.05044222 -0.07674298
980951000.0 0.1165255 0.051352 -0.5422074 -0.1890576 -0.5459296 -0.1867728 -0.1130082 -0.001182868
1000950000.0 0.00385457 -0.1253978 0.1017331 0.5656767 0.1162313 0.5684195 0.03424664 0.1341864
1020949000.0 -0.1393214 -0.008820943 0.435986 -0.3788213 0.4278077 -0.3829855 0.05258931 -0.08558689
1040948000.0 0.06745941 0.04517964 -0.5461012 -0.1850781 -0.553314 -0.180849 -0.104465 -0.02496345
1060947000.0 -0.02078851 -0.1194002 0.1178078 0.5667087 0.1339163 0.563543 0.001317694 0.1659891
1080946000.0 -0.176668 0.07540479 0.4185028 -0.3924096 0.415338 -0.3893205 0.120274 -0.05719117
1100945000.0 0.07720495 0.05035904 -0.5435984 -0.1733582 -0.5533732 -0.1647351 -0.1147722 -0.07550371
1120944000.0 -0.01454393 -0.05850902 0.1351021 0.5660806 0.145805 0.5606535 -0.05268482 0.1257618
1140943000.0 -0.08184175 0.09077186 0.4047077 -0.4069226 0.4030215 -0.4096988 0.1141043 0.04722388
1160942000.0 0.04415879 0.05800847 -0.5507023 -0.1476678 -0.5561988 -0.1372017 -0.06196705 -0.01490873
1180941000.0 0.1178275 -0.05503127 0.1498255 0.5437338 0.1613823 0.5395532 0.05663401 -0.01026402
1200940000.0 -0.01157948 -0.07089584 0.3924126 -0.4138111 0.3863946 -0.4165265 -0.01558955 0.05152498
1220939000.0 -0.1170301 -0.03656584 -0.5493051 -0.1211371 -0.553573 -0.1197318 0.05672226 0.0008891169
1240938000.0 -0.003338344 0.04497768 0.1654904 0.5371029 0.1796423 0.5330615 -0.06526396 -0.1208096
1260937000.0 0.08235151 -0.05392848 0.3669904 -0.4177763 0.3626191 -0.4178212 -0.05188904 0.118755
1280936000.0 -0.1822018 -0.01893743 -0.5379142 -0.1027935 -0.5476227 -0.09546454 0.08486848 0.07703337
1300935000.0 0.02345557 0.0663617 0.1728576 0.5291606 0.1857799 0.5204661 -0.01263126 -0.1581593
1320934000.0 0.03382778 -0.07667312 0.3559433 -0.4309761 0.3530684 -0.4327242 -0.1040298 0.009406662
1340933000.0 -0.1336598 0.07824199 -0.5261917 -0.08197069 -0.5321798 -0.07336612 -0.001509848 0.1805968
1360932000.0 0.004750286 0.04967242 0.1927973 0.5154891 0.1979591 0.5103165 0.00292624 -0.07080717
1380931000.0 0.0829658 -0.02306323 0.3425664 -0.4297319 0.3392395 -0.4342472 -0.01535303 0.003945129
1400930000.0 -0.02991309 0.02868083 -0.5305325 -0.07207959 -0.5343276 -0.06181091 -0.003953051 0.1341597
1420929000.0 -0.06592507 -0.003250699 0.2108946 0.4956301 0.2226901 0.4892226 -0.006958359 0.01559709
1440928000.0 0.08183835 0.02939106 0.3273166 -0.4326446 0.3189714 -0.4370196 0.09442043 -0.03371905
1460927000.0 0.0724818 -0.05445516 -0.5318903 -0.0483857 -0.5363752 -0.03998368 -0.04804192 -0.003327956
1480926000.0 -0.159958 -0.06883171 0.2163912 0.4691072 0.2258192 0.4609685 -0.06050899 0.1115938
1500925000.0 -0.007236053 0.04186298 0.3067142 -0.4337878 0.3031419 -0.4340341 0.09637046 -0.06097374
1520924000.0 0.06068806 0.003825481 -0.5242881 -0.04104991 -0.5272343 -0.03234637 -0.04027371 0.01397224
1540923000.0 -0.1437657 -0.04616921 0.2240154 0.4624762 0.23003 0.4542773 -0.05751203 0.1297904
1560922000.0 -0.05159429 0.08473042 0.2881223 -0.4298311 0.2868503 -0.4353111 0.1057272 -0.06671342
1580921000.0 0.1061005 0.02708814 -0.5208189 -0.03355222 -0.523464 -0.01932798 -0.02563082 -0.008530764
1600920000.0 -0.07680833 0.02007868 0.2302154 0.4603071 0.2391365 0.4539997 -0.1066176 0.09194116
1620919000.0 0.004759789 -0.02559083 0.2801096 -0.4397961 0.2718169 -0.4439951 0.02309496 0.05995325
1640918000.0 0.01132095 0.04222956 -0.5196695 -0.01362467 -0.5227527 -0.005558242 0.1215706 0.05506525
1660917000.0 0.05380896 0.03260856 0.2532319 0.452325 0.2631394 0.4451116 -0.01165143 -0.01909972
1680916000.0 -0.05819571 -0.115369 0.2525038 -0.4424503 0.2476884 -0.4446342 -0.06889234 0.02626974
1700915000.0 -0.03438119 0.08039347 -0.5079658 0.005454228 -0.5123539 0.01199256 0.1269015 0.08957632
1720914000.0 0.1155243 -0.003021817 0.2668333 0.4312861 0.2723958 0.4246843 0.06808119 -0.07417062
1740913000.0 -0.1388091 -0.146209 0.2301033 -0.4320629 0.2277582 -0.4353724 -0.1711982 -0.01871019
1760912000.0 -0.1028083 0.1401281 -0.4937864 0.003824373 -0.496001 0.01687273 0.1063666 0.1498039
1780911000.0 0.1313303 0.06781295 0.263291 0.4285844 0.2679257 0.4200878 0.05684063 -0.08406465
1800910000.0 -0.03255812 -0.1020899 0.2289644 -0.438661 0.2238606 -0.446545 -0.1342126 0.04233305
1820909000.0 -0.08313061 0.0389102 -0.5001234 0.01987886 -0.4984218 0.03443411 0.08013889 0.08492944
1840908000.0 0.02733597 0.04717692 0.2786206 0.4191097 0.2854384 0.4139968 0.02891642 0.01728172
1860907000.0 -0.01533851 0.02049896 0.2126102 -0.4520079 0.2052875 -0.4551248 -0.01089228 -0.01543714
1880906000.0 0.03452211 0.01948551 -0.493103 0.04687599 -0.494553 0.05694037 -0.0409731 0.07010636
1900905000.0 -0.04738692 0.000216681 0.2912267 0.397241 0.2988256 0.3882304 0.02807747 0.1242567
1920904000.0 0.1134856 0.06146047 0.1882863 -0.4507812 0.182628 -0.4521343 0.158411 0.02728677
1940903000.0 0.02065845 -0.1770915 -0.4705416 0.0680165 -0.4694135 0.07577308 -0.01626051 -0.1241406
1960902000.0 -0.2013669 0.01454204 0.2827583 0.3758263 0.2845224 0.368111 -0.0724787 0.1561061
1980901000.0 0.06989484 0.09064748 0.1814438 -0.44315 0.1784251 -0.4459741 0.1565408 0.01048446
2000900000.0 -0.02558072 -0.1423713 -0.4606298 0.07779894 -0.4596071 0.08371393 0.001825082 -0.1404941
2020899000.0 -0.2262064 0.1224456 0.2752329 0.3595137 0.2777763 0.355923 -0.167907 0.1593025
2040898000.0 0.09812468 0.1320061 0.1868937 -0.4334835 0.1823405 -0.43784 0.1466918 0.06510801
2060897000.0 0.06636067 -0.04894024 -0.4721693 0.07100014 -0.469326 0.07847951 0.01219958 -0.03959235
2080896000.0 -0.1016881 0.02827269 0.2980926 0.3656828 0.3008629 0.3638376 -0.02742778 0.1458434
2100895000.0 0.01136735 0.05899835 0.1671166 -0.4471934 0.1593768 -0.4515438 0.08563235 0.01725704
2120894000.0 0.05168397 0.006805475 -0.4690564 0.09088452 -0.4674606 0.09820169 0.0790806 0.007438291
2140893000.0 0.03268906 0.001925237 0.3195522 0.350874 0.3248581 0.3455217 0.0455584 0.005807683
2160892000.0 -0.1147219 -0.0753256 0.1304654 -0.4404665 0.1264434 -0.442782 -0.09447673 0.01544204
2180891000.0 -0.001601955 0.1396476 -0.4518322 0.09730452 -0.4501234 0.1077913 0.1246738 0.1369803
2200890000.0 0.13601 -0.04438753 0.3238658 0.3278119 0.3270844 0.3220583 0.1649502 -0.07887369
2220889000.0 -0.1920684 -0.07238834 0.1223022 -0.4204601 0.1181677 -0.4216891 -0.1601073 -0.05402797
2240888000.0 0.03257485 0.1627021 -0.4462796 0.1010029 -0.4451179 0.1061379 0.04134355 0.1602538
2260887000.0 0.1324982 -0.08898752 0.3225234 0.3136881 0.3271407 0.3082991 0.2072404 -0.02959733
2280886000.0 -0.2183644 -0.0297825 0.124414 -0.4088928 0.1205054 -0.4091933 -0.1638161 -0.07815979
2300885000.0 0.03870638 0.1656627 -0.4462329 0.09919334 -0.4467047 0.1050795 0.00419621 0.1822754
2320884000.0 0.1101949 -0.06074387 0.3225217 0.3204581 0.326172 0.3134989 0.202747 0.04061919
2340883000.0 -0.0906653 0.02461437 0.1243946 -0.4372088 0.1196708 -0.4377014 -0.007930434 -0.02061974
2360882000.0 -0.03834168 0.01326 -0.4415844 0.127119 -0.4392806 0.131277 0.05322678 -0.001322289
2380881000.0 0.05931591 0.07847245 0.3354819 0.3101604 0.3409745 0.3073696 0.03225312 -0.01034684
2400880000.0 0.06791191 0.02875776 0.08958671 -0.4467808 0.08337886 -0.4461872 0.06336944 0.08877064
2420879000.0 -0.04399571 -0.0943009 -0.4223592 0.1364605 -0.4206045 0.1398865 0.0002789465 -0.07601543
2440878000.0 -0.06611493 0.04573163 0.3463822 0.2947376 0.3492294 0.2921892 0.007707636 0.07291969
2460877000.0 0.1162141 0.09300057 0.06025168 -0.4294288 0.05577498 -0.4307286 0.163892 0.08664636
2480876000.0 -0.1038953 -0.1051404 -0.4085931 0.1348473 -0.4097168 0.1408232 0.02042359 -0.1519614
2500875000.0 -0.06827217 0.137938 0.3463962 0.2808989 0.3524368 0.2738991 -0.115525 0.0310466
2520874000.0 0.1885507 0.05469951 0.05674583 -0.4097716 0.05307503 -0.4098326 0.1521462 0.1646053
2540873000.0 -0.1117183 -0.07216671 -0.4069025 0.1377857 -0.4083578 0.1460479 0.07570439 -0.1073432
2560872000.0 -0.03338804 0.1210776 0.343632 0.2716018 0.3467526 0.2638063 -0.1080104 -0.009635284
2580871000.0 0.1650905 -0.001569581 0.06535308 -0.4086334 0.06216447 -0.4109978 0.1296408 0.149268
2600870000.0 -0.08496387 -0.02078462 -0.4085618 0.149966 -0.4061574 0.1597443 0.100535 -0.04215077
2620869000.0 -0.01774839 0.04201398 0.3462484 0.2698162 0.3484766 0.262744 -0.02389471 -0.04884569
2640868000.0 0.01873766 -0.01023369 0.05551461 -0.4323982 0.04861393 -0.4327494 0.03794269 0.01760123
2660867000.0 0.03656866 0.07576784 -0.3918763 0.1718227 -0.3887289 0.1772731 0.02649624 0.08814205
2680866000.0 -0.04720403 -0.06357178 0.3484397 0.2568274 0.3530698 0.2482689 0.1115681 0.01907778
2700865000.0 -0.07956648 0.04552461 0.03583997 -0.4312583 0.03032251 -0.4273325 0.03185285 -0.08995258
2720864000.0 0.060117 0.1301297 -0.3847142 0.17749 -0.3821945 0.1816138 0.03487936 0.07761333
2740863000.0 0.06113447 -0.031154 0.3563688 0.2426557 0.3587025 0.2367381 0.1006393 -0.04114613
2760862000.0 -0.09643656 0.001640797 0.02349017 -0.4198157 0.01851434 -0.4196573 -0.05244169 -0.06193368
2780861000.0 0.08812839 0.08700387 -0.3787671 0.1867188 -0.3768553 0.1939518 -0.01169179 0.1039461
2800860000.0 -0.001043511 -0.06797069 0.3572678 0.2280508 0.3566632 0.2205237 0.1695609 0.0670464
2820859000.0 -0.0625835 0.1123524 0.01628141 -0.4157361 0.01473123 -0.4177188 0.05867533 -0.1050198
2840858000.0 0.1002313 0.01681283 -0.3697262 0.1936948 -0.3670054 0.1998947 -0.05338851 0.02572463
2860857000.0 0.01634274 -0.06967306 0.3565165 0.2158995 0.3557821 0.2139409 0.137007 0.02226467
2880856000.0 -0.0402563 0.07295747 0.009729314 -0.4197991 0.006901954 -0.4219097 0.0477584 -0.02900445
2900855000.0 -0.000251098 0.03018035 -0.3667638 0.207138 -0.3653585 0.2105146 -0.009159314 0.006861792
2920854000.0 0.0392958 -0.008647732 0.3587855 0.2074193 0.3625219 0.204367 0.06081267 -0.0532704
2940853000.0 0.05611602 0.03509654 -0.01014179 -0.414568 -0.01434213 -0.4149501 0.07104532 0.05280454
2960852000.0 -0.06106735 0.02192138 -0.3583548 0.2161065 -0.3571746 0.2220303 0.01787096 -0.005823418
2980851000.0 0.006837368 0.01241446 0.3658374 0.1990355 0.3697638 0.1924388 0.003432349 -0.07459442
3000850000.0 0.07885156 0.07421847 0.05566008 -0.4011875 0.06667245 -0.3984387 0.05440117 0.07219017
3020849000.0 -0.01475523 0.04178151 -0.3413263 0.2267418 -0.338135 0.2322533 0.02161613 0.06730197
3040848000.0 -0.0456772 -0.02659577 0.3695418 0.1876048 0.3728122 0.1806121 0.03490776 -0.04534487
3060847000.0 0.09247635 0.03005892 -0.02279146 -0.4003411 -0.02928814 -0.3984529 0.1222982 -0.01718982
3080846000.0 -0.04186082 0.07896422 -0.3320362 0.2323776 -0.326211 0.2370757 0.08857956 0.01990186
3100845000.0 0.009163224 0.05917576 0.37473 0.168175 0.3717298 0.1635219 -0.07717081 -0.1041657
3120844000.0 0.0597409 -0.0465537 -0.03619121 -0.4031427 -0.04063259 -0.4020209 0.03886285 0.00855116
3140843000.0 0.03433384 0.1325443 -0.3156728 0.2263369 -0.311353 0.228942 0.1033929 0.09774327
3160842000.0 0.01331349 0.03003976 0.3711706 0.1639695 0.3705833 0.1609699 -0.003066257 -0.05172649
3180841000.0 0.06436203 -0.03100626 -0.04404426 -0.4061719 -0.04739878 -0.4043948 0.07457623 -0.05864545
3200840000.0 0.0818731 0.03905296 -0.3198993 0.2432604 -0.3180277 0.2458405 0.0328634 0.01980942
3220839000.0 -0.02378595 0.02504941 0.3702696 0.1467539 0.3709095 0.1426814 -7.334456e-05 0.04682397
3240838000.0 0.01996353 -0.04264168 -0.0606953 -0.3997151 -0.06404516 -0.3972054 0.08845217 -0.02243372
3260837000.0 0.01675551 0.05873135 -0.3082784 0.2555753 -0.3067571 0.2561955 0.1039939 -0.05611327
3280836000.0 0.06845506 0.0716018 0.3694403 0.1348981 0.372373 0.1306509 -0.04677723 -0.001158101
3300835000.0 0.01363358 -0.07529455 -0.07306187 -0.3905261 -0.07568537 -0.3870547 0.07825539 0.040279
3320834000.0 -0.01623821 0.06353486 -0.2927422 0.2610043 -0.2939509 0.2626718 0.1313735 -0.08604656
3340833000.0 0.1344399 0.05505126 0.3657761 0.1238042 0.3694151 0.1176195 -0.0566863 -0.08480065
3360832000.0 0.006491283 -0.08549269 -0.07709979 -0.3840726 -0.07880507 -0.3818145 0.0237526 0.05787605
3380831000.0 0.00260885 0.01420398 -0.2891983 0.2642367 -0.2879892 0.2681182 0.05560492 -0.02973869
3400830000.0 0.036954 0.006257292 0.3731615 0.1133079 0.3755893 0.1087796 0.02880247 -0.03993318
3420829000.0 0.03221447 0.01096062 -0.0933693 -0.3769507 -0.09820958 -0.3770227 0.04991326 -0.01979503
3440828000.0 0.02762009 0.004703421 -0.2764637 0.2719489 -0.273233 0.275475 0.003783653 -0.005309206
3460827000.0 0.04288078 0.007099686 0.3732696 0.09905297 0.3741375 0.09347573 0.005316282 -0.03745845
3480826000.0 0.09318446 -0.04257141 -0.1019199 -0.3654744 -0.1065051 -0.3647853 0.07173765 0.01442817
3500825000.0 -0.008288623 -0.02748271 -0.2642382 0.2765467 -0.2609477 0.2807688 0.03741826 0.01312233
3520824000.0 -0.04647997 -0.0114879 0.3704164 0.08510868 0.371899 0.07779952 0.07556512 -0.04495791
3540823000.0 0.09755734 0.07133177 -0.1116141 -0.3572702 -0.1149942 -0.3514061 0.03740423 -0.1498073
3560822000.0 0.09965611 -0.08345396 -0.2459672 0.2748014 -0.2464413 0.2787533 -0.07804336 0.08297054
3580821000.0 -0.1427336 -0.02058526 0.3602204 0.07419371 0.3609798 0.064181 0.1372198 0.03450179
3600820000.0 0.119077 0.1371218 -0.1119667 -0.3456486 -0.1096058 -0.3408846 0.06428043 -0.2429287
3620819000.0 0.1552314 -0.1117215 -0.2435871 0.2658879 -0.2453997 0.2732177 -0.1545058 0.05630156
3640818000.0 -0.1371624 0.01376763 0.3567007 0.07525481 0.3552647 0.06686339 0.07661147 0.1125568
3660817000.0 0.1508976 0.06649979 -0.1102069 -0.3540328 -0.1098824 -0.3537459 0.1308818 -0.1575611
3680816000.0 0.1349031 -0.09518453 -0.2486256 0.2812438 -0.245325 0.2883366 -0.06952403 -0.015607
3700815000.0 -0.04129314 -0.03120556 0.371477 0.06645156 0.3699233 0.06005343 0.01206229 0.04279251
3720814000.0 0.01666566 -0.06217742 -0.1361799 -0.3538166 -0.1397531 -0.3502007 0.05856591 -0.01785768
3740813000.0 0.05721505 0.01158232 -0.2314705 0.2974923 -0.2294018 0.2983744 0.1046841 -0.0427687
3760812000.0 0.03142518 -0.0579011 0.3734975 0.04162974 0.3732674 0.03685585 0.006359393 -0.06712962
3780811000.0 -0.09970759 -0.04154307 -0.155654 -0.3316329 -0.1566917 -0.3289735 -0.02466121 -0.007162337
3800810000.0 0.04923521 0.09461343 -0.2060942 0.2976099 -0.207522 0.3019847 0.1446021 -0.0699866
3820809000.0 0.1561338 -0.04381174 0.3580119 0.02189941 0.3568026 0.01383053 -0.08753522 -0.1167629
3840808000.0 -0.1423922 -0.1167396 -0.159089 -0.3053508 -0.1558613 -0.3049599 -0.04668711 0.1321574
3860807000.0 0.02847274 0.1920546 -0.1887055 0.2789847 -0.187186 0.2894605 0.2532943 -0.07809273
3880806000.0 0.2831016 -0.09148812 0.3333226 0.02235702 0.3266696 0.01345041 -0.1086849 -0.2474736
3900805000.0 -0.1454554 -0.2123398 -0.1287547 -0.2952571 -0.1272271 -0.299314 -0.1445437 0.1787338
3920804000.0 -0.01848303 0.1276343 -0.2175998 0.2691413 -0.2109271 0.2807095 0.2084223 0.002492464
3940803000.0 0.1679148 -0.08922371 0.3549131 0.03347271 0.352667 0.02712293 0.03571718 -0.1650355
3960802000.0 -0.07050359 -0.1072214 -0.1482364 -0.3171355 -0.1529474 -0.3196096 -0.07611055 0.05105866
