! Created with skrf 1.9.0 (http://scikit-rf.org).
# Hz S RI R 50.0 
!freq ReS11 ImS11 ReS21 ImS21 ReS12 ImS12 ReS22 ImS22
1000000.0 1.045985 -0.06730982 0.0002982705 -0.0009409087 0.0003572484 -0.0009282402 0.8012629 -0.5575035
20999000.0 0.3985473 -0.5357386 0.261859 -0.5372961 0.2759686 -0.5248527 -0.2829911 0.5116214
40998000.0 0.2458188 -0.332793 -0.6302578 0.4503125 -0.6327562 0.4443676 -0.287843 0.03165529
60997000.0 0.1155754 -0.2719842 0.7745581 0.1948416 0.7790733 0.1914932 0.1291908 -0.2044242
80996000.0 -0.01364095 -0.2574322 -0.2892622 -0.7301078 -0.3006446 -0.7390811 0.0833616 0.1848459
100995000.0 0.03430043 -0.2021665 -0.426976 0.6709942 -0.4274316 0.6806813 -0.1500824 0.06918646
120994000.0 0.01913686 -0.1462559 0.8006817 -0.007466025 0.802694 -0.01691988 0.07620794 -0.1029478
140993000.0 0.001261234 -0.152647 -0.4316042 -0.6597787 -0.4453774 -0.6561005 0.1171832 0.09794133
160992000.0 -0.05433617 -0.1450818 -0.3211848 0.7060843 -0.3143502 0.7144586 -0.1343835 0.01509056
180991000.0 -0.003094128 -0.0680294 0.7776974 -0.102012 0.7775792 -0.1109273 0.05432106 -0.04566876
200990000.0 0.02989278 -0.07342512 -0.4953521 -0.6026531 -0.504978 -0.5948676 0.1015997 0.08025794
220989000.0 -0.02941956 -0.1289097 -0.2431667 0.7222784 -0.2335754 0.7272931 -0.07156687 -0.009446821
240988000.0 0.02922421 -0.02672121 0.7453367 -0.1713781 0.7448857 -0.1792545 0.001089226 0.006041562
260987000.0 0.05521781 -0.1732901 -0.5342218 -0.5300788 -0.5383033 -0.520399 0.1933706 0.03431724
280986000.0 -0.1190304 -0.1327301 -0.1835687 0.7082765 -0.1743368 0.7097771 -0.1153842 -0.06447767
300985000.0 0.00453389 -0.01574398 0.7043687 -0.2194124 0.702212 -0.2275109 -0.01391614 0.0127872
320984000.0 -0.0213431 -0.1704326 -0.5351063 -0.4491438 -0.5365775 -0.4437743 0.1845773 -0.004737392
340983000.0 -0.1652565 -0.04387914 -0.170212 0.6591477 -0.1634066 0.662132 -0.07374138 -0.0485242
360982000.0 -0.0005591557 0.02494809 0.6683081 -0.2534959 0.6620911 -0.2711245 0.005032159 0.03028177
380981000.0 -0.01555115 -0.04377715 -0.5358959 -0.4764206 -0.5386786 -0.4742603 0.08250009 0.07292946
400980000.0 -0.03896034 -0.01722884 -0.1215844 0.704528 -0.1188333 0.7057536 -0.01944511 -0.01425466
420979000.0 -0.05452432 -0.08776733 0.6564944 -0.2561053 0.6545814 -0.2660569 0.04317359 -0.1168801
440978000.0 -0.006405349 0.08168413 -0.555082 -0.4371204 -0.5598152 -0.4314622 -0.029562 0.08306717
460977000.0 0.05293704 -0.03406696 -0.07590318 0.701494 -0.07079571 0.7037215 0.03686837 0.07292363
480976000.0 -0.07467329 -0.152227 0.6178813 -0.2935933 0.6172735 -0.3002274 0.04160552 -0.1636223
500975000.0 -0.005194655 0.0619157 -0.5637206 -0.3876654 -0.568063 -0.3818676 -0.04436009 0.01368023
520974000.0 0.042912 -0.05941101 -0.03315254 0.6620551 -0.02727484 0.6682333 0.05254866 0.1646877
540973000.0 -0.1499593 -0.1223692 0.5848205 -0.2797193 0.5804883 -0.2890758 0.04469932 -0.1713414
560972000.0 0.0009804567 0.08386938 -0.5542293 -0.3713317 -0.5558562 -0.3707066 -0.09299875 -0.03232389
580971000.0 0.09798335 -0.05720631 -0.02246451 0.661514 -0.0134144 0.6679568 0.06470006 0.1789619
600970000.0 -0.2163444 -0.09914402 0.5730708 -0.2928599 0.5655836 -0.2999191 0.05473508 -0.1732486
620969000.0 -7.529899e-05 0.05343021 -0.5598298 -0.3536945 -0.5650089 -0.3516754 -0.07188581 -0.04267653
640968000.0 0.04519144 0.04029508 -0.007577112 0.6645032 -0.0006221557 0.6673227 0.004629502 0.05890628
660967000.0 -0.04672083 -0.01688273 0.5726648 -0.3294071 0.5679444 -0.3389107 -0.02390617 0.02115111
680966000.0 -0.01379947 -0.09355515 -0.5718569 -0.3127671 -0.5759575 -0.3060202 0.03793636 -0.06044524
700965000.0 -0.03025842 0.02118881 0.02599415 0.6520336 0.03515898 0.6538991 -0.03612905 -0.01853208
720964000.0 0.04332665 0.04772501 0.5296329 -0.3630883 0.525853 -0.3688512 -0.01169521 0.1175862
740963000.0 -0.09508922 -0.1535121 -0.5774937 -0.2402759 -0.5812302 -0.2282457 0.1123846 -0.07133339
760962000.0 -0.0620662 0.06487783 0.03661021 0.6244753 0.042138 0.6305453 -0.02552619 -0.1570865
780961000.0 0.1057012 0.02525108 0.50827 -0.3579524 0.4999306 -0.3640061 -0.1046677 0.1257676
800960000.0 -0.1425774 -0.1478664 -0.5616389 -0.2561101 -0.5643798 -0.2590409 0.1188781 0.02264423
820959000.0 -0.08922361 0.09103858 0.05786189 0.6160699 0.07337867 0.6192065 -0.05209174 -0.208538
840958000.0 0.1220008 0.02604871 0.4930807 -0.3662883 0.4861404 -0.3700439 -0.0973306 0.1012788
860957000.0 -0.09934392 -0.1062198 -0.5655949 -0.2302498 -0.5725482 -0.2315564 0.08462323 0.05373932
880956000.0 -0.1202505 0.07612222 0.08375937 0.600585 0.09909593 0.5978107 -0.09173074 -0.1309022
900955000.0 0.0713319 0.005110434 0.4727427 -0.377019 0.4705609 -0.3800579 -0.05488405 0.03534924
920954000.0 -0.03328847 0.04005153 -0.5556256 -0.2088339 -0.5616717 -0.2037585 -0.01346025 0.1319671
940953000.0 -0.01012561 -0.01614777 0.1074165 0.5846696 0.1133261 0.5857874 0.03509071 0.01672677
960952000.0 -0.05510884 0.02096088 0.4442013 -0.3822283 0.4352419 -0.3903975 0.05051635 -0.07640652
980951000.0 0.1165129 0.05157151 -0.541978 -0.1886403 -0.5456848 -0.1863584 -0.1126766 -0.001292249
1000950000.0 0.003941149 -0.1255097 0.1019753 0.565218 0.1164721 0.5679361 0.03411171 0.1337944
1020949000.0 -0.139352 -0.008640025 0.4354897 -0.3787626 0.4273686 -0.3828951 0.05219254 -0.08534535
1040948000.0 0.06768264 0.04495443 -0.5457962 -0.1846791 -0.5529866 -0.180512 -0.1041623 -0.02458085
1060947000.0 -0.02127499 -0.1195046 0.1179692 0.566227 0.1340788 0.5630175 0.001649033 0.165464
1080946000.0 -0.176342 0.07589109 0.4180352 -0.3922561 0.4148784 -0.3892107 0.1195956 -0.05732435
1100945000.0 0.07743453 0.04981199 -0.5432913 -0.1730372 -0.5530772 -0.1644064 -0.1146096 -0.0747424
1120944000.0 -0.01517483 -0.05840474 0.135223 0.5655464 0.1459099 0.5602019 -0.05194589 0.125284
1140943000.0 -0.08135527 0.09119563 0.4041631 -0.4068 0.4026441 -0.4095419 0.113324 0.0466512
1160942000.0 0.04431564 0.05737047 -0.5504159 -0.1473566 -0.5559048 -0.1369066 -0.06204594 -0.01403594
1180941000.0 0.1171338 -0.05477039 0.1500034 0.5433015 0.1615251 0.5391495 0.05721915 -0.01040775
1200940000.0 -0.01098455 -0.07059889 0.3919238 -0.4137122 0.3859004 -0.4164203 -0.01586562 0.051059
1220939000.0 -0.1170561 -0.0370856 -0.5489666 -0.1207537 -0.5531867 -0.1193801 0.05648177 0.001245156
1240938000.0 -0.003698529 0.04525717 0.1655911 0.536542 0.1797623 0.5324589 -0.06491312 -0.1205786
1260937000.0 0.08259129 -0.05396666 0.3665385 -0.4175555 0.3621188 -0.4176325 -0.05180695 0.1183131
1280936000.0 -0.1821377 -0.01894931 -0.5374146 -0.1024943 -0.5472253 -0.09512091 0.08448201 0.07693426
1300935000.0 0.02348679 0.06635129 0.1729362 0.5285646 0.1858013 0.5198957 -0.01261754 -0.1576052
1320934000.0 0.03356545 -0.07679182 0.3554547 -0.4306737 0.3525043 -0.4325038 -0.1035994 0.009285125
1340933000.0 -0.1335555 0.07844939 -0.5257497 -0.08172503 -0.5316986 -0.07312684 -0.001728462 0.1799205
1360932000.0 0.005060506 0.04953237 0.1927739 0.5149091 0.1979376 0.5097581 0.002459482 -0.07020158
1380931000.0 0.0824538 -0.02326539 0.342003 -0.4294867 0.3387744 -0.4339743 -0.01474413 0.004270279
1400930000.0 -0.02982813 0.02910449 -0.5301965 -0.07174081 -0.5338473 -0.06162605 -0.003867423 0.1332888
1420929000.0 -0.06545524 -0.003527286 0.2108883 0.4950588 0.2226771 0.488707 -0.007592918 0.01596642
1440928000.0 0.08122624 0.02922162 0.3268417 -0.4323306 0.3184376 -0.436691 0.09483566 -0.03321962
1460927000.0 0.07262986 -0.05398275 -0.531398 -0.04820174 -0.5358738 -0.03978924 -0.04778462 -0.003935384
1480926000.0 -0.1594687 -0.06916545 0.2163352 0.4685217 0.2257538 0.4604307 -0.06092054 0.1115089
1500925000.0 -0.007812633 0.04170771 0.3062326 -0.4333156 0.3027881 -0.4335956 0.09628047 -0.06040614
1520924000.0 0.06076896 0.004055968 -0.5237771 -0.04087907 -0.5267054 -0.03222219 -0.03989045 0.01381026
1540923000.0 -0.1435319 -0.0463361 0.2239023 0.4619148 0.2299161 0.45376 -0.05756181 0.1294112
1560922000.0 -0.05167717 0.084717 0.2877653 -0.4294113 0.286426 -0.4348625 0.1052831 -0.06631813
1580921000.0 0.105914 0.0270126 -0.5202647 -0.03337314 -0.5228986 -0.01918588 -0.02530667 -0.008338263
1600920000.0 -0.07672083 0.02018766 0.2300473 0.4597929 0.2390201 0.4534414 -0.1062941 0.09144323
1620919000.0 0.004950766 -0.02549307 0.2797174 -0.4393264 0.2713842 -0.443516 0.02248483 0.05995172
1640918000.0 0.01116264 0.04193121 -0.5191011 -0.01345647 -0.5221761 -0.005456883 0.1215212 0.05563744
1660917000.0 0.05364209 0.03278019 0.2530134 0.4517567 0.2629484 0.4445424 -0.01096417 -0.01939226
1680916000.0 -0.05775423 -0.1151795 0.2521178 -0.4419796 0.2472521 -0.4441105 -0.0693429 0.02586053
1700915000.0 -0.03454599 0.07995693 -0.507321 0.005570967 -0.5117444 0.01206282 0.1265252 0.0901742
1720914000.0 0.1152332 -0.002729187 0.2665911 0.4306611 0.2721513 0.4240974 0.0686873 -0.07419108
1740913000.0 -0.1382325 -0.1460666 0.2296775 -0.4316202 0.2274304 -0.4348325 -0.1712226 -0.01914722
1760912000.0 -0.103047 0.1396607 -0.4931116 0.003794837 -0.4953485 0.01692975 0.1058561 0.1499679
1780911000.0 0.1310869 0.06813733 0.2629694 0.4279986 0.267758 0.4195515 0.05711739 -0.0837203
1800910000.0 -0.03214847 -0.1020401 0.2286741 -0.4379847 0.223515 -0.4459789 -0.1338543 0.04195601
1820909000.0 -0.08320021 0.03865961 -0.4994099 0.01986833 -0.4977452 0.03446485 0.07962209 0.08478259
1840908000.0 0.02715589 0.04727571 0.2782538 0.4185251 0.2850518 0.4133978 0.02890447 0.0176936
1860907000.0 -0.01520952 0.02057191 0.2122079 -0.4513725 0.2049531 -0.4545586 -0.0104055 -0.01545291
1880906000.0 0.03452222 0.01943544 -0.4924312 0.04687373 -0.4938918 0.05690289 -0.04114585 0.06960036
1900905000.0 -0.04731539 0.0001662228 0.2907703 0.3965918 0.2984601 0.3876666 0.02768113 0.1245974
1920904000.0 0.1132214 0.06142884 0.1881336 -0.4502461 0.1823824 -0.4514949 0.1588286 0.02756104
1940903000.0 0.02076061 -0.1768224 -0.4698269 0.06797023 -0.4687604 0.07570433 -0.01609928 -0.1245896
1960902000.0 -0.201093 0.01424007 0.2823784 0.3752827 0.2841485 0.3675274 -0.072996 0.1560148
1980901000.0 0.06940827 0.09061956 0.1811977 -0.442486 0.178196 -0.4452742 0.1567195 0.01104106
2000900000.0 -0.02537286 -0.1419181 -0.4599544 0.07764548 -0.4589518 0.08354639 0.002098687 -0.1407204
2020899000.0 -0.225891 0.1219196 0.2748368 0.3590138 0.2774107 0.3553881 -0.1680712 0.1589454
2040898000.0 0.09754546 0.1321341 0.1866758 -0.4328167 0.1820514 -0.4371878 0.1464162 0.06559428
2060897000.0 0.06658215 -0.04858828 -0.4714643 0.07075407 -0.4686533 0.07827146 0.01256835 -0.03951276
2080896000.0 -0.1014468 0.0278224 0.2975526 0.3651571 0.3003291 0.3633684 -0.0274205 0.1452535
2100895000.0 0.01106807 0.05909507 0.1668983 -0.4464167 0.1591479 -0.4508067 0.08523 0.01750073
2120894000.0 0.05173773 0.006989127 -0.4683084 0.09063447 -0.4667885 0.09800055 0.07928008 0.007788387
2140893000.0 0.03269301 0.001655327 0.3189905 0.3503318 0.3243748 0.3449603 0.0457463 0.005385776
2160892000.0 -0.1145912 -0.07520477 0.1303557 -0.4397151 0.1263199 -0.4420651 -0.09468502 0.01541853
2180891000.0 -0.001709036 0.1394615 -0.4510951 0.09712098 -0.4494413 0.1074974 0.1245509 0.1373426
2200890000.0 0.1357843 -0.04424461 0.3232456 0.327434 0.3264484 0.3216507 0.1652511 -0.07894725
2220889000.0 -0.1915565 -0.07233376 0.1221926 -0.4197716 0.1180624 -0.4209875 -0.1601164 -0.05436884
2240888000.0 0.03228037 0.1623824 -0.4454692 0.100749 -0.4443903 0.1058403 0.04098823 0.1605129
2260887000.0 0.1322564 -0.08856978 0.3218778 0.31332 0.3265232 0.3079289 0.2073645 -0.02942334
2280886000.0 -0.2177175 -0.02993009 0.1242743 -0.4082113 0.1204351 -0.4085316 -0.163514 -0.07846754
2300885000.0 0.0382113 0.1652847 -0.445484 0.09882141 -0.44597 0.1047518 0.003860643 0.1822548
2320884000.0 0.1100839 -0.06008082 0.3218881 0.320051 0.3255087 0.3131222 0.202609 0.04092665
2340883000.0 -0.09011029 0.02421539 0.1242647 -0.436409 0.1195586 -0.436913 -0.007474293 -0.02080977
2360882000.0 -0.03861737 0.01318503 -0.4408406 0.1267113 -0.4385431 0.1308352 0.05296109 -0.001519176
2380881000.0 0.05915358 0.07868446 0.3347917 0.3097554 0.3402853 0.3070126 0.03213964 -0.009923778
2400880000.0 0.06802823 0.02862081 0.08955938 -0.4460161 0.08339357 -0.4453279 0.06368459 0.08849046
2420879000.0 -0.04391698 -0.09422007 -0.4216806 0.1360309 -0.4199238 0.1394417 0.000256341 -0.07613298
2440878000.0 -0.06604302 0.04573096 0.345631 0.2944323 0.3484803 0.2918674 0.007451331 0.07309297
2460877000.0 0.1158172 0.09284043 0.06038687 -0.4286235 0.05596121 -0.4299612 0.1639338 0.08669846
2480876000.0 -0.1035407 -0.1048108 -0.4079576 0.1344186 -0.4090766 0.1403673 0.02069518 -0.1520556
2500875000.0 -0.06814653 0.1376424 0.3456639 0.2805796 0.3516642 0.2736435 -0.1156313 0.03098344
2520874000.0 0.1878923 0.05481534 0.05687545 -0.4090736 0.05324402 -0.4091064 0.1519042 0.1646983
2540873000.0 -0.1111529 -0.07192191 -0.4062212 0.1373498 -0.4076456 0.1455631 0.07605212 -0.1073029
2560872000.0 -0.03332436 0.1205771 0.342847 0.2713405 0.346 0.263593 -0.1079103 -0.009828192
2580871000.0 0.1644104 -0.001201789 0.06544057 -0.4079934 0.06227701 -0.4102885 0.1291895 0.1493151
2600870000.0 -0.08433755 -0.02069272 -0.4078804 0.1494422 -0.40547 0.1592259 0.100738 -0.04193711
2620869000.0 -0.01784018 0.04156442 0.3454517 0.2695222 0.3477201 0.2625132 -0.02367129 -0.04906488
2640868000.0 0.01846433 -0.009788678 0.05563473 -0.4315692 0.04877845 -0.4318959 0.03755827 0.01769495
2660867000.0 0.03671579 0.07558314 -0.3912681 0.1711709 -0.3881405 0.1766417 0.02665926 0.08817302
2680866000.0 -0.04717385 -0.06358109 0.3475748 0.2566281 0.352266 0.2480284 0.1115863 0.01885194
2700865000.0 -0.07945679 0.04557139 0.03610746 -0.4304342 0.03047781 -0.4265277 0.03178331 -0.08971411
2720864000.0 0.05986585 0.1299286 -0.3841563 0.1767617 -0.3816046 0.1810131 0.03493198 0.07752668
2740863000.0 0.0609912 -0.03082114 0.355576 0.2424534 0.3579219 0.2365587 0.1006162 -0.04116459
2760862000.0 -0.09585222 0.001563967 0.02380035 -0.4190482 0.01886095 -0.4188335 -0.05232469 -0.06193259
2780861000.0 0.08770294 0.08671391 -0.3782112 0.1861166 -0.3763381 0.1933467 -0.01179447 0.1039205
2800860000.0 -0.001021242 -0.06745354 0.3564243 0.2278645 0.3558789 0.2204222 0.1694282 0.06715562
2820859000.0 -0.0622338 0.1118898 0.01657982 -0.4149518 0.01497167 -0.4169376 0.05882807 -0.1050026
2840858000.0 0.09979747 0.01679311 -0.3692133 0.1930518 -0.3665357 0.1992256 -0.05335256 0.02556431
2860857000.0 0.01655549 -0.06907941 0.3557433 0.2157271 0.3550436 0.2137508 0.1367979 0.02249183
2880856000.0 -0.0400217 0.07239548 0.01009468 -0.4189227 0.007176182 -0.4210812 0.04790859 -0.02911771
2900855000.0 -0.0005737005 0.0302423 -0.3662639 0.2063779 -0.3648363 0.209842 -0.009191508 0.006609898
2920854000.0 0.03940089 -0.008259401 0.3579883 0.2071889 0.3616623 0.2042223 0.06079607 -0.05281847
2940853000.0 0.05596931 0.03489527 -0.009758743 -0.4137789 -0.0140069 -0.4141868 0.07104633 0.05249941
2960852000.0 -0.06089597 0.02189192 -0.3577386 0.2153918 -0.3567101 0.2213711 0.01770623 -0.005969326
2980851000.0 0.006954649 0.01234331 0.3648929 0.1988973 0.3688834 0.1923595 0.003790235 -0.07414661
3000850000.0 0.07832655 0.0742975 0.05591394 -0.4004256 0.0668561 -0.3976506 0.05433142 0.07188725
3020849000.0 -0.01441603 0.04174798 -0.3408537 0.2260032 -0.337727 0.2315057 0.02146501 0.06709938
3040848000.0 -0.04540658 -0.0268753 0.3686128 0.1876003 0.3718624 0.1806037 0.03525 -0.04510538
3060847000.0 0.09182423 0.03040667 -0.02237172 -0.3996046 -0.02890765 -0.3976955 0.122098 -0.01709449
3080846000.0 -0.04140994 0.07887449 -0.3315694 0.2315749 -0.3258231 0.2362643 0.08829835 0.0197088
3100845000.0 0.009069822 0.05876815 0.3738292 0.1683154 0.3708655 0.1636 -0.0767369 -0.1041009
3120844000.0 0.05950041 -0.04583654 -0.03581319 -0.4023205 -0.04021725 -0.4011623 0.03871334 0.008713834
3140843000.0 0.03446823 0.1322483 -0.3152906 0.2255813 -0.3110267 0.228173 0.1031233 0.09750456
3160842000.0 0.01321799 0.0297647 0.3703312 0.1639898 0.3697557 0.1610545 -0.002822374 -0.05179409
3180841000.0 0.06441791 -0.03051154 -0.04353105 -0.4053646 -0.04683557 -0.4036208 0.07444898 -0.05827833
3200840000.0 0.08176439 0.03887023 -0.319537 0.2424637 -0.3176593 0.245042 0.03301337 0.019686
3220839000.0 -0.02371899 0.02491053 0.3694157 0.1468536 0.3700101 0.142764 -0.0001861594 0.04638319
3240838000.0 0.02011186 -0.0425178 -0.06017311 -0.3989339 -0.06353287 -0.3964395 0.08828054 -0.0219188
3260837000.0 0.01642654 0.05866193 -0.3079087 0.2547363 -0.3063881 0.2553483 0.1042833 -0.05601795
3280836000.0 0.06852252 0.07172742 0.36853 0.13496 0.3714503 0.1307511 -0.04681165 -0.001741016
3300835000.0 0.01399808 -0.07539228 -0.07243842 -0.3898328 -0.07510449 -0.3863129 0.07793812 0.04057468
3320834000.0 -0.01655693 0.06342352 -0.2924139 0.2601506 -0.2936145 0.2618246 0.1315571 -0.08579715
3340833000.0 0.1343098 0.05536877 0.3648289 0.1239434 0.3685248 0.1177451 -0.05647627 -0.08499666
3360832000.0 0.00692809 -0.08569199 -0.07649016 -0.3833312 -0.07822537 -0.3810748 0.02349987 0.0577841
3380831000.0 0.002215891 0.01416559 -0.2888795 0.2633205 -0.2876868 0.267199 0.05568159 -0.02963502
3400830000.0 0.03718222 0.006566755 0.3721858 0.1134523 0.3746897 0.1090103 0.02883378 -0.03992137
3420829000.0 0.03226056 0.01058508 -0.09269395 -0.3762656 -0.0975299 -0.3763455 0.04982332 -0.01974502
3440828000.0 0.02735526 0.004795965 -0.2761737 0.2710051 -0.2730085 0.2745678 0.003718718 -0.005441977
3460827000.0 0.04305752 0.007209375 0.3723299 0.09921706 0.3732165 0.09371623 0.005561032 -0.03716289
3480826000.0 0.09306061 -0.04249733 -0.1012916 -0.3648062 -0.1058653 -0.3641562 0.07175578 0.01413149
3500825000.0 -0.008142413 -0.02763068 -0.2639663 0.2756599 -0.2607279 0.2798713 0.03701182 0.01298485
3520824000.0 -0.0464744 -0.01159676 0.3694907 0.08532406 0.3710096 0.07805868 0.07589343 -0.0444809
3540823000.0 0.09730454 0.07158409 -0.1109821 -0.3565927 -0.1143597 -0.3507379 0.03770474 -0.150014
3560822000.0 0.09982386 -0.08339151 -0.2457328 0.2738726 -0.2462226 0.2778165 -0.07853943 0.0825062
3580821000.0 -0.1425443 -0.02093933 0.3592651 0.07443501 0.3600512 0.06446404 0.1371387 0.03496317
3600820000.0 0.1187563 0.1374077 -0.1112261 -0.344969 -0.1089228 -0.340228 0.06478829 -0.2426023
3620819000.0 0.1554283 -0.1114883 -0.2433651 0.264937 -0.2452168 0.272276 -0.1546779 0.05560264
3640818000.0 -0.1369333 0.01321958 0.3557336 0.07545931 0.3543955 0.06713293 0.0763885 0.1125926
3660817000.0 0.1504677 0.06691907 -0.109513 -0.3533378 -0.1091441 -0.3530284 0.1310303 -0.1570003
3680816000.0 0.1350639 -0.09501893 -0.2484349 0.2802483 -0.2451729 0.287275 -0.06936155 -0.01595033
3700815000.0 -0.04128992 -0.03170251 0.3705397 0.06681416 0.3690143 0.0604082 0.01195363 0.04251814
3720814000.0 0.01666114 -0.061779 -0.1354051 -0.3531688 -0.1389467 -0.3495931 0.058456 -0.01760186
3740813000.0 0.05721687 0.01151734 -0.2313678 0.2964873 -0.2293172 0.2973711 0.1048239 -0.04256524
3760812000.0 0.03134435 -0.05797262 0.3726009 0.04205022 0.3723797 0.03725062 0.006367332 -0.06759582
3780811000.0 -0.09947567 -0.04163462 -0.1548175 -0.3310667 -0.1558605 -0.3284415 -0.02486704 -0.007000746
3800810000.0 0.04896286 0.09470581 -0.2059886 0.2966456 -0.2074545 0.3009951 0.1447691 -0.06957312
3820809000.0 0.1560903 -0.04362865 0.3571189 0.02231599 0.3559507 0.0142544 -0.08736987 -0.117357
3840808000.0 -0.1419184 -0.1170475 -0.1582721 -0.3047858 -0.1550691 -0.3044069 -0.04711043 0.1320958
3860807000.0 0.02797565 0.1918933 -0.1886123 0.2780099 -0.1871638 0.2884392 0.2532936 -0.07749917
3880806000.0 0.2829866 -0.09091873 0.3324234 0.02281389 0.3258513 0.0138533 -0.1081058 -0.2476276
3900805000.0 -0.1446605 -0.2126593 -0.1279796 -0.2947299 -0.1264574 -0.2987183 -0.1449257 0.178071
3920804000.0 -0.01901579 0.1273816 -0.2174162 0.2681027 -0.2108367 0.2796122 0.2081551 0.003116005
3940803000.0 0.1679017 -0.08862613 0.3539647 0.03401148 0.3517427 0.02764884 0.0360546 -0.1648442
3960802000.0 -0.07017936 -0.1076356 -0.1473497 -0.3165568 -0.1520585 -0.3190661 -0.07609468 0.05044207
